X--Trace 1::[transient: TIME],Y--Trace 1::[PR1: V(1)],,X--Trace 2::[transient: TIME],Y--Trace 2::[PR2: V(2)],,X--Trace 3::[transient: TIME],Y--Trace 3::[PR3: V(2)],,X--Trace 4::[transient: TIME],Y--Trace 4::[PR4: V(2)],,X--Trace 5::[transient: TIME],Y--Trace 5::[PR5: V(3)],,X--Trace 6::[transient: TIME],Y--Trace 6::[PR6: V(3)],,X--Trace 7::[transient: TIME],Y--Trace 7::[PR7: V(3)],,X--Trace 8::[transient: TIME],Y--Trace 8::[PR8: V(5)],,X--Trace 9::[transient: TIME],Y--Trace 9::[PR9: V(7)],,X--Trace 10::[transient: TIME],Y--Trace 10::[PR14: V(7)],,X--Trace 11::[transient: TIME],Y--Trace 11::[PR10: V(8)],,X--Trace 12::[transient: TIME],Y--Trace 12::[PR11: V(4)],,X--Trace 13::[transient: TIME],Y--Trace 13::[PR12: V(4)],,X--Trace 14::[transient: TIME],Y--Trace 14::[PR13: V(6)]
0,1.62,,0,1.6183075931279718,,0,1.6183075931279718,,0,1.6183075931279718,,0,1.6064053551665793,,0,1.6064053551665793,,0,1.6064053551665793,,0,1.6064053870293569,,0,1.596177336215334,,0,1.596177336215334,,0,1.5961773361339289,,0,1.62,,0,1.62,,0,1.6080875539438828
1e-7,1.6206283183653514,,1e-7,1.6185096307892015,,1e-7,1.6185096307892015,,1e-7,1.6185096307892015,,1e-7,1.6051864686184771,,1e-7,1.6051864686184771,,1e-7,1.6051864686184771,,1e-7,1.6051864815764794,,1e-7,1.5923384470073738,,1e-7,1.5923384470073738,,1e-7,1.5950472539414347,,1e-7,1.62,,1e-7,1.62,,1e-7,1.6061684594534937
1.614958400418691e-7,1.6210147075928039,,1.614958400418691e-7,1.6185737849932385,,1.614958400418691e-7,1.6185737849932385,,1.614958400418691e-7,1.6185737849932385,,1.614958400418691e-7,1.6041765166488793,,1.614958400418691e-7,1.6041765166488793,,1.614958400418691e-7,1.6041765166488793,,1.614958400418691e-7,1.604176537533641,,1.614958400418691e-7,1.5909059996219235,,1.614958400418691e-7,1.5909059996219235,,1.614958400418691e-7,1.5942017246068667,,1.614958400418691e-7,1.62,,1.614958400418691e-7,1.62,,1.614958400418691e-7,1.6054520889811474
2.844875201256074e-7,1.6217874839990485,,2.844875201256074e-7,1.6186415095641953,,2.844875201256074e-7,1.6186415095641953,,2.844875201256074e-7,1.6186415095641953,,2.844875201256074e-7,1.6018940957834564,,2.844875201256074e-7,1.6018940957834564,,2.844875201256074e-7,1.6018940957834564,,2.844875201256074e-7,1.6018940826972574,,2.844875201256074e-7,1.583823418574329,,2.844875201256074e-7,1.583823418574329,,2.844875201256074e-7,1.5914098665451726,,2.844875201256074e-7,1.62,,2.844875201256074e-7,1.62,,2.844875201256074e-7,1.6019114275960304
5.304708802930839e-7,1.623333022156007,,5.304708802930839e-7,1.618649927358989,,5.304708802930839e-7,1.618649927358989,,5.304708802930839e-7,1.618649927358989,,5.304708802930839e-7,1.596778867495659,,5.304708802930839e-7,1.596778867495659,,5.304708802930839e-7,1.596778867495659,,5.304708802930839e-7,1.5967789281563167,,5.304708802930839e-7,1.5790584686074982,,5.304708802930839e-7,1.5790584686074982,,5.304708802930839e-7,1.5846487817998722,,5.304708802930839e-7,1.62,,5.304708802930839e-7,1.62,,5.304708802930839e-7,1.5995275869794914
0.000001022437600628037,1.626423988161493,,0.000001022437600628037,1.6186589692030593,,0.000001022437600628037,1.6186589692030593,,0.000001022437600628037,1.6186589692030593,,0.000001022437600628037,1.5865151333913292,,0.000001022437600628037,1.5865151333913292,,0.000001022437600628037,1.5865151333913292,,0.000001022437600628037,1.5865150812148043,,0.000001022437600628037,1.5501680800672835,,0.000001022437600628037,1.5501680800672835,,0.000001022437600628037,1.5643540718211955,,0.000001022437600628037,1.62,,0.000001022437600628037,1.62,,0.000001022437600628037,1.5850844824825945
0.0000019324763110374845,1.6321409133858469,,0.0000019324763110374845,1.6186786290838493,,0.0000019324763110374845,1.6186786290838493,,0.0000019324763110374845,1.6186786290838493,,0.0000019324763110374845,1.567544920411729,,0.0000019324763110374845,1.567544920411729,,0.0000019324763110374845,1.567544920411729,,0.0000019324763110374845,1.5675450086648073,,0.0000019324763110374845,1.522634949010933,,0.0000019324763110374845,1.522634949010933,,0.0000019324763110374845,1.527737977764199,,0.0000019324763110374845,1.62,,0.0000019324763110374845,1.62,,0.0000019324763110374845,1.5713153166387577
0.0000036033539342199165,1.6426328043512752,,0.0000036033539342199165,1.6187126057582386,,0.0000036033539342199165,1.6187126057582386,,0.0000036033539342199165,1.6187126057582386,,0.0000036033539342199165,1.5327225546094534,,0.0000036033539342199165,1.5327225546094534,,0.0000036033539342199165,1.5327225546094534,,0.0000036033539342199165,1.532722480765091,,0.0000036033539342199165,1.4409759741716925,,0.0000036033539342199165,1.4409759741716925,,0.0000036033539342199165,1.456354066450182,,0.0000036033539342199165,1.62,,0.0000036033539342199165,1.62,,0.0000036033539342199165,1.5304888316059697
0.0000061543831079826655,1.6586305930384488,,0.0000061543831079826655,1.618765348451711,,0.0000061543831079826655,1.618765348451711,,0.0000061543831079826655,1.618765348451711,,0.0000061543831079826655,1.4796340695316121,,0.0000061543831079826655,1.4796340695316121,,0.0000061543831079826655,1.4796340695316121,,0.0000061543831079826655,1.4796340807939738,,0.0000061543831079826655,1.3411054648351546,,0.0000061543831079826655,1.3411054648351546,,0.0000061543831079826655,1.3508249311713512,,0.0000061543831079826655,1.62,,0.0000061543831079826655,1.62,,0.0000061543831079826655,1.480552001652041
0.000009014944042632018,1.6765214877566947,,0.000009014944042632018,1.6188235913206186,,0.000009014944042632018,1.6188235913206186,,0.000009014944042632018,1.6188235913206186,,0.000009014944042632018,1.420265566808462,,0.000009014944042632018,1.420265566808462,,0.000009014944042632018,1.420265566808462,,0.000009014944042632018,1.4202655688256567,,0.000009014944042632018,1.2216820821039063,,0.000009014944042632018,1.2216820821039063,,0.000009014944042632018,1.2317591565050603,,0.000009014944042632018,1.62,,0.000009014944042632018,1.62,,0.000009014944042632018,1.4208404823871976
0.000014736065911930725,1.7120611720564933,,0.000014736065911930725,1.618938007844864,,0.000014736065911930725,1.618938007844864,,0.000014736065911930725,1.618938007844864,,0.000014736065911930725,1.302343701569097,,0.000014736065911930725,1.302343701569097,,0.000014736065911930725,1.302343701569097,,0.000014736065911930725,1.3023437012333965,,0.000014736065911930725,0.9856616092591398,,0.000014736065911930725,0.9856616092591398,,0.000014736065911930725,0.9953909504398515,,0.000014736065911930725,1.62,,0.000014736065911930725,1.62,,0.000014736065911930725,1.3028302913066645
0.00002617830965052814,1.7815324851967251,,0.00002617830965052814,1.619156988772416,,0.00002617830965052814,1.619156988772416,,0.00002617830965052814,1.619156988772416,,0.00002617830965052814,1.0718846004854277,,0.00002617830965052814,1.0718846004854277,,0.00002617830965052814,1.0718846004854277,,0.00002617830965052814,1.0718845844801097,,0.00002617830965052814,0.5235774669179833,,0.00002617830965052814,0.5235774669179833,,0.00002617830965052814,0.5332122029008083,,0.00002617830965052814,1.62,,0.00002617830965052814,1.62,,0.00002617830965052814,1.071788513776879
0.00002813143465052814,1.7930964591440282,,0.00002813143465052814,1.6191909268060158,,0.00002813143465052814,1.6191909268060158,,0.00002813143465052814,1.6191909268060158,,0.00002813143465052814,1.0335217542412765,,0.00002813143465052814,1.0335217542412765,,0.00002813143465052814,1.0335217542412765,,0.00002813143465052814,1.0335217404808592,,0.00002813143465052814,0.4470173826106333,,0.00002813143465052814,0.4470173826106333,,0.00002813143465052814,0.4562686556837131,,0.00002813143465052814,1.62,,0.00002813143465052814,1.62,,0.00002813143465052814,1.0335084306255857
0.000032037684650528144,1.8159047036360907,,0.000032037684650528144,1.6192621327251495,,0.000032037684650528144,1.6192621327251495,,0.000032037684650528144,1.6192621327251495,,0.000032037684650528144,0.9578836663547391,,0.000032037684650528144,0.9578836663547391,,0.000032037684650528144,0.9578836663547391,,0.000032037684650528144,0.9578836444448151,,0.000032037684650528144,0.29513570648681053,,0.000032037684650528144,0.29513570648681053,,0.000032037684650528144,0.3045093113690325,,0.000032037684650528144,1.62,,0.000032037684650528144,1.62,,0.000032037684650528144,0.9575677446180659
0.000039850184650528144,1.8600515277633327,,0.000039850184650528144,1.6193930780403856,,0.000039850184650528144,1.6193930780403856,,0.000039850184650528144,1.6193930780403856,,0.000039850184650528144,0.811485885634143,,0.000039850184650528144,0.811485885634143,,0.000039850184650528144,0.811485885634143,,0.000039850184650528144,0.8114858611257751,,0.000039850184650528144,0.0021446339270582127,,0.000039850184650528144,0.0021446339270582127,,0.000039850184650528144,0.01079432074162371,,0.000039850184650528144,1.62,,0.000039850184650528144,1.62,,0.000039850184650528144,0.8110722586544507
0.000040094325275528144,1.8613960224217414,,0.000040094325275528144,1.6193974864046923,,0.000040094325275528144,1.6193974864046923,,0.000040094325275528144,1.6193974864046923,,0.000040094325275528144,0.8070299242562234,,0.000040094325275528144,0.8070299242562234,,0.000040094325275528144,0.8070299242562234,,0.000040094325275528144,0.8070298930378157,,0.000040094325275528144,-0.007264680023692346,,0.000040094325275528144,-0.007264680023692346,,0.000040094325275528144,0.001782144433156426,,0.000040094325275528144,1.62,,0.000040094325275528144,1.62,,0.000040094325275528144,0.8063677260084212
0.000040582606525528144,1.8640781827711546,,0.000040582606525528144,1.6194052235379268,,0.000040582606525528144,1.6194052235379268,,0.000040582606525528144,1.6194052235379268,,0.000040582606525528144,0.7981361962057266,,0.000040582606525528144,0.7981361962057266,,0.000040582606525528144,0.7981361962057266,,0.000040582606525528144,0.7981361745463371,,0.000040582606525528144,-0.024343865685167252,,0.000040582606525528144,-0.024343865685167252,,0.000040582606525528144,-0.015965678656373543,,0.000040582606525528144,1.62,,0.000040582606525528144,1.62,,0.000040582606525528144,0.7978279562886954
0.000040704676838028145,1.8647472909509082,,0.000040704676838028145,1.6194072541702318,,0.000040704676838028145,1.6194072541702318,,0.000040704676838028145,1.6194072541702318,,0.000040704676838028145,0.7959179775566645,,0.000040704676838028145,0.7959179775566645,,0.000040704676838028145,0.7959179775566645,,0.000040704676838028145,0.7959179258105051,,0.000040704676838028145,-0.03101017154447239,,0.000040704676838028145,-0.03101017154447239,,0.000040704676838028145,-0.020719386025453645,,0.000040704676838028145,1.62,,0.000040704676838028145,1.62,,0.000040704676838028145,0.7944953605658625
0.000040948817463028145,1.8660837779952424,,0.000040948817463028145,1.6194111785181307,,0.000040948817463028145,1.6194111785181307,,0.000040948817463028145,1.6194111785181307,,0.000040948817463028145,0.7914867386599591,,0.000040948817463028145,0.7914867386599591,,0.000040948817463028145,0.7914867386599591,,0.000040948817463028145,0.79148657828264,,0.000040948817463028145,-0.04792373139697817,,0.000040948817463028145,-0.04792373139697817,,0.000040948817463028145,-0.03337117691750002,,0.000040948817463028145,1.62,,0.000040948817463028145,1.62,,0.000040948817463028145,0.7860405924344591
0.000041009852619278145,1.8664175383356358,,0.000041009852619278145,1.619412166621023,,0.000041009852619278145,1.619412166621023,,0.000041009852619278145,1.619412166621023,,0.000041009852619278145,0.7903801697620474,,0.000041009852619278145,0.7903801697620474,,0.000041009852619278145,0.7903801697620474,,0.000041009852619278145,0.7903800270143662,,0.000041009852619278145,-0.048830304019019194,,0.000041009852619278145,-0.048830304019019194,,0.000041009852619278145,-0.03676060792179196,,0.000041009852619278145,1.62,,0.000041009852619278145,1.62,,0.000041009852619278145,0.7855869796587284
0.000041131922931778145,1.8670846239368981,,0.000041131922931778145,1.6194141196148222,,0.000041131922931778145,1.6194141196148222,,0.000041131922931778145,1.6194141196148222,,0.000041131922931778145,0.7881683884630553,,0.000041131922931778145,0.7881683884630553,,0.000041131922931778145,0.7881683884630553,,0.000041131922931778145,0.7881683251760178,,0.000041131922931778145,-0.04736483534200863,,0.000041131922931778145,-0.04736483534200863,,0.000041131922931778145,-0.04136235279825101,,0.000041131922931778145,1.62,,0.000041131922931778145,1.62,,0.000041131922931778145,0.7863182425075775
0.00004116244050990314,1.8672513045525652,,0.00004116244050990314,1.6194146146944937,,0.00004116244050990314,1.6194146146944937,,0.00004116244050990314,1.6194146146944937,,0.00004116244050990314,0.7876157767755032,,0.00004116244050990314,0.7876157767755032,,0.00004116244050990314,0.7876157767755032,,0.00004116244050990314,0.7876157322304405,,0.00004116244050990314,-0.04708104371594877,,0.00004116244050990314,-0.04708104371594877,,0.00004116244050990314,-0.042063842297813056,,0.00004116244050990314,1.62,,0.00004116244050990314,1.62,,0.00004116244050990314,0.7864597912483489
0.00004122347566615314,1.867584556670708,,0.00004122347566615314,1.6194155890739446,,0.00004122347566615314,1.6194155890739446,,0.00004122347566615314,1.6194155890739446,,0.00004122347566615314,0.786510850434082,,0.00004122347566615314,0.786510850434082,,0.00004122347566615314,0.786510850434082,,0.00004122347566615314,0.7865108904819568,,0.00004122347566615314,-0.04302147268680104,,0.00004122347566615314,-0.04302147268680104,,0.00004122347566615314,-0.04273862221994417,,0.00004122347566615314,1.62,,0.00004122347566615314,1.62,,0.00004122347566615314,0.7884880102122842
0.00004123873445521564,1.8676678469504597,,0.00004123873445521564,1.6194158368288538,,0.00004123873445521564,1.6194158368288538,,0.00004123873445521564,1.6194158368288538,,0.00004123873445521564,0.7862347130628496,,0.00004123873445521564,0.7862347130628496,,0.00004123873445521564,0.7862347130628496,,0.00004123873445521564,0.7862347908701142,,0.00004123873445521564,-0.04077528708230414,,0.00004123873445521564,-0.04077528708230414,,0.00004123873445521564,-0.04268678414135808,,0.00004123873445521564,1.62,,0.00004123873445521564,1.62,,0.00004123873445521564,0.7896104037567305
0.000041269252033340637,1.8678344001887852,,0.000041269252033340637,1.6194163246459363,,0.000041269252033340637,1.6194163246459363,,0.000041269252033340637,1.6194163246459363,,0.000041269252033340637,0.7856824964812269,,0.000041269252033340637,0.7856824964812269,,0.000041269252033340637,0.7856824964812269,,0.000041269252033340637,0.7856827236124073,,0.000041269252033340637,-0.030812871229512533,,0.000041269252033340637,-0.030812871229512533,,0.000041269252033340637,-0.041861754089539516,,0.000041269252033340637,1.62,,0.000041269252033340637,1.62,,0.000041269252033340637,0.7945888463784022
0.000041313911061829225,1.8680780663366585,,0.000041313911061829225,1.61941704522769,,0.000041313911061829225,1.61941704522769,,0.000041313911061829225,1.61941704522769,,0.000041313911061829225,0.7848746390282544,,0.000041313911061829225,0.7848746390282544,,0.000041313911061829225,0.7848746390282544,,0.000041313911061829225,0.784875627663215,,0.000041313911061829225,0.024008812538365183,,0.000041313911061829225,0.024008812538365183,,0.000041313911061829225,-0.035306866759211526,,0.000041313911061829225,1.62,,0.000041313911061829225,1.62,,0.000041313911061829225,0.8219855860705532
0.00004135714310749561,1.8683138722330281,,0.00004135714310749561,1.6194177509970424,,0.00004135714310749561,1.6194177509970424,,0.00004135714310749561,1.6194177509970424,,0.00004135714310749561,0.7840928797451262,,0.00004135714310749561,0.7840928797451262,,0.00004135714310749561,0.7840928797451262,,0.00004135714310749561,0.7840966635808172,,0.00004135714310749561,0.22960630274003369,,0.00004135714310749561,0.22960630274003369,,0.00004135714310749561,-0.008486704249337406,,0.00004135714310749561,1.62,,0.00004135714310749561,1.62,,0.00004135714310749561,0.924732567171326
0.0000414081613383128,1.8685920530017082,,0.0000414081613383128,1.6194186557175299,,0.0000414081613383128,1.6194186557175299,,0.0000414081613383128,1.6194186557175299,,0.0000414081613383128,0.7831709509625018,,0.0000414081613383128,0.7831709509625018,,0.0000414081613383128,0.7831709509625018,,0.0000414081613383128,0.7831911566816481,,0.0000414081613383128,1.4448393123819065,,0.0000414081613383128,1.4448393123819065,,0.0000414081613383128,0.15420228557353355,,0.0000414081613383128,1.62,,0.0000414081613383128,1.62,,0.0000414081613383128,1.5320449569707892
0.000041461767933773966,1.8688842369371685,,0.000041461767933773966,1.6194195788824777,,0.000041461767933773966,1.6194195788824777,,0.000041461767933773966,1.6194195788824777,,0.000041461767933773966,0.7822024986321596,,0.000041461767933773966,0.7822024986321596,,0.000041461767933773966,0.7822024986321596,,0.000041461767933773966,0.7822424406958923,,0.000041461767933773966,2.905624302596403,,0.000041461767933773966,2.905624302596403,,0.000041461767933773966,0.5607282569892655,,0.000041461767933773966,1.62,,0.000041461767933773966,1.62,,0.000041461767933773966,2.2620719569198
0.00004151212432156207,1.8691586026686826,,0.00004151212432156207,1.619420301922675,,0.00004151212432156207,1.619420301922675,,0.00004151212432156207,1.619420301922675,,0.00004151212432156207,0.7812924841329163,,0.00004151212432156207,0.7812924841329163,,0.00004151212432156207,0.7812924841329163,,0.00004151212432156207,0.781333462514311,,0.00004151212432156207,2.98060898220278,,0.00004151212432156207,2.98060898220278,,0.00004151212432156207,1.0136476597980997,,0.00004151212432156207,1.62,,0.00004151212432156207,1.62,,0.00004151212432156207,2.2995451052849836
0.000041563470661298253,1.8694382593995933,,0.000041563470661298253,1.619421071065125,,0.000041563470661298253,1.619421071065125,,0.000041563470661298253,1.619421071065125,,0.000041563470661298253,0.7803650619480761,,0.000041563470661298253,0.7803650619480761,,0.000041563470661298253,0.7803650619480761,,0.000041563470661298253,0.7804069115556326,,0.000041563470661298253,3.0433234012410435,,0.000041563470661298253,3.0433234012410435,,0.000041563470661298253,1.4002969291613714,,0.000041563470661298253,1.62,,0.000041563470661298253,1.62,,0.000041563470661298253,2.3308861806775294
0.00004161697484516167,1.8697295582932372,,0.00004161697484516167,1.6194219115044102,,0.00004161697484516167,1.6194219115044102,,0.00004161697484516167,1.6194219115044102,,0.00004161697484516167,0.7793992034740573,,0.00004161697484516167,0.7793992034740573,,0.00004161697484516167,0.7793992034740573,,0.00004161697484516167,0.7794418306645784,,0.00004161697484516167,3.0990207581942144,,0.00004161697484516167,3.0990207581942144,,0.00004161697484516167,1.7358124457248743,,0.00004161697484516167,1.62,,0.00004161697484516167,1.62,,0.00004161697484516167,2.358720459196067
0.0000417239832128885,1.8703118172713469,,0.0000417239832128885,1.6194235970181563,,0.0000417239832128885,1.6194235970181563,,0.0000417239832128885,1.6194235970181563,,0.0000417239832128885,0.7774686411909527,,0.0000417239832128885,0.7774686411909527,,0.0000417239832128885,0.7774686411909527,,0.0000417239832128885,0.7775124460669266,,0.0000417239832128885,3.182441528659697,,0.0000417239832128885,3.182441528659697,,0.0000417239832128885,2.248554298989701,,0.0000417239832128885,1.62,,0.0000417239832128885,1.62,,0.0000417239832128885,2.4004090350317067
0.000041937999948342155,1.8714749763069103,,0.000041937999948342155,1.6194270044016368,,0.000041937999948342155,1.6194270044016368,,0.000041937999948342155,1.6194270044016368,,0.000041937999948342155,0.7736122247445497,,0.000041937999948342155,0.7736122247445497,,0.000041937999948342155,0.7736122247445497,,0.000041937999948342155,0.7736574862957862,,0.000041937999948342155,3.282687355246582,,0.000041937999948342155,3.282687355246582,,0.000041937999948342155,2.855965766452149,,0.000041937999948342155,1.62,,0.000041937999948342155,1.62,,0.000041937999948342155,2.4505049723756316
