X--Trace 1::[transient: TIME],Y--Trace 1::[PR1: V(1)],,X--Trace 2::[transient: TIME],Y--Trace 2::[PR2: V(2)],,X--Trace 3::[transient: TIME],Y--Trace 3::[PR3: V(2)],,X--Trace 4::[transient: TIME],Y--Trace 4::[PR4: V(2)],,X--Trace 5::[transient: TIME],Y--Trace 5::[PR5: V(3)],,X--Trace 6::[transient: TIME],Y--Trace 6::[PR6: V(3)],,X--Trace 7::[transient: TIME],Y--Trace 7::[PR7: V(3)],,X--Trace 8::[transient: TIME],Y--Trace 8::[PR8: V(5)],,X--Trace 9::[transient: TIME],Y--Trace 9::[PR9: V(7)],,X--Trace 10::[transient: TIME],Y--Trace 10::[PR14: V(7)],,X--Trace 11::[transient: TIME],Y--Trace 11::[PR10: V(8)],,X--Trace 12::[transient: TIME],Y--Trace 12::[PR11: V(4)],,X--Trace 13::[transient: TIME],Y--Trace 13::[PR12: V(4)],,X--Trace 14::[transient: TIME],Y--Trace 14::[PR13: V(6)]
0,1.62,,0,1.6183075931279718,,0,1.6183075931279718,,0,1.6183075931279718,,0,1.6064053551665798,,0,1.6064053551665798,,0,1.6064053551665798,,0,1.6064054495748183,,0,1.596177461557203,,0,1.596177461557203,,0,1.596177461475798,,0,1.62,,0,1.62,,0,1.608087616614749
1e-7,1.6206283183653514,,1e-7,1.61839042538467,,1e-7,1.61839042538467,,1e-7,1.61839042538467,,1e-7,1.6059427026884383,,1e-7,1.6059427026884383,,1e-7,1.6059427026884383,,1e-7,1.6059427758347529,,1e-7,1.594720290926711,,1e-7,1.594720290926711,,1e-7,1.5957485033861687,,1e-7,1.62,,1e-7,1.62,,1e-7,1.607359164196013
2e-7,1.6212566357385019,,2e-7,1.618405121905596,,2e-7,1.618405121905596,,2e-7,1.618405121905596,,2e-7,1.60534378049154,,2e-7,1.60534378049154,,2e-7,1.60534378049154,,2e-7,1.605343860585734,,2e-7,1.5936962322619714,,2e-7,1.5936962322619714,,2e-7,1.5951443611413794,,2e-7,1.62,,2e-7,1.62,,2e-7,1.6068470914475146
4e-7,1.6225132635394095,,4e-7,1.6184117918384986,,4e-7,1.6184117918384986,,4e-7,1.6184117918384986,,4e-7,1.6041004981418914,,4e-7,1.6041004981418914,,4e-7,1.6041004981418914,,4e-7,1.6041005688613255,,4e-7,1.590975137730394,,4e-7,1.590975137730394,,4e-7,1.593490739577348,,4e-7,1.62,,4e-7,1.62,,4e-7,1.6054866027937944
8e-7,1.6250264635783653,,8e-7,1.618410689751888,,8e-7,1.618410689751888,,8e-7,1.618410689751888,,8e-7,1.601585112740454,,8e-7,1.601585112740454,,8e-7,1.601585112740454,,8e-7,1.6015851998358768,,8e-7,1.5863539537251428,,8e-7,1.5863539537251428,,8e-7,1.5891002970658756,,8e-7,1.62,,8e-7,1.62,,8e-7,1.6031759084769222
0.0000016,1.6300524191627288,,0.0000016,1.618418662844183,,0.0000016,1.618418662844183,,0.0000016,1.618418662844183,,0.0000016,1.5965751713657914,,0.0000016,1.5965751713657914,,0.0000016,1.5965751713657914,,0.0000016,1.5965752366067294,,0.0000016,1.575787291600685,,0.0000016,1.575787291600685,,0.0000016,1.5790584968673458,,0.0000016,1.62,,0.0000016,1.62,,0.0000016,1.5978927140831054
0.0000032,1.6401007746814766,,0.0000032,1.618425930027316,,0.0000032,1.618425930027316,,0.0000032,1.618425930027316,,0.0000032,1.5865416079527188,,0.0000032,1.5865416079527188,,0.0000032,1.5865416079527188,,0.0000032,1.5865416957446277,,0.0000032,1.556284065076129,,0.0000032,1.556284065076129,,0.0000032,1.559017610290126,,0.0000032,1.62,,0.0000032,1.62,,0.0000032,1.5881409600249532
0.0000064,1.6601690500666972,,0.0000064,1.6184483092503839,,0.0000064,1.6184483092503839,,0.0000064,1.6184483092503839,,0.0000064,1.5665190926075445,,0.0000064,1.5665190926075445,,0.0000064,1.5665190926075445,,0.0000064,1.566519151388085,,0.0000064,1.515512928456255,,0.0000064,1.515512928456255,,0.0000064,1.5188038996157014,,0.0000064,1.62,,0.0000064,1.62,,0.0000064,1.5677555733400188
0.000012479999999999999,1.698093113473714,,0.000012479999999999999,1.61848412587661,,0.000012479999999999999,1.61848412587661,,0.000012479999999999999,1.61848412587661,,0.000012479999999999999,1.5286703425329111,,0.000012479999999999999,1.5286703425329111,,0.000012479999999999999,1.5286703425329111,,0.000012479999999999999,1.5286704089552896,,0.000012479999999999999,1.4400058269416536,,0.000012479999999999999,1.4400058269416536,,0.000012479999999999999,1.442980091457173,,0.000012479999999999999,1.62,,0.000012479999999999999,1.62,,0.000012479999999999999,1.5300019753880234
0.000024639999999999998,1.7723556843138335,,0.000024639999999999998,1.6185549913595365,,0.000024639999999999998,1.6185549913595365,,0.000024639999999999998,1.6185549913595365,,0.000024639999999999998,1.454563730706912,,0.000024639999999999998,1.454563730706912,,0.000024639999999999998,1.454563730706912,,0.000024639999999999998,1.4545637853494249,,0.000024639999999999998,1.2914964514891163,,0.000024639999999999998,1.2914964514891163,,0.000024639999999999998,1.294383998138192,,0.000024639999999999998,1.62,,0.000024639999999999998,1.62,,0.000024639999999999998,1.4557473623989439
0.000040264999999999995,1.8623345880280056,,0.000040264999999999995,1.618637324741648,,0.000040264999999999995,1.618637324741648,,0.000040264999999999995,1.618637324741648,,0.000040264999999999995,1.3647806469511805,,0.000040264999999999995,1.3647806469511805,,0.000040264999999999995,1.3647806469511805,,0.000040264999999999995,1.364780688652531,,0.000040264999999999995,1.1116047689181494,,0.000040264999999999995,1.1116047689181494,,0.000040264999999999995,1.114265279512134,,0.000040264999999999995,1.62,,0.000040264999999999995,1.62,,0.000040264999999999995,1.365801603344173
0.000055889999999999995,1.9430007094270643,,0.000055889999999999995,1.618705647342835,,0.000055889999999999995,1.618705647342835,,0.000055889999999999995,1.618705647342835,,0.000055889999999999995,1.2842958379374863,,0.000055889999999999995,1.2842958379374863,,0.000055889999999999995,1.2842958379374863,,0.000055889999999999995,1.2842958686685453,,0.000055889999999999995,0.9503591224208691,,0.000055889999999999995,0.9503591224208691,,0.000055889999999999995,0.9526570119436992,,0.000055889999999999995,1.62,,0.000055889999999999995,1.62,,0.000055889999999999995,1.2851788498684737
0.000071515,2.0112540947037254,,0.000071515,1.6187606234583463,,0.000071515,1.6187606234583463,,0.000071515,1.6187606234583463,,0.000071515,1.2162087852123766,,0.000071515,1.2162087852123766,,0.000071515,1.2162087852123766,,0.000071515,1.2162088072751631,,0.000071515,0.813966820676463,,0.000071515,0.813966820676463,,0.000071515,0.8158659012066286,,0.000071515,1.62,,0.000071515,1.62,,0.000071515,1.2169827541953564
0.00008714,2.0644718045387465,,0.00008714,1.618796219616361,,0.00008714,1.618796219616361,,0.00008714,1.618796219616361,,0.00008714,1.1631281920724634,,0.00008714,1.1631281920724634,,0.00008714,1.1631281920724634,,0.00008714,1.1631282083989583,,0.00008714,0.7076610807236426,,0.00008714,0.7076610807236426,,0.00008714,0.7090396019004979,,0.00008714,1.62,,0.00008714,1.62,,0.00008714,1.1638299208677017
0.000102765,2.1006087121880035,,0.000102765,1.6188149668714287,,0.000102765,1.6188149668714287,,0.000102765,1.6188149668714287,,0.000102765,1.1271017115042845,,0.000102765,1.1271017115042845,,0.000102765,1.1271017115042845,,0.000102765,1.1271017249465771,,0.000102765,0.6355352510971174,,0.000102765,0.6355352510971174,,0.000102765,0.6363858628128375,,0.000102765,1.62,,0.000102765,1.62,,0.000102765,1.1277670246214566
0.00011839,2.1182760965563463,,0.00011839,1.6188122674313286,,0.00011839,1.6188122674313286,,0.00011839,1.6188122674313286,,0.00011839,1.109506063846807,,0.00011839,1.109506063846807,,0.00011839,1.109506063846807,,0.00011839,1.1095060776713048,,0.00011839,0.6003531640163909,,0.00011839,0.6003531640163909,,0.00011839,0.6006005042935305,,0.00011839,1.62,,0.00011839,1.62,,0.00011839,1.1101759789562244
0.000134015,2.116795009970483,,0.000134015,1.618792080875366,,0.000134015,1.618792080875366,,0.000134015,1.618792080875366,,0.000134015,1.1110251492253769,,0.000134015,1.1110251492253769,,0.000134015,1.1110251492253769,,0.000134015,1.1110251663774924,,0.000134015,0.6034746038943174,,0.000134015,0.6034746038943174,,0.000134015,0.6031490694976208,,0.000134015,1.62,,0.000134015,1.62,,0.000134015,1.1117366780743505
0.00014963999999999998,2.0962223697573052,,0.00014963999999999998,1.6187513484999867,,0.00014963999999999998,1.6187513484999867,,0.00014963999999999998,1.6187513484999867,,0.00014963999999999998,1.1315929187041585,,0.00014963999999999998,1.1315929187041585,,0.00014963999999999998,1.1315929187041585,,0.00014963999999999998,1.1315929423102586,,0.00014963999999999998,0.6447719980256058,,0.00014963999999999998,0.6447719980256058,,0.00014963999999999998,0.6438487995219899,,0.00014963999999999998,1.62,,0.00014963999999999998,1.62,,0.00014963999999999998,1.1323853344932984
0.000165265,2.0573487709429363,,0.000165265,1.6186954488524454,,0.000165265,1.6186954488524454,,0.000165265,1.6186954488524454,,0.000165265,1.1704265884585185,,0.000165265,1.1704265884585185,,0.000165265,1.1704265884585185,,0.000165265,1.170426621085868,,0.000165265,0.7226657774179526,,0.000165265,0.7226657774179526,,0.000165265,0.721215249383868,,0.000165265,1.62,,0.000165265,1.62,,0.000165265,1.171332167223012
0.00018089,2.0016681041292466,,0.00018089,1.618622738013699,,0.00018089,1.618622738013699,,0.00018089,1.618622738013699,,0.00018089,1.2260262157027704,,0.00018089,1.2260262157027704,,0.00018089,1.2260262157027704,,0.00018089,1.226026259885013,,0.00018089,0.8341551854402328,,0.00018089,0.8341551854402328,,0.00018089,0.8322005080818259,,0.00018089,1.62,,0.00018089,1.62,,0.00018089,1.2270767981806119
0.00019651500000000003,1.9313201461158085,,0.00019651500000000003,1.6185397813592621,,0.00019651500000000003,1.6185397813592621,,0.00019651500000000003,1.6185397813592621,,0.00019651500000000003,1.2962626777928865,,0.00019651500000000003,1.2962626777928865,,0.00019651500000000003,1.2962626777928865,,0.00019651500000000003,1.2962627353048213,,0.00019651500000000003,0.9749629520464529,,0.00019651500000000003,0.9749629520464529,,0.00019651500000000003,0.9726096521191199,,0.00019651500000000003,1.62,,0.00019651500000000003,1.62,,0.00019651500000000003,1.297480597117935
0.00021214000000000004,1.8490083294774893,,0.00021214000000000004,1.6184460165792716,,0.00021214000000000004,1.6184460165792716,,0.00021214000000000004,1.6184460165792716,,0.00021214000000000004,1.3784293238924963,,0.00021214000000000004,1.3784293238924963,,0.00021214000000000004,1.3784293238924963,,0.00021214000000000004,1.378429396312969,,0.00021214000000000004,1.1396708196761849,,0.00021214000000000004,1.1396708196761849,,0.00021214000000000004,1.1369809452292414,,0.00021214000000000004,1.62,,0.00021214000000000004,1.62,,0.00021214000000000004,1.3798344365200397
0.00022776500000000005,1.757895851166701,,0.00022776500000000005,1.6183487765776956,,0.00022776500000000005,1.6183487765776956,,0.00022776500000000005,1.6183487765776956,,0.00022776500000000005,1.4693759925974745,,0.00022776500000000005,1.4693759925974745,,0.00022776500000000005,1.4693759925974745,,0.00022776500000000005,1.4693760806148175,,0.00022776500000000005,1.3219561266599098,,0.00022776500000000005,1.3219561266599098,,0.00022776500000000005,1.3190595384168504,,0.00022776500000000005,1.62,,0.00022776500000000005,1.62,,0.00022776500000000005,1.4709769911653527
0.00024339000000000007,1.6614841126284605,,0.00024339000000000007,1.6182480892491948,,0.00024339000000000007,1.6182480892491948,,0.00024339000000000007,1.6182480892491948,,0.00024339000000000007,1.5656002340533983,,0.00024339000000000007,1.5656002340533983,,0.00024339000000000007,1.5656002340533983,,0.00024339000000000007,1.5656003380752352,,0.00024339000000000007,1.5148068813600783,,0.00024339000000000007,1.5148068813600783,,0.00024339000000000007,1.511790184856948,,0.00024339000000000007,1.62,,0.00024339000000000007,1.62,,0.00024339000000000007,1.5674022670419892
0.0002590150000000001,1.5634781629064667,,0.0002590150000000001,1.6181515124814134,,0.0002590150000000001,1.6181515124814134,,0.0002590150000000001,1.6181515124814134,,0.0002590150000000001,1.6634115792590083,,0.0002590150000000001,1.6634115792590083,,0.0002590150000000001,1.6634115792590083,,0.0002590150000000001,1.6634116987583532,,0.0002590150000000001,1.7108186930619749,,0.0002590150000000001,1.7108186930619749,,0.0002590150000000001,1.7078208547980407,,0.0002590150000000001,1.62,,0.0002590150000000001,1.62,,0.0002590150000000001,1.6654080746893687
0.0002746400000000001,1.467644315686166,,0.0002746400000000001,1.6180590894714262,,0.0002746400000000001,1.6180590894714262,,0.0002746400000000001,1.6180590894714262,,0.0002746400000000001,1.759043854272485,,0.0002746400000000001,1.759043854272485,,0.0002746400000000001,1.759043854272485,,0.0002746400000000001,1.7590439884478417,,0.0002746400000000001,1.9024522717045897,,0.0002746400000000001,1.9024522717045897,,0.0002746400000000001,1.8995670303254846,,0.0002746400000000001,1.62,,0.0002746400000000001,1.62,,0.0002746400000000001,1.7612247708492803
0.0002902650000000001,1.377665411971994,,0.0002902650000000001,1.6179780199778464,,0.0002902650000000001,1.6179780199778464,,0.0002902650000000001,1.6179780199778464,,0.0002902650000000001,1.84882925796001,,0.0002902650000000001,1.84882925796001,,0.0002902650000000001,1.84882925796001,,0.0002902650000000001,1.8488294051250593,,0.0002902650000000001,2.082349808145545,,0.0002902650000000001,2.082349808145545,,0.0002902650000000001,2.079708035070522,,0.0002902650000000001,1.62,,0.0002902650000000001,1.62,,0.0002902650000000001,1.8511734565357412
0.0003058900000000001,1.2969992905729355,,0.0003058900000000001,1.6179077915452271,,0.0003058900000000001,1.6179077915452271,,0.0003058900000000001,1.6179077915452271,,0.0003058900000000001,1.92931012937883,,0.0003058900000000001,1.92931012937883,,0.0003058900000000001,1.92931012937883,,0.0003058900000000001,1.9293102876692911,,0.0003058900000000001,2.2435914596360567,,0.0003058900000000001,2.2435914596360567,,0.0003058900000000001,2.241276066769339,,0.0003058900000000001,1.62,,0.0003058900000000001,1.62,,0.0003058900000000001,1.9317942115385436
0.00032151500000000014,1.2287459052962744,,0.00032151500000000014,1.6178547109746355,,0.00032151500000000014,1.6178547109746355,,0.00032151500000000014,1.6178547109746355,,0.00032151500000000014,1.9974008472742601,,0.00032151500000000014,1.9974008472742601,,0.00032151500000000014,1.9974008472742601,,0.00032151500000000014,1.9974010140768348,,0.00032151500000000014,2.3799871855520025,,0.00032151500000000014,2.3799871855520025,,0.00032151500000000014,2.3781044640297466,,0.00032151500000000014,1.62,,0.00032151500000000014,1.62,,0.00032151500000000014,1.9999920202734307
0.00033714000000000015,1.175528195461253,,0.00033714000000000015,1.6178172299950653,,0.00033714000000000015,1.6178172299950653,,0.00033714000000000015,1.6178172299950653,,0.00033714000000000015,2.050477544878751,,0.00033714000000000015,2.050477544878751,,0.00033714000000000015,2.050477544878751,,0.00033714000000000015,2.0504777175746107,,0.00033714000000000015,2.4862890614707513,,0.00033714000000000015,2.4862890614707513,,0.00033714000000000015,2.48489526995395,,0.00033714000000000015,1.62,,0.00033714000000000015,1.62,,0.00033714000000000015,2.0531429206027973
0.00035276500000000016,1.1393912878119965,,0.00035276500000000016,1.6178003574059914,,0.00035276500000000016,1.6178003574059914,,0.00035276500000000016,1.6178003574059914,,0.00035276500000000016,2.0865076488990466,,0.00035276500000000016,2.0865076488990466,,0.00035276500000000016,2.0865076488990466,,0.00035276500000000016,2.0865078243213167,,0.00035276500000000016,2.5584181909872163,,0.00035276500000000016,2.5584181909872163,,0.00035276500000000016,2.5575818419204053,,0.00035276500000000016,1.62,,0.00035276500000000016,1.62,,0.00035276500000000016,2.0892074677802146
0.0003683900000000002,1.121723903443654,,0.0003683900000000002,1.6178011927731977,,0.0003683900000000002,1.6178011927731977,,0.0003683900000000002,1.6178011927731977,,0.0003683900000000002,2.1040994425581223,,0.0003683900000000002,2.1040994425581223,,0.0003683900000000002,2.1040994425581223,,0.0003683900000000002,2.1040996177565883,,0.0003683900000000002,2.5935965323246917,,0.0003683900000000002,2.5935965323246917,,0.0003683900000000002,2.593335889735367,,0.0003683900000000002,1.62,,0.0003683900000000002,1.62,,0.0003683900000000002,2.106796639583859
0.0003840150000000002,1.1232049900295173,,0.0003840150000000002,1.6178232333757596,,0.0003840150000000002,1.6178232333757596,,0.0003840150000000002,1.6178232333757596,,0.0003840150000000002,2.1025839394326153,,0.0003840150000000002,2.1025839394326153,,0.0003840150000000002,2.1025839394326153,,0.0003840150000000002,2.1025841111444747,,0.0003840150000000002,2.590478279994188,,0.0003840150000000002,2.590478279994188,,0.0003840150000000002,2.590816229525807,,0.0003840150000000002,1.62,,0.0003840150000000002,1.62,,0.0003840150000000002,2.105237535233083
0.0003996400000000002,1.1437776302426954,,0.0003996400000000002,1.6178621221690486,,0.0003996400000000002,1.6178621221690486,,0.0003996400000000002,1.6178621221690486,,0.0003996400000000002,2.0820123569764664,,0.0003996400000000002,2.0820123569764664,,0.0003996400000000002,2.0820123569764664,,0.0003996400000000002,2.0820125223937422,,0.0003996400000000002,2.549177247168949,,0.0003996400000000002,2.549177247168949,,0.0003996400000000002,2.5500888776931334,,0.0003996400000000002,1.62,,0.0003996400000000002,1.62,,0.0003996400000000002,2.084587058470974
0.0004152650000000002,1.1826512290570645,,0.0004152650000000002,1.617919855499989,,0.0004152650000000002,1.617919855499989,,0.0004152650000000002,1.617919855499989,,0.0004152650000000002,2.0431822287886012,,0.0004152650000000002,2.0431822287886012,,0.0004152650000000002,2.0431822287886012,,0.0004152650000000002,2.043182385024824,,0.0004152650000000002,2.471286553567513,,0.0004152650000000002,2.471286553567513,,0.0004152650000000002,2.4727478686890243,,0.0004152650000000002,1.62,,0.0004152650000000002,1.62,,0.0004152650000000002,2.045641769635364
0.00043089000000000023,1.2383318958707545,,0.00043089000000000023,1.6179907429929066,,0.00043089000000000023,1.6179907429929066,,0.00043089000000000023,1.6179907429929066,,0.00043089000000000023,1.987578829079253,,0.00043089000000000023,1.987578829079253,,0.00043089000000000023,1.987578829079253,,0.00043089000000000023,1.9875789739206255,,0.00043089000000000023,2.3597936039310587,,0.00043089000000000023,2.3597936039310587,,0.00043089000000000023,2.361738241539344,,0.00043089000000000023,1.62,,0.00043089000000000023,1.62,,0.00043089000000000023,1.989895366870519
0.00044651500000000025,1.308679853884193,,0.00044651500000000025,1.6180755132204443,,0.00044651500000000025,1.6180755132204443,,0.00044651500000000025,1.6180755132204443,,0.00044651500000000025,1.9173458683745617,,0.00044651500000000025,1.9173458683745617,,0.00044651500000000025,1.9173458683745617,,0.00044651500000000025,1.9173459997259583,,0.00044651500000000025,2.218988830750184,,0.00044651500000000025,2.218988830750184,,0.00044651500000000025,2.221351483270658,,0.00044651500000000025,1.62,,0.00044651500000000025,1.62,,0.00044651500000000025,1.9194930656476057
0.00046214000000000026,1.390991670522512,,0.00046214000000000026,1.6181674746395962,,0.00046214000000000026,1.6181674746395962,,0.00046214000000000026,1.6181674746395962,,0.00046214000000000026,1.8351754898193218,,0.00046214000000000026,1.8351754898193218,,0.00046214000000000026,1.8351754898193218,,0.00046214000000000026,1.8351756064225513,,0.00046214000000000026,2.0542775097369357,,0.00046214000000000026,2.0542775097369357,,0.00046214000000000026,2.0569586908967668,,0.00046214000000000026,1.62,,0.00046214000000000026,1.62,,0.00046214000000000026,1.8371374985514892
0.0004777650000000003,1.4821041488333004,,0.0004777650000000003,1.6182665083536247,,0.0004777650000000003,1.6182665083536247,,0.0004777650000000003,1.6182665083536247,,0.0004777650000000003,1.7442322828181334,,0.0004777650000000003,1.7442322828181334,,0.0004777650000000003,1.7442322828181334,,0.0004777650000000003,1.7442323836640228,,0.0004777650000000003,1.8719951121519907,,0.0004777650000000003,1.8719951121519907,,0.0004777650000000003,1.874899789190234,,0.0004777650000000003,1.62,,0.0004777650000000003,1.62,,0.0004777650000000003,1.745996399608475
