X--Trace 1::[transient: TIME],Y--Trace 1::[PR1: V(1)],,X--Trace 2::[transient: TIME],Y--Trace 2::[PR2: V(2)],,X--Trace 3::[transient: TIME],Y--Trace 3::[PR3: V(2)],,X--Trace 4::[transient: TIME],Y--Trace 4::[PR4: V(2)],,X--Trace 5::[transient: TIME],Y--Trace 5::[PR5: V(3)],,X--Trace 6::[transient: TIME],Y--Trace 6::[PR6: V(3)],,X--Trace 7::[transient: TIME],Y--Trace 7::[PR7: V(3)],,X--Trace 8::[transient: TIME],Y--Trace 8::[PR8: V(5)],,X--Trace 9::[transient: TIME],Y--Trace 9::[PR9: V(7)],,X--Trace 10::[transient: TIME],Y--Trace 10::[PR14: V(7)],,X--Trace 11::[transient: TIME],Y--Trace 11::[PR10: V(8)],,X--Trace 12::[transient: TIME],Y--Trace 12::[PR11: V(4)],,X--Trace 13::[transient: TIME],Y--Trace 13::[PR12: V(4)],,X--Trace 14::[transient: TIME],Y--Trace 14::[PR13: V(6)]
0,1.62,,0,1.6183075931279718,,0,1.6183075931279718,,0,1.6183075931279718,,0,1.6064053551665793,,0,1.6064053551665793,,0,1.6064053551665793,,0,1.6064053669676075,,0,1.596177296011441,,0,1.596177296011441,,0,1.596177295930036,,0,1.62,,0,1.62,,0,1.6080875338419092
1e-7,1.6206283183653514,,1e-7,1.618390425384671,,1e-7,1.618390425384671,,1e-7,1.618390425384671,,1e-7,1.6059427026884416,,1e-7,1.6059427026884416,,1e-7,1.6059427026884416,,1e-7,1.6059427118318363,,1e-7,1.5947201839742238,,1e-7,1.5947201839742238,,1e-7,1.5957483550889422,,1e-7,1.62,,1e-7,1.62,,1e-7,1.6073591107145093
2e-7,1.6212566357385019,,2e-7,1.6184051219055937,,2e-7,1.6184051219055937,,2e-7,1.6184051219055937,,2e-7,1.6053437804915374,,2e-7,1.6053437804915374,,2e-7,1.6053437804915374,,2e-7,1.6053437905032086,,2e-7,1.5936960714927582,,2e-7,1.5936960714927582,,2e-7,1.5951442091726817,,2e-7,1.62,,2e-7,1.62,,2e-7,1.6068470110680557
4e-7,1.6225132635394095,,4e-7,1.6184117918385041,,4e-7,1.6184117918385041,,4e-7,1.6184117918385041,,4e-7,1.6041004981419047,,4e-7,1.6041004981419047,,4e-7,1.6041004981419047,,4e-7,1.6041005069821,,4e-7,1.5909750671771623,,4e-7,1.5909750671771623,,4e-7,1.59349060898485,,4e-7,1.62,,4e-7,1.62,,4e-7,1.6054865675038843
8e-7,1.6250264635783653,,8e-7,1.6184106897518795,,8e-7,1.6184106897518795,,8e-7,1.6184106897518795,,8e-7,1.6015851127404386,,8e-7,1.6015851127404386,,8e-7,1.6015851127404386,,8e-7,1.6015851236269418,,8e-7,1.5863537163545405,,8e-7,1.5863537163545405,,8e-7,1.5891001452139562,,8e-7,1.62,,8e-7,1.62,,8e-7,1.6031757898128491
0.0000016,1.6300524191627288,,0.0000016,1.6184186628441937,,0.0000016,1.6184186628441937,,0.0000016,1.6184186628441937,,0.0000016,1.5965751713658138,,0.0000016,1.5965751713658138,,0.0000016,1.5965751713658138,,0.0000016,1.5965751795214593,,0.0000016,1.5757872831423687,,0.0000016,1.5757872831423687,,0.0000016,1.5790583812042147,,0.0000016,1.62,,0.0000016,1.62,,0.0000016,1.5978927098275326
0.0000032,1.6401007746814766,,0.0000032,1.6184259300273038,,0.0000032,1.6184259300273038,,0.0000032,1.6184259300273038,,0.0000032,1.5865416079527048,,0.0000032,1.5865416079527048,,0.0000032,1.5865416079527048,,0.0000032,1.586541618926101,,0.0000032,1.5562837928944844,,0.0000032,1.5562837928944844,,0.0000032,1.5590174566824353,,0.0000032,1.62,,0.0000032,1.62,,0.0000032,1.588140823963755
0.0000064,1.6601690500666972,,0.0000064,1.6184483092503958,,0.0000064,1.6184483092503958,,0.0000064,1.6184483092503958,,0.0000064,1.5665190926075758,,0.0000064,1.5665190926075758,,0.0000064,1.5665190926075758,,0.0000064,1.5665190999557672,,0.0000064,1.5155129504511273,,0.0000064,1.5155129504511273,,0.0000064,1.5188037956061926,,0.0000064,1.62,,0.0000064,1.62,,0.0000064,1.567755584306241
0.000012479999999999999,1.698093113473714,,0.000012479999999999999,1.6184841258766096,,0.000012479999999999999,1.6184841258766096,,0.000012479999999999999,1.6184841258766096,,0.000012479999999999999,1.5286703425329093,,0.000012479999999999999,1.5286703425329093,,0.000012479999999999999,1.5286703425329093,,0.000012479999999999999,1.5286703508356871,,0.000012479999999999999,1.4400057067759642,,0.000012479999999999999,1.4400057067759642,,0.000012479999999999999,1.44297997456616,,0.000012479999999999999,1.62,,0.000012479999999999999,1.62,,0.000012479999999999999,1.5300019153061337
0.000024639999999999998,1.7723556843138335,,0.000024639999999999998,1.6185549913595365,,0.000024639999999999998,1.6185549913595365,,0.000024639999999999998,1.6185549913595365,,0.000024639999999999998,1.4545637307069128,,0.000024639999999999998,1.4545637307069128,,0.000024639999999999998,1.4545637307069128,,0.000024639999999999998,1.454563737537234,,0.000024639999999999998,1.2914963573170979,,0.000024639999999999998,1.2914963573170979,,0.000024639999999999998,1.2943839020232528,,0.000024639999999999998,1.62,,0.000024639999999999998,1.62,,0.000024639999999999998,1.4557473153125542
0.000040264999999999995,1.8623345880280056,,0.000040264999999999995,1.6186373247416477,,0.000040264999999999995,1.6186373247416477,,0.000040264999999999995,1.6186373247416477,,0.000040264999999999995,1.3647806469511803,,0.000040264999999999995,1.3647806469511803,,0.000040264999999999995,1.3647806469511803,,0.000040264999999999995,1.3647806521638464,,0.000040264999999999995,1.1116046953432073,,0.000040264999999999995,1.1116046953432073,,0.000040264999999999995,1.114265206091638,,0.000040264999999999995,1.62,,0.000040264999999999995,1.62,,0.000040264999999999995,1.3658015665568688
0.000055889999999999995,1.9430007094270643,,0.000055889999999999995,1.6187056473428347,,0.000055889999999999995,1.6187056473428347,,0.000055889999999999995,1.6187056473428347,,0.000055889999999999995,1.2842958379374863,,0.000055889999999999995,1.2842958379374863,,0.000055889999999999995,1.2842958379374863,,0.000055889999999999995,1.2842958417788706,,0.000055889999999999995,0.9503590690684728,,0.000055889999999999995,0.9503590690684728,,0.000055889999999999995,0.9526569578440619,,0.000055889999999999995,1.62,,0.000055889999999999995,1.62,,0.000055889999999999995,1.2851788231921213
0.000071515,2.0112540947037254,,0.000071515,1.6187606234583463,,0.000071515,1.6187606234583463,,0.000071515,1.6187606234583463,,0.000071515,1.216208785212263,,0.000071515,1.216208785212263,,0.000071515,1.216208785212263,,0.000071515,1.2162087879701082,,0.000071515,0.8139667815114493,,0.000071515,0.8139667815114493,,0.000071515,0.8158658623220342,,0.000071515,1.62,,0.000071515,1.62,,0.000071515,1.2169827346130129
0.00008714,2.0644718045387465,,0.00008714,1.6187962196163614,,0.00008714,1.6187962196163614,,0.00008714,1.6187962196163614,,0.00008714,1.163128192072236,,0.00008714,1.163128192072236,,0.00008714,1.163128192072236,,0.00008714,1.16312819411305,,0.00008714,0.7076610526179768,,0.00008714,0.7076610526179768,,0.00008714,0.7090395732018904,,0.00008714,1.62,,0.00008714,1.62,,0.00008714,1.1638299068147284
0.000102765,2.1006087121880035,,0.000102765,1.6188149668714287,,0.000102765,1.6188149668714287,,0.000102765,1.6188149668714287,,0.000102765,1.127101711504057,,0.000102765,1.127101711504057,,0.000102765,1.127101711504057,,0.000102765,1.1271017131843404,,0.000102765,0.6355352270176727,,0.000102765,0.6355352270176727,,0.000102765,0.6363858391711792,,0.000102765,1.62,,0.000102765,1.62,,0.000102765,1.1277670125818982
0.00011839,2.1182760965563463,,0.00011839,1.6188122674313288,,0.00011839,1.6188122674313288,,0.00011839,1.6188122674313288,,0.00011839,1.10950606384658,,0.00011839,1.10950606384658,,0.00011839,1.10950606384658,,0.00011839,1.1095060655746443,,0.00011839,0.6003531402843694,,0.00011839,0.6003531402843694,,0.00011839,0.6006004801394448,,0.00011839,1.62,,0.00011839,1.62,,0.00011839,1.1101759670900984
0.000134015,2.116795009970483,,0.000134015,1.6187920808753664,,0.000134015,1.6187920808753664,,0.000134015,1.6187920808753664,,0.000134015,1.1110251492251493,,0.000134015,1.1110251492251493,,0.000134015,1.1110251492251493,,0.000134015,1.1110251513691605,,0.000134015,0.6034745732785296,,0.000134015,0.6034745732785296,,0.000134015,0.6031490394836868,,0.000134015,1.62,,0.000134015,1.62,,0.000134015,1.111736662766634
0.00014963999999999998,2.0962223697573052,,0.00014963999999999998,1.6187513484999871,,0.00014963999999999998,1.6187513484999871,,0.00014963999999999998,1.6187513484999871,,0.00014963999999999998,1.1315929187039313,,0.00014963999999999998,1.1315929187039313,,0.00014963999999999998,1.1315929187039313,,0.00014963999999999998,1.1315929216546956,,0.00014963999999999998,0.6447719571290362,,0.00014963999999999998,0.6447719571290362,,0.00014963999999999998,0.6438487583654399,,0.00014963999999999998,1.62,,0.00014963999999999998,1.62,,0.00014963999999999998,1.1323853140448945
0.000165265,2.0573487709429363,,0.000165265,1.6186954488524452,,0.000165265,1.6186954488524452,,0.000165265,1.6186954488524452,,0.000165265,1.1704265884584042,,0.000165265,1.1704265884584042,,0.000165265,1.1704265884584042,,0.000165265,1.1704265925368194,,0.000165265,0.7226657196379417,,0.000165265,0.7226657196379417,,0.000165265,0.72121519235095,,0.000165265,1.62,,0.000165265,1.62,,0.000165265,1.1713321383331685
0.00018089,2.0016681041292466,,0.00018089,1.6186227380136988,,0.00018089,1.6186227380136988,,0.00018089,1.6186227380136988,,0.00018089,1.2260262157027704,,0.00018089,1.2260262157027704,,0.00018089,1.2260262157027704,,0.00018089,1.2260262212255522,,0.00018089,0.8341551084555732,,0.00018089,0.8341551084555732,,0.00018089,0.8322004309662417,,0.00018089,1.62,,0.00018089,1.62,,0.00018089,1.2270767596882006
0.00019651500000000003,1.9313201461158085,,0.00019651500000000003,1.6185397813592621,,0.00019651500000000003,1.6185397813592621,,0.00019651500000000003,1.6185397813592621,,0.00019651500000000003,1.2962626777928858,,0.00019651500000000003,1.2962626777928858,,0.00019651500000000003,1.2962626777928858,,0.00019651500000000003,1.2962626849818735,,0.00019651500000000003,0.9749628506082907,,0.00019651500000000003,0.9749628506082907,,0.00019651500000000003,0.9726095515320258,,0.00019651500000000003,1.62,,0.00019651500000000003,1.62,,0.00019651500000000003,1.2974805463990504
0.00021214000000000004,1.8490083294774893,,0.00021214000000000004,1.618446016579272,,0.00021214000000000004,1.618446016579272,,0.00021214000000000004,1.618446016579272,,0.00021214000000000004,1.3784293238924963,,0.00021214000000000004,1.3784293238924963,,0.00021214000000000004,1.3784293238924963,,0.00021214000000000004,1.3784293329450563,,0.00021214000000000004,1.1396706931744203,,0.00021214000000000004,1.1396706931744203,,0.00021214000000000004,1.1369808186731782,,0.00021214000000000004,1.62,,0.00021214000000000004,1.62,,0.00021214000000000004,1.3798343732691298
0.00022776500000000005,1.757895851166701,,0.00022776500000000005,1.6183487765776954,,0.00022776500000000005,1.6183487765776954,,0.00022776500000000005,1.6183487765776954,,0.00022776500000000005,1.4693759925974739,,0.00022776500000000005,1.4693759925974739,,0.00022776500000000005,1.4693759925974739,,0.00022776500000000005,1.469376003599637,,0.00022776500000000005,1.3219559717148535,,0.00022776500000000005,1.3219559717148535,,0.00022776500000000005,1.3190593843695673,,0.00022776500000000005,1.62,,0.00022776500000000005,1.62,,0.00022776500000000005,1.4709769136930624
0.00024339000000000007,1.6614841126284605,,0.00024339000000000007,1.6182480892491946,,0.00024339000000000007,1.6182480892491946,,0.00024339000000000007,1.6182480892491946,,0.00024339000000000007,1.5656002340533983,,0.00024339000000000007,1.5656002340533983,,0.00024339000000000007,1.5656002340533983,,0.00024339000000000007,1.5656002470561283,,0.00024339000000000007,1.5148066994527378,,0.00024339000000000007,1.5148066994527378,,0.00024339000000000007,1.511790002907905,,0.00024339000000000007,1.62,,0.00024339000000000007,1.62,,0.00024339000000000007,1.5674021760882229
0.0002590150000000001,1.5634781629064667,,0.0002590150000000001,1.6181515124814136,,0.0002590150000000001,1.6181515124814136,,0.0002590150000000001,1.6181515124814136,,0.0002590150000000001,1.6634115792588942,,0.0002590150000000001,1.6634115792588942,,0.0002590150000000001,1.6634115792588942,,0.0002590150000000001,1.6634115941963068,,0.0002590150000000001,1.7108184829058608,,0.0002590150000000001,1.7108184829058608,,0.0002590150000000001,1.707820645522063,,0.0002590150000000001,1.62,,0.0002590150000000001,1.62,,0.0002590150000000001,1.6654079696116113
0.0002746400000000001,1.467644315686166,,0.0002746400000000001,1.618059089471426,,0.0002746400000000001,1.618059089471426,,0.0002746400000000001,1.618059089471426,,0.0002746400000000001,1.7590438542723712,,0.0002746400000000001,1.7590438542723712,,0.0002746400000000001,1.7590438542723712,,0.0002746400000000001,1.7590438710442906,,0.0002746400000000001,1.9024520369388147,,0.0002746400000000001,1.9024520369388147,,0.0002746400000000001,1.89956679546456,,0.0002746400000000001,1.62,,0.0002746400000000001,1.62,,0.0002746400000000001,1.7612246534663707
0.0002902650000000001,1.377665411971994,,0.0002902650000000001,1.6179780199778464,,0.0002902650000000001,1.6179780199778464,,0.0002902650000000001,1.6179780199778464,,0.0002902650000000001,1.8488292579600094,,0.0002902650000000001,1.8488292579600094,,0.0002902650000000001,1.8488292579600094,,0.0002902650000000001,1.8488292763556347,,0.0002902650000000001,2.082349549479008,,0.0002902650000000001,2.082349549479008,,0.0002902650000000001,2.0797077772049533,,0.0002902650000000001,1.62,,0.0002902650000000001,1.62,,0.0002902650000000001,1.8511733272027837
0.0003058900000000001,1.2969992905729355,,0.0003058900000000001,1.617907791545227,,0.0003058900000000001,1.617907791545227,,0.0003058900000000001,1.617907791545227,,0.0003058900000000001,1.92931012937883,,0.0003058900000000001,1.92931012937883,,0.0003058900000000001,1.92931012937883,,0.0003058900000000001,1.9293101491651372,,0.0003058900000000001,2.2435911826085033,,0.0003058900000000001,2.2435911826085033,,0.0003058900000000001,2.2412757895350794,,0.0003058900000000001,1.62,,0.0003058900000000001,1.62,,0.0003058900000000001,1.9317940730248218
0.00032151500000000014,1.2287459052962744,,0.00032151500000000014,1.6178547109746348,,0.00032151500000000014,1.6178547109746348,,0.00032151500000000014,1.6178547109746348,,0.00032151500000000014,1.997400847274373,,0.00032151500000000014,1.997400847274373,,0.00032151500000000014,1.997400847274373,,0.00032151500000000014,1.9974008681246884,,0.00032151500000000014,2.3799868924591663,,0.00032151500000000014,2.3799868924591663,,0.00032151500000000014,2.3781041716095457,,0.00032151500000000014,1.62,,0.00032151500000000014,1.62,,0.00032151500000000014,1.9999918737272582
0.00033714000000000015,1.175528195461253,,0.00033714000000000015,1.617817229995065,,0.00033714000000000015,1.617817229995065,,0.00033714000000000015,1.617817229995065,,0.00033714000000000015,2.0504775448789787,,0.00033714000000000015,2.0504775448789787,,0.00033714000000000015,2.0504775448789787,,0.00033714000000000015,2.0504775664659602,,0.00033714000000000015,2.4862887592133553,,0.00033714000000000015,2.4862887592133553,,0.00033714000000000015,2.4848949673367784,,0.00033714000000000015,1.62,,0.00033714000000000015,1.62,,0.00033714000000000015,2.0531427694741957
0.00035276500000000016,1.1393912878119965,,0.00035276500000000016,1.6178003574059914,,0.00035276500000000016,1.6178003574059914,,0.00035276500000000016,1.6178003574059914,,0.00035276500000000016,2.0865076488992735,,0.00035276500000000016,2.0865076488992735,,0.00035276500000000016,2.0865076488992735,,0.00035276500000000016,2.086507670827051,,0.00035276500000000016,2.5584178827914,,0.00035276500000000016,2.5584178827914,,0.00035276500000000016,2.5575815342397217,,0.00035276500000000016,1.62,,0.00035276500000000016,1.62,,0.00035276500000000016,2.089207313682657
0.0003683900000000002,1.121723903443654,,0.0003683900000000002,1.6178011927731974,,0.0003683900000000002,1.6178011927731974,,0.0003683900000000002,1.6178011927731974,,0.0003683900000000002,2.1040994425583492,,0.0003683900000000002,2.1040994425583492,,0.0003683900000000002,2.1040994425583492,,0.0003683900000000002,2.104099464458157,,0.0003683900000000002,2.5935962257114813,,0.0003683900000000002,2.5935962257114813,,0.0003683900000000002,2.5933355825905817,,0.0003683900000000002,1.62,,0.0003683900000000002,1.62,,0.0003683900000000002,2.1067964862772484
0.0003840150000000002,1.1232049900295173,,0.0003840150000000002,1.617823233375759,,0.0003840150000000002,1.617823233375759,,0.0003840150000000002,1.617823233375759,,0.0003840150000000002,2.1025839394329555,,0.0003840150000000002,2.1025839394329555,,0.0003840150000000002,2.1025839394329555,,0.0003840150000000002,2.1025839608969314,,0.0003840150000000002,2.5904779783171366,,0.0003840150000000002,2.5904779783171366,,0.0003840150000000002,2.5908159282017413,,0.0003840150000000002,1.62,,0.0003840150000000002,1.62,,0.0003840150000000002,2.105237384394865
0.0003996400000000002,1.1437776302426954,,0.0003996400000000002,1.6178621221690483,,0.0003996400000000002,1.6178621221690483,,0.0003996400000000002,1.6178621221690483,,0.0003996400000000002,2.082012356976921,,0.0003996400000000002,2.082012356976921,,0.0003996400000000002,2.082012356976921,,0.0003996400000000002,2.0820123776540806,,0.0003996400000000002,2.5491769577390375,,0.0003996400000000002,2.5491769577390375,,0.0003996400000000002,2.5500885875666754,,0.0003996400000000002,1.62,,0.0003996400000000002,1.62,,0.0003996400000000002,2.0845869137560316
0.0004152650000000002,1.1826512290570645,,0.0004152650000000002,1.617919855499988,,0.0004152650000000002,1.617919855499988,,0.0004152650000000002,1.617919855499988,,0.0004152650000000002,2.043182228789055,,0.0004152650000000002,2.043182228789055,,0.0004152650000000002,2.043182228789055,,0.0004152650000000002,2.043182248318577,,0.0004152650000000002,2.4712862790366823,,0.0004152650000000002,2.4712862790366823,,0.0004152650000000002,2.472747594369751,,0.0004152650000000002,1.62,,0.0004152650000000002,1.62,,0.0004152650000000002,2.045641632370254
0.00043089000000000023,1.2383318958707545,,0.00043089000000000023,1.617990742992906,,0.00043089000000000023,1.617990742992906,,0.00043089000000000023,1.617990742992906,,0.00043089000000000023,1.9875788290797078,,0.00043089000000000023,1.9875788290797078,,0.00043089000000000023,1.9875788290797078,,0.00043089000000000023,1.9875788471848799,,0.00043089000000000023,2.3597933506086,,0.00043089000000000023,2.3597933506086,,0.00043089000000000023,2.361737987386588,,0.00043089000000000023,1.62,,0.00043089000000000023,1.62,,0.00043089000000000023,1.9898952402092829
0.00044651500000000025,1.308679853884193,,0.00044651500000000025,1.6180755132204434,,0.00044651500000000025,1.6180755132204434,,0.00044651500000000025,1.6180755132204434,,0.00044651500000000025,1.9173458683750157,,0.00044651500000000025,1.9173458683750157,,0.00044651500000000025,1.9173458683750157,,0.00044651500000000025,1.9173458847939349,,0.00044651500000000025,2.2189885998586516,,0.00044651500000000025,2.2189885998586516,,0.00044651500000000025,2.2213512524922607,,0.00044651500000000025,1.62,,0.00044651500000000025,1.62,,0.00044651500000000025,1.9194929502020974
0.00046214000000000026,1.390991670522512,,0.00046214000000000026,1.618167474639596,,0.00046214000000000026,1.618167474639596,,0.00046214000000000026,1.618167474639596,,0.00046214000000000026,1.835175489819663,,0.00046214000000000026,1.835175489819663,,0.00046214000000000026,1.835175489819663,,0.00046214000000000026,1.835175504395068,,0.00046214000000000026,2.054277305951016,,0.00046214000000000026,2.054277305951016,,0.00046214000000000026,2.056958486197561,,0.00046214000000000026,1.62,,0.00046214000000000026,1.62,,0.00046214000000000026,1.8371373966584073
0.0004777650000000003,1.4821041488333004,,0.0004777650000000003,1.6182665083536245,,0.0004777650000000003,1.6182665083536245,,0.0004777650000000003,1.6182665083536245,,0.0004777650000000003,1.7442322828184738,,0.0004777650000000003,1.7442322828184738,,0.0004777650000000003,1.7442322828184738,,0.0004777650000000003,1.744232295424205,,0.0004777650000000003,1.8719949347474492,,0.0004777650000000003,1.8719949347474492,,0.0004777650000000003,1.8748996118592771,,0.0004777650000000003,1.62,,0.0004777650000000003,1.62,,0.0004777650000000003,1.7459963109064143
