X--Trace 1::[transient: TIME],Y--Trace 1::[PR1: V(1)],,X--Trace 2::[transient: TIME],Y--Trace 2::[PR2: V(2)],,X--Trace 3::[transient: TIME],Y--Trace 3::[PR3: V(2)],,X--Trace 4::[transient: TIME],Y--Trace 4::[PR4: V(2)],,X--Trace 5::[transient: TIME],Y--Trace 5::[PR5: V(3)],,X--Trace 6::[transient: TIME],Y--Trace 6::[PR6: V(3)],,X--Trace 7::[transient: TIME],Y--Trace 7::[PR7: V(3)],,X--Trace 8::[transient: TIME],Y--Trace 8::[PR8: V(5)],,X--Trace 9::[transient: TIME],Y--Trace 9::[PR9: V(7)],,X--Trace 10::[transient: TIME],Y--Trace 10::[PR14: V(7)],,X--Trace 11::[transient: TIME],Y--Trace 11::[PR10: V(8)],,X--Trace 12::[transient: TIME],Y--Trace 12::[PR11: V(4)],,X--Trace 13::[transient: TIME],Y--Trace 13::[PR12: V(4)],,X--Trace 14::[transient: TIME],Y--Trace 14::[PR13: V(6)]
0,1.62,,0,1.6182957027567673,,0,1.6182957027567673,,0,1.6182957027567673,,0,1.6182956907356245,,0,1.6182956907356245,,0,1.6182956907356245,,0,1.6182957232388815,,0,1.6200057134391097,,0,1.6200057134391097,,0,1.6200057133564894,,0,1.62,,0,1.62,,0,1.6200017305163528
1e-7,1.6206283183653514,,1e-7,1.6183437640568057,,1e-7,1.6183437640568057,,1e-7,1.6183437640568057,,1e-7,1.6180536237433156,,1e-7,1.6180536237433156,,1e-7,1.6180536237433156,,1e-7,1.6180536524921438,,1e-7,1.6192433222503477,,1e-7,1.6192433222503477,,1e-7,1.619781282626801,,1e-7,1.62,,1e-7,1.62,,1e-7,1.6196206044534158
1.1156442371421298e-7,1.6207009797182568,,1.1156442371421298e-7,1.6183452503555669,,1.1156442371421298e-7,1.6183452503555669,,1.1156442371421298e-7,1.6183452503555669,,1.1156442371421298e-7,1.6180213866286897,,1.1156442371421298e-7,1.6180213866286897,,1.1156442371421298e-7,1.6180213866286897,,1.1156442371421298e-7,1.6180214149092123,,1.1156442371421298e-7,1.619144139774111,,1.1156442371421298e-7,1.619144139774111,,1.1156442371421298e-7,1.619751958177437,,1.1156442371421298e-7,1.62,,1.1156442371421298e-7,1.62,,1.1156442371421298e-7,1.619571021888286
1.3469327114263895e-7,1.620846302378122,,1.3469327114263895e-7,1.61834359465623,,1.3469327114263895e-7,1.61834359465623,,1.3469327114263895e-7,1.61834359465623,,1.3469327114263895e-7,1.6179551269299743,,1.3469327114263895e-7,1.6179551269299743,,1.3469327114263895e-7,1.6179551269299743,,1.3469327114263895e-7,1.617955153913224,,1.3469327114263895e-7,1.6189154741009446,,1.3469327114263895e-7,1.6189154741009446,,1.3469327114263895e-7,1.6196854842711366,,1.3469327114263895e-7,1.62,,1.3469327114263895e-7,1.62,,1.3469327114263895e-7,1.6194567130767534
1.8095096599949088e-7,1.6211369474711026,,1.8095096599949088e-7,1.6183292163203165,,1.8095096599949088e-7,1.6183292163203165,,1.8095096599949088e-7,1.6183292163203165,,1.8095096599949088e-7,1.6178389588116486,,1.8095096599949088e-7,1.6178389588116486,,1.8095096599949088e-7,1.6178389588116486,,1.8095096599949088e-7,1.6178389756242537,,1.8095096599949088e-7,1.6179293574030997,,1.8095096599949088e-7,1.6179293574030997,,1.8095096599949088e-7,1.6194631850732637,,1.8095096599949088e-7,1.62,,1.8095096599949088e-7,1.62,,1.8095096599949088e-7,1.618963843078614
2.734663557131948e-7,1.6217182364063327,,2.734663557131948e-7,1.6183061079133174,,2.734663557131948e-7,1.6183061079133174,,2.734663557131948e-7,1.6183061079133174,,2.734663557131948e-7,1.6177127142135044,,2.734663557131948e-7,1.6177127142135044,,2.734663557131948e-7,1.6177127142135044,,2.734663557131948e-7,1.617712881371511,,2.734663557131948e-7,1.6288194312401543,,2.734663557131948e-7,1.6288194312401543,,2.734663557131948e-7,1.6207285716906832,,2.734663557131948e-7,1.62,,2.734663557131948e-7,1.62,,2.734663557131948e-7,1.6244060957692472
4.1608379510347424e-7,1.6226143196757996,,4.1608379510347424e-7,1.618296247380182,,4.1608379510347424e-7,1.618296247380182,,4.1608379510347424e-7,1.618296247380182,,4.1608379510347424e-7,1.617668017176602,,4.1608379510347424e-7,1.617668017176602,,4.1608379510347424e-7,1.617668017176602,,4.1608379510347424e-7,1.6176676179373983,,4.1608379510347424e-7,1.586752576491909,,4.1608379510347424e-7,1.586752576491909,,4.1608379510347424e-7,1.614793574447316,,4.1608379510347424e-7,1.62,,4.1608379510347424e-7,1.62,,4.1608379510347424e-7,1.6033831574428004
5.750318796657094e-7,1.6236130004145477,,5.750318796657094e-7,1.6182965198186972,,5.750318796657094e-7,1.6182965198186972,,5.750318796657094e-7,1.6182965198186972,,5.750318796657094e-7,1.6176683634299385,,5.750318796657094e-7,1.6176683634299385,,5.750318796657094e-7,1.6176683634299385,,5.750318796657094e-7,1.6176695936775114,,5.750318796657094e-7,1.7075196047669194,,5.750318796657094e-7,1.7075196047669194,,5.750318796657094e-7,1.630900087831585,,5.750318796657094e-7,1.62,,5.750318796657094e-7,1.62,,5.750318796657094e-7,1.6637364952957159
7.572653757093667e-7,1.6247579668713417,,7.572653757093667e-7,1.6182963003594721,,7.572653757093667e-7,1.6182963003594721,,7.572653757093667e-7,1.6182963003594721,,7.572653757093667e-7,1.6176678842018404,,7.572653757093667e-7,1.6176678842018404,,7.572653757093667e-7,1.6176678842018404,,7.572653757093667e-7,1.617665054630301,,7.572653757093667e-7,1.4066328182708736,,7.572653757093667e-7,1.4066328182708736,,7.572653757093667e-7,1.590233515877868,,7.572653757093667e-7,1.62,,7.572653757093667e-7,1.62,,7.572653757093667e-7,1.5133682853868042
9.335522218844417e-7,1.625865547060998,,9.335522218844417e-7,1.6182964940493716,,9.335522218844417e-7,1.6182964940493716,,9.335522218844417e-7,1.6182964940493716,,9.335522218844417e-7,1.6176682943999376,,9.335522218844417e-7,1.6176682943999376,,9.335522218844417e-7,1.6176682943999376,,9.335522218844417e-7,1.6176753988478754,,9.335522218844417e-7,2.1428747354906066,,9.335522218844417e-7,2.1428747354906066,,9.335522218844417e-7,1.6894531206102448,,9.335522218844417e-7,1.62,,9.335522218844417e-7,1.62,,9.335522218844417e-7,1.8813052769936078
9.537671141618172e-7,1.625992552044486,,9.537671141618172e-7,1.6182964987435624,,9.537671141618172e-7,1.6182964987435624,,9.537671141618172e-7,1.6182964987435624,,9.537671141618172e-7,1.6176682874370298,,9.537671141618172e-7,1.6176682874370298,,9.537671141618172e-7,1.6176682874370298,,9.537671141618172e-7,1.6176806387742229,,9.537671141618172e-7,2.531738011935441,,9.537671141618172e-7,2.531738011935441,,9.537671141618172e-7,1.7418786344357233,,9.537671141618172e-7,1.62,,9.537671141618172e-7,1.62,,9.537671141618172e-7,2.075639748656812
9.941968987165682e-7,1.6262465608431655,,9.941968987165682e-7,1.618296534418801,,9.941968987165682e-7,1.618296534418801,,9.941968987165682e-7,1.618296534418801,,9.941968987165682e-7,1.617668328517179,,9.941968987165682e-7,1.617668328517179,,9.941968987165682e-7,1.617668328517179,,9.941968987165682e-7,1.6176886923364027,,9.941968987165682e-7,3.125568071215808,,9.941968987165682e-7,3.125568071215808,,9.941968987165682e-7,1.9109264898761416,,9.941968987165682e-7,1.62,,9.941968987165682e-7,1.62,,9.941968987165682e-7,2.3724063960324213
0.00000107505646782607,1.6267545735378632,,0.00000107505646782607,1.618296382515907,,0.00000107505646782607,1.618296382515907,,0.00000107505646782607,1.618296382515907,,0.00000107505646782607,1.6176680272680797,,0.00000107505646782607,1.6176680272680797,,0.00000107505646782607,1.6176680272680797,,0.00000107505646782607,1.6176891923512835,,0.00000107505646782607,3.1849516356816587,,0.00000107505646782607,3.1849516356816587,,0.00000107505646782607,2.270103789635106,,0.00000107505646782607,1.62,,0.00000107505646782607,1.62,,0.00000107505646782607,2.4020833397467283
0.0000011411582092684287,1.6271698627504725,,0.0000011411582092684287,1.6182963794299325,,0.0000011411582092684287,1.6182963794299325,,0.0000011411582092684287,1.6182963794299325,,0.0000011411582092684287,1.6176680644080528,,0.0000011411582092684287,1.6176680644080528,,0.0000011411582092684287,1.6176680644080528,,0.0000011411582092684287,1.6176897244570962,,0.0000011411582092684287,3.221635168619932,,0.0000011411582092684287,3.221635168619932,,0.0000011411582092684287,2.496264235290405,,0.0000011411582092684287,1.62,,0.0000011411582092684287,1.62,,0.0000011411582092684287,2.420415939998465
0.0000012173659148585797,1.6276486372930037,,0.0000012173659148585797,1.6182963999560913,,0.0000012173659148585797,1.6182963999560913,,0.0000012173659148585797,1.6182963999560913,,0.0000012173659148585797,1.617668129313769,,0.0000012173659148585797,1.617668129313769,,0.0000012173659148585797,1.617668129313769,,0.0000012173659148585797,1.6176902458188136,,0.0000012173659148585797,3.25546467309846,,0.0000012173659148585797,3.25546467309846,,0.0000012173659148585797,2.6998895212983713,,0.0000012173659148585797,1.62,,0.0000012173659148585797,1.62,,0.0000012173659148585797,2.4373222391797578
0.000001369781326038882,1.6286061648952541,,0.000001369781326038882,1.61829638768925,,0.000001369781326038882,1.61829638768925,,0.000001369781326038882,1.61829638768925,,0.000001369781326038882,1.6176681301576978,,0.000001369781326038882,1.6176681301576978,,0.000001369781326038882,1.6176681301576978,,0.000001369781326038882,1.6176908588554693,,0.000001369781326038882,3.3008361828426693,,0.000001369781326038882,3.3008361828426693,,0.000001369781326038882,2.9788820000453455,,0.000001369781326038882,1.62,,0.000001369781326038882,1.62,,0.000001369781326038882,2.4599966569227645
0.0000016746121483994864,1.6305211218745586,,0.0000016746121483994864,1.6182963973217728,,0.0000016746121483994864,1.6182963973217728,,0.0000016746121483994864,1.6182963973217728,,0.0000016746121483994864,1.6176681947116167,,0.0000016746121483994864,1.6176681947116167,,0.0000016746121483994864,1.6176681947116167,,0.0000016746121483994864,1.6176915209505984,,0.0000016746121483994864,3.3451219505079215,,0.0000016746121483994864,3.3451219505079215,,0.0000016746121483994864,3.246383324281893,,0.0000016746121483994864,1.62,,0.0000016746121483994864,1.62,,0.0000016746121483994864,2.4821284749561032
0.0000022213139490684283,1.633955114737355,,0.0000022213139490684283,1.61829638502383,,0.0000022213139490684283,1.61829638502383,,0.0000022213139490684283,1.61829638502383,,0.0000022213139490684283,1.6176682692324453,,0.0000022213139490684283,1.6176682692324453,,0.0000022213139490684283,1.6176682692324453,,0.0000022213139490684283,1.6176918449744035,,0.0000022213139490684283,3.363613541579662,,0.0000022213139490684283,3.363613541579662,,0.0000022213139490684283,3.361450421310315,,0.0000022213139490684283,1.62,,0.0000022213139490684283,1.62,,0.0000022213139490684283,2.491369649974064
0.0000028526993428819732,1.637920199859217,,0.0000028526993428819732,1.6182963939101276,,0.0000028526993428819732,1.6182963939101276,,0.0000028526993428819732,1.6182963939101276,,0.0000028526993428819732,1.6176684415257734,,0.0000028526993428819732,1.6176684415257734,,0.0000028526993428819732,1.6176684415257734,,0.0000028526993428819732,1.6176920289997778,,0.0000028526993428819732,3.3644833845948887,,0.0000028526993428819732,3.3644833845948887,,0.0000028526993428819732,3.3644039450626764,,0.0000028526993428819732,1.62,,0.0000028526993428819732,1.62,,0.0000028526993428819732,2.491804354217222
0.000003896961642037432,1.6444755468201886,,0.000003896961642037432,1.618296382175089,,0.000003896961642037432,1.618296382175089,,0.000003896961642037432,1.618296382175089,,0.000003896961642037432,1.6176687489918788,,0.000003896961642037432,1.6176687489918788,,0.000003896961642037432,1.6176687489918788,,0.000003896961642037432,1.6176923308741313,,0.000003896961642037432,3.364069577410589,,0.000003896961642037432,3.364069577410589,,0.000003896961642037432,3.3642292264369837,,0.000003896961642037432,1.62,,0.000003896961642037432,1.62,,0.000003896961642037432,2.491597554178097
0.000005768024869169173,1.6562098430865393,,0.000005768024869169173,1.6182963876295524,,0.000005768024869169173,1.6182963876295524,,0.000005768024869169173,1.6182963876295524,,0.000005768024869169173,1.617669613723333,,0.000005768024869169173,1.617669613723333,,0.000005768024869169173,1.617669613723333,,0.000005768024869169173,1.61769320091323,,0.000005768024869169173,3.3644646729522325,,0.000005768024869169173,3.3644646729522325,,0.000005768024869169173,3.36428956401232,,0.000005768024869169173,1.62,,0.000005768024869169173,1.62,,0.000005768024869169173,2.491795003657224
0.000009510151323432655,1.6796119082426746,,0.000009510151323432655,1.6182963694613524,,0.000009510151323432655,1.6182963694613524,,0.000009510151323432655,1.6182963694613524,,0.000009510151323432655,1.6176722407891637,,0.000009510151323432655,1.6176722407891637,,0.000009510151323432655,1.6176722407891637,,0.000009510151323432655,1.61769582263129,,0.000009510151323432655,3.3640735872363594,,0.000009510151323432655,3.3640735872363594,,0.000009510151323432655,3.364253336857003,,0.000009510151323432655,1.62,,0.000009510151323432655,1.62,,0.000009510151323432655,2.491599559834013
0.000016620191586533273,1.7236701973084663,,0.000016620191586533273,1.6182963560040653,,0.000016620191586533273,1.6182963560040653,,0.000016620191586533273,1.6182963560040653,,0.000016620191586533273,1.6176802777179065,,0.000016620191586533273,1.6176802777179065,,0.000016620191586533273,1.6176802777179065,,0.000016620191586533273,1.6177038621052042,,0.000016620191586533273,3.364278291785023,,0.000016620191586533273,3.364278291785023,,0.000016620191586533273,3.364275532733808,,0.000016620191586533273,1.62,,0.000016620191586533273,1.62,,0.000016620191586533273,2.491701864974488
0.00003084027211273451,1.808960758460465,,0.00003084027211273451,1.6182962987705871,,0.00003084027211273451,1.6182962987705871,,0.00003084027211273451,1.6182962987705871,,0.00003084027211273451,1.617710332559814,,0.00003084027211273451,1.617710332559814,,0.00003084027211273451,1.617710332559814,,0.00003084027211273451,1.6177339161490758,,0.00003084027211273451,3.364279257171572,,0.00003084027211273451,3.364279257171572,,0.00003084027211273451,3.364280292131037,,0.00003084027211273451,1.62,,0.00003084027211273451,1.62,,0.00003084027211273451,2.491702362446043
0.00004646527211273451,1.895640911680328,,0.00004646527211273451,1.6182961907593236,,0.00004646527211273451,1.6182961907593236,,0.00004646527211273451,1.6182961907593236,,0.00004646527211273451,1.6177718369560772,,0.00004646527211273451,1.6177718369560772,,0.00004646527211273451,1.6177718369560772,,0.00004646527211273451,1.617795418873174,,0.00004646527211273451,3.3642783378268173,,0.00004646527211273451,3.3642783378268173,,0.00004646527211273451,3.364277391519596,,0.00004646527211273451,1.62,,0.00004646527211273451,1.62,,0.00004646527211273451,2.4917019337393853
0.00006209027211273451,1.9717283392455203,,0.00006209027211273451,1.6182961225841046,,0.00006209027211273451,1.6182961225841046,,0.00006209027211273451,1.6182961225841046,,0.00006209027211273451,1.6178455875286948,,0.00006209027211273451,1.6178455875286948,,0.00006209027211273451,1.6178455875286948,,0.00006209027211273451,1.617869167457519,,0.00006209027211273451,3.3642784833827513,,0.00006209027211273451,3.3642784833827513,,0.00006209027211273451,3.364279368684242,,0.00006209027211273451,1.62,,0.00006209027211273451,1.62,,0.00006209027211273451,2.491702043336845
0.00007771527211273451,2.034299043985032,,0.00007771527211273451,1.6182959449937109,,0.00007771527211273451,1.6182959449937109,,0.00007771527211273451,1.6182959449937109,,0.00007771527211273451,1.6179442831426183,,0.00007771527211273451,1.6179442831426183,,0.00007771527211273451,1.6179442831426183,,0.00007771527211273451,1.6179678603995062,,0.00007771527211273451,3.3642778510655402,,0.00007771527211273451,3.3642778510655402,,0.00007771527211273451,3.3642770369618664,,0.00007771527211273451,1.62,,0.00007771527211273451,1.62,,0.00007771527211273451,2.491701776658053
0.00009334027211273451,2.0809484688057798,,0.00009334027211273451,1.6182958852485516,,0.00009334027211273451,1.6182958852485516,,0.00009334027211273451,1.6182958852485516,,0.00009334027211273451,1.6180490676526957,,0.00009334027211273451,1.6180490676526957,,0.00009334027211273451,1.6180490676526957,,0.00009334027211273451,1.6180726420819151,,0.00009334027211273451,3.3642778548847416,,0.00009334027211273451,3.3642778548847416,,0.00009334027211273451,3.3642786200728803,,0.00009334027211273451,1.62,,0.00009334027211273451,1.62,,0.00009334027211273451,2.4917018309313574
0.00010896527211273451,2.109883902473201,,0.00010896527211273451,1.6182956585293258,,0.00010896527211273451,1.6182956585293258,,0.00010896527211273451,1.6182956585293258,,0.00010896527211273451,1.6181705181627946,,0.00010896527211273451,1.6181705181627946,,0.00010896527211273451,1.6181705181627946,,0.00010896527211273451,1.6181940893057183,,0.00010896527211273451,3.3642772007281065,,0.00010896527211273451,3.3642772007281065,,0.00010896527211273451,3.3642765002367754,,0.00010896527211273451,1.62,,0.00010896527211273451,1.62,,0.00010896527211273451,2.491701564709765
0.00012459027211273452,2.1199933724986346,,0.00012459027211273452,1.6182956254992853,,0.00012459027211273452,1.6182956254992853,,0.00012459027211273452,1.6182956254992853,,0.00012459027211273452,1.6182898127892038,,0.00012459027211273452,1.6182898127892038,,0.00012459027211273452,1.6182898127892038,,0.00012459027211273452,1.618313380711728,,0.00012459027211273452,3.3642771185479496,,0.00012459027211273452,3.3642771185479496,,0.00012459027211273452,3.3642777794478813,,0.00012459027211273452,1.62,,0.00012459027211273452,1.62,,0.00012459027211273452,2.4917015832561162
0.00014021527211273454,2.1108883776184593,,0.00014021527211273454,1.6182953724462907,,0.00014021527211273454,1.6182953724462907,,0.00014021527211273454,1.6182953724462907,,0.00014021527211273454,1.6184160823163731,,0.00014021527211273454,1.6184160823163731,,0.00014021527211273454,1.6184160823163731,,0.00014021527211273454,1.6184396468228943,,0.00014021527211273454,3.3642764895277497,,0.00014021527211273454,3.3642764895277497,,0.00014021527211273454,3.3642758863674,,0.00014021527211273454,1.62,,0.00014021527211273454,1.62,,0.00014021527211273454,2.4917013320046997
0.00015584027211273455,2.0829188176797806,,0.00015584027211273455,1.618295385342125,,0.00015584027211273455,1.618295385342125,,0.00015584027211273455,1.618295385342125,,0.00015584027211273455,1.6185311887581733,,0.00015584027211273455,1.6185311887581733,,0.00015584027211273455,1.6185311887581733,,0.00015584027211273455,1.6185547501569864,,0.00015584027211273455,3.364276382782383,,0.00015584027211273455,3.364276382782383,,0.00015584027211273455,3.364276952877345,,0.00015584027211273455,1.62,,0.00015584027211273455,1.62,,0.00015584027211273455,2.491701336181596
0.00017146527211273457,2.0371595471855315,,0.00017146527211273457,1.618295127905423,,0.00017146527211273457,1.618295127905423,,0.00017146527211273457,1.618295127905423,,0.00017146527211273457,1.618643573979283,,0.00017146527211273457,1.618643573979283,,0.00017146527211273457,1.618643573979283,,0.00017146527211273457,1.6186671323377921,,0.00017146527211273457,3.364275829108154,,0.00017146527211273457,3.364275829108154,,0.00017146527211273457,3.3642753091036433,,0.00017146527211273457,1.62,,0.00017146527211273457,1.62,,0.00017146527211273457,2.4917011156458417
0.00018709027211273458,1.9753690692387118,,0.00018709027211273458,1.6182952036644205,,0.00018709027211273458,1.6182952036644205,,0.00018709027211273458,1.6182952036644205,,0.00018709027211273458,1.6187364645948066,,0.00018709027211273458,1.6187364645948066,,0.00018709027211273458,1.6187364645948066,,0.00018709027211273458,1.6187600204455856,,0.00018709027211273458,3.3642757565085817,,0.00018709027211273458,3.3642757565085817,,0.00018709027211273458,3.3642762473820538,,0.00018709027211273458,1.62,,0.00018709027211273458,1.62,,0.00018709027211273458,2.4917011257850397
