X--Trace 1::[transient: TIME],Y--Trace 1::[PR1: V(1)],,X--Trace 2::[transient: TIME],Y--Trace 2::[PR2: V(2)],,X--Trace 3::[transient: TIME],Y--Trace 3::[PR3: V(2)],,X--Trace 4::[transient: TIME],Y--Trace 4::[PR4: V(2)],,X--Trace 5::[transient: TIME],Y--Trace 5::[PR5: V(3)],,X--Trace 6::[transient: TIME],Y--Trace 6::[PR6: V(3)],,X--Trace 7::[transient: TIME],Y--Trace 7::[PR7: V(3)],,X--Trace 8::[transient: TIME],Y--Trace 8::[PR8: V(5)],,X--Trace 9::[transient: TIME],Y--Trace 9::[PR9: V(7)],,X--Trace 10::[transient: TIME],Y--Trace 10::[PR14: V(7)],,X--Trace 11::[transient: TIME],Y--Trace 11::[PR10: V(8)],,X--Trace 12::[transient: TIME],Y--Trace 12::[PR11: V(4)],,X--Trace 13::[transient: TIME],Y--Trace 13::[PR12: V(4)],,X--Trace 14::[transient: TIME],Y--Trace 14::[PR13: V(6)]
0,1.62,,0,1.61830759312797,,0,1.61830759312797,,0,1.61830759312797,,0,1.6064053551668434,,0,1.6064053551668434,,0,1.6064053551668434,,0,1.6064053869937716,,0,1.5948509266912447,,0,1.5948509266912447,,0,1.5948509266099073,,0,1.62,,0,1.62,,0,1.6080862261697082
1e-7,1.6206283183653514,,1e-7,1.6183904253817896,,1e-7,1.6183904253817896,,1e-7,1.6183904253817896,,1e-7,1.605942702682947,,1e-7,1.605942702682947,,1e-7,1.605942702682947,,1e-7,1.6059427266855382,,1e-7,1.593262120345937,,1e-7,1.593262120345937,,1e-7,1.5943832179418815,,1e-7,1.62,,1e-7,1.62,,1e-7,1.6073337709685542
2e-7,1.6212566357385019,,2e-7,1.6184051219076174,,2e-7,1.6184051219076174,,2e-7,1.6184051219076174,,2e-7,1.605343780495855,,2e-7,1.605343780495855,,2e-7,1.605343780495855,,2e-7,1.6053438074732191,,2e-7,1.5922304282725126,,2e-7,1.5922304282725126,,2e-7,1.593749485309956,,2e-7,1.62,,2e-7,1.62,,2e-7,1.6068450225417164
4e-7,1.6225132635394095,,4e-7,1.618411791832689,,4e-7,1.618411791832689,,4e-7,1.618411791832689,,4e-7,1.6041004981305467,,4e-7,1.6041004981305467,,4e-7,1.6041004981305467,,4e-7,1.6041005208370966,,4e-7,1.5892715956023258,,4e-7,1.5892715956023258,,4e-7,1.5919841197204514,,4e-7,1.62,,4e-7,1.62,,4e-7,1.6054435451699902
8e-7,1.6250264635783653,,8e-7,1.6184106897611434,,8e-7,1.6184106897611434,,8e-7,1.6184106897611434,,8e-7,1.6015851127592358,,8e-7,1.6015851127592358,,8e-7,1.6015851127592358,,8e-7,1.6015851430701067,,8e-7,1.5845561586704486,,8e-7,1.5845561586704486,,8e-7,1.5873716633500732,,8e-7,1.62,,8e-7,1.62,,8e-7,1.603209783773564
0.0000016,1.6300524191627288,,0.0000016,1.6184186628325097,,0.0000016,1.6184186628325097,,0.0000016,1.6184186628325097,,0.0000016,1.5965751713427105,,0.0000016,1.5965751713427105,,0.0000016,1.5965751713427105,,0.0000016,1.5965751914058028,,0.0000016,1.5731778419369393,,0.0000016,1.5731778419369393,,0.0000016,1.5767358489032215,,0.0000016,1.62,,0.0000016,1.62,,0.0000016,1.5978202346549106
0.0000032,1.6401007746814766,,0.0000032,1.6184259300403283,,0.0000032,1.6184259300403283,,0.0000032,1.6184259300403283,,0.0000032,1.5865416079790156,,0.0000032,1.5865416079790156,,0.0000032,1.5865416079790156,,0.0000032,1.5865416389834117,,0.0000032,1.5528515839523274,,0.0000032,1.5528515839523274,,0.0000032,1.555620317825468,,0.0000032,1.62,,0.0000032,1.62,,0.0000032,1.5881918153745578
0.0000064,1.6601690500666972,,0.0000064,1.6184483092365636,,0.0000064,1.6184483092365636,,0.0000064,1.6184483092365636,,0.0000064,1.5665190925801558,,0.0000064,1.5665190925801558,,0.0000064,1.5665190925801558,,0.0000064,1.5665191100863998,,0.0000064,1.5095254663798803,,0.0000064,1.5095254663798803,,0.0000064,1.513123314639963,,0.0000064,1.62,,0.0000064,1.62,,0.0000064,1.567669154676039
0.000012479999999999999,1.698093113473714,,0.000012479999999999999,1.6184841258769986,,0.000012479999999999999,1.6184841258769986,,0.000012479999999999999,1.6184841258769986,,0.000012479999999999999,1.5286703425338553,,0.000012479999999999999,1.5286703425338553,,0.000012479999999999999,1.5286703425338553,,0.000012479999999999999,1.5286703644376458,,0.000012479999999999999,1.4299657627155247,,0.000012479999999999999,1.4299657627155247,,0.000012479999999999999,1.4331018832628843,,0.000012479999999999999,1.62,,0.000012479999999999999,1.62,,0.000012479999999999999,1.5299829026424334
0.000024639999999999998,1.7723556843138335,,0.000024639999999999998,1.6185549913593185,,0.000024639999999999998,1.6185549913593185,,0.000024639999999999998,1.6185549913593185,,0.000024639999999999998,1.4545637307066013,,0.000024639999999999998,1.4545637307066013,,0.000024639999999999998,1.4545637307066013,,0.000024639999999999998,1.4545637483409106,,0.000024639999999999998,1.2731829094741043,,0.000024639999999999998,1.2731829094741043,,0.000024639999999999998,1.2762327776255595,,0.000024639999999999998,1.62,,0.000024639999999999998,1.62,,0.000024639999999999998,1.4557174165384719
0.000040264999999999995,1.8623345880280056,,0.000040264999999999995,1.6186373247416563,,0.000040264999999999995,1.6186373247416563,,0.000040264999999999995,1.6186373247416563,,0.000040264999999999995,1.3647806469513193,,0.000040264999999999995,1.3647806469513193,,0.000040264999999999995,1.3647806469513193,,0.000040264999999999995,1.3647806600013157,,0.000040264999999999995,1.0832803219996514,,0.000040264999999999995,1.0832803219996514,,0.000040264999999999995,1.0860884255702858,,0.000040264999999999995,1.62,,0.000040264999999999995,1.62,,0.000040264999999999995,1.3657636410177998
0.000055889999999999995,1.9430007094270643,,0.000055889999999999995,1.6187056473427262,,0.000055889999999999995,1.6187056473427262,,0.000055889999999999995,1.6187056473427262,,0.000055889999999999995,1.2842958379374363,,0.000055889999999999995,1.2842958379374363,,0.000055889999999999995,1.2842958379374363,,0.000055889999999999995,1.2842958470643238,,0.000055889999999999995,0.9130593471208777,,0.000055889999999999995,0.9130593471208777,,0.000055889999999999995,0.9154856107707174,,0.000055889999999999995,1.62,,0.000055889999999999995,1.62,,0.000055889999999999995,1.2851327228889635
0.000071515,2.0112540947037254,,0.000071515,1.6187606234583451,,0.000071515,1.6187606234583451,,0.000071515,1.6187606234583451,,0.000071515,1.2162087852125272,,0.000071515,1.2162087852125272,,0.000071515,1.2162087852125272,,0.000071515,1.216208791263412,,0.000071515,0.7690779432414264,,0.000071515,0.7690779432414264,,0.000071515,0.7710822069793374,,0.000071515,1.62,,0.000071515,1.62,,0.000071515,1.2169310601954135
0.00008714,2.0644718045387465,,0.00008714,1.6187962196162453,,0.00008714,1.6187962196162453,,0.00008714,1.6187962196162453,,0.00008714,1.1631281920723253,,0.00008714,1.1631281920723253,,0.00008714,1.1631281920723253,,0.00008714,1.1631281960651598,,0.00008714,0.6568567930033314,,0.00008714,0.6568567930033314,,0.00008714,0.6583124847034998,,0.00008714,1.62,,0.00008714,1.62,,0.00008714,1.1637737101017218
0.000102765,2.1006087121880035,,0.000102765,1.618814966871427,,0.000102765,1.618814966871427,,0.000102765,1.618814966871427,,0.000102765,1.1271017115043085,,0.000102765,1.1271017115043085,,0.000102765,1.1271017115043085,,0.000102765,1.1271017144827506,,0.000102765,0.5807207736024004,,0.000102765,0.5807207736024004,,0.000102765,0.5816181856449892,,0.000102765,1.62,,0.000102765,1.62,,0.000102765,1.1277092981678887
0.00011839,2.1182760965563463,,0.00011839,1.618812267431215,,0.00011839,1.618812267431215,,0.00011839,1.618812267431215,,0.00011839,1.1095060638463807,,0.00011839,1.1095060638463807,,0.00011839,1.1095060638463807,,0.00011839,1.1095060669470767,,0.00011839,0.5435835980467304,,0.00011839,0.5435835980467304,,0.00011839,0.5438451239174429,,0.00011839,1.62,,0.00011839,1.62,,0.00011839,1.1101180025887658
0.000134015,2.116795009970483,,0.000134015,1.6187920808753722,,0.000134015,1.6187920808753722,,0.000134015,1.6187920808753722,,0.000134015,1.1110251492250327,,0.000134015,1.1110251492250327,,0.000134015,1.1110251492250327,,0.000134015,1.1110251535254203,,0.000134015,0.5468844382134542,,0.000134015,0.5468844382134542,,0.000134015,0.5465402223549131,,0.000134015,1.62,,0.000134015,1.62,,0.000134015,1.1116815373880005
0.00014963999999999998,2.0962223697573052,,0.00014963999999999998,1.618751348499884,,0.00014963999999999998,1.618751348499884,,0.00014963999999999998,1.618751348499884,,0.00014963999999999998,1.1315929187035103,,0.00014963999999999998,1.1315929187035103,,0.00014963999999999998,1.1315929187035103,,0.00014963999999999998,1.1315929252898271,,0.00014963999999999998,0.5904845444086069,,0.00014963999999999998,0.5904845444086069,,0.00014963999999999998,0.589510367406786,,0.00014963999999999998,1.62,,0.00014963999999999998,1.62,,0.00014963999999999998,1.1323341788728152
0.000165265,2.0573487709429363,,0.000165265,1.6186954488524679,,0.000165265,1.6186954488524679,,0.000165265,1.6186954488524679,,0.000165265,1.1704265884579672,,0.000165265,1.1704265884579672,,0.000165265,1.1704265884579672,,0.000165265,1.1704265982734114,,0.000165265,0.6727201667387251,,0.000165265,0.6727201667387251,,0.000165265,0.6711883330068942,,0.000165265,1.62,,0.000165265,1.62,,0.000165265,1.1712878375090299
0.00018089,2.0016681041292466,,0.00018089,1.618622738013613,,0.00018089,1.618622738013613,,0.00018089,1.618622738013613,,0.00018089,1.2260262157019515,,0.00018089,1.2260262157019515,,0.00018089,1.2260262157019515,,0.00018089,1.226026229621011,,0.00018089,0.7904193524697488,,0.00018089,0.7904193524697488,,0.00018089,0.7883562858647398,,0.00018089,1.62,,0.00018089,1.62,,0.00018089,1.2270400105968522
0.00019651500000000003,1.9313201461158085,,0.00019651500000000003,1.6185397813593059,,0.00019651500000000003,1.6185397813593059,,0.00019651500000000003,1.6185397813593059,,0.00019651500000000003,1.2962626777923476,,0.00019651500000000003,1.2962626777923476,,0.00019651500000000003,1.2962626777923476,,0.00019651500000000003,1.2962626964763282,,0.00019651500000000003,0.9390705652678296,,0.00019651500000000003,0.9390705652678296,,0.00019651500000000003,0.9365857157101226,,0.00019651500000000003,1.62,,0.00019651500000000003,1.62,,0.00019651500000000003,1.2974536583800214
0.00021214000000000004,1.8490083294774893,,0.00021214000000000004,1.6184460165792063,,0.00021214000000000004,1.6184460165792063,,0.00021214000000000004,1.6184460165792063,,0.00021214000000000004,1.3784293238918688,,0.00021214000000000004,1.3784293238918688,,0.00021214000000000004,1.3784293238918688,,0.00021214000000000004,1.378429347874457,,0.00021214000000000004,1.1129497237626278,,0.00021214000000000004,1.1129497237626278,,0.00021214000000000004,1.1101105535512472,,0.00021214000000000004,1.62,,0.00021214000000000004,1.62,,0.00021214000000000004,1.379817376171091
0.00022776500000000005,1.757895851166701,,0.00022776500000000005,1.6183487765777618,,0.00022776500000000005,1.6183487765777618,,0.00022776500000000005,1.6183487765777618,,0.00022776500000000005,1.4693759925972472,,0.00022776500000000005,1.4693759925972472,,0.00022776500000000005,1.4693759925972472,,0.00022776500000000005,1.4693760221530827,,0.00022776500000000005,1.305386155799117,,0.00022776500000000005,1.305386155799117,,0.00022776500000000005,1.3023277934206854,,0.00022776500000000005,1.62,,0.00022776500000000005,1.62,,0.00022776500000000005,1.4709713764861532
0.00024339000000000007,1.6614841126284605,,0.00024339000000000007,1.6182480892491506,,0.00024339000000000007,1.6182480892491506,,0.00024339000000000007,1.6182480892491506,,0.00024339000000000007,1.5656002340530464,,0.00024339000000000007,1.5656002340530464,,0.00024339000000000007,1.5656002340530464,,0.00024339000000000007,1.5656002692978697,,0.00024339000000000007,1.5089732960620676,,0.00024339000000000007,1.5089732960620676,,0.00024339000000000007,1.5057891386863815,,0.00024339000000000007,1.62,,0.00024339000000000007,1.62,,0.00024339000000000007,1.567407289118701
0.0002590150000000001,1.5634781629064667,,0.0002590150000000001,1.618151512481502,,0.0002590150000000001,1.618151512481502,,0.0002590150000000001,1.618151512481502,,0.0002590150000000001,1.6634115792589845,,0.0002590150000000001,1.6634115792589845,,0.0002590150000000001,1.6634115792589845,,0.0002590150000000001,1.6634116200348525,,0.0002590150000000001,1.7158986666147447,,0.0002590150000000001,1.7158986666147447,,0.0002590150000000001,1.7127334415049287,,0.0002590150000000001,1.62,,0.0002590150000000001,1.62,,0.0002590150000000001,1.6654244714790654
0.0002746400000000001,1.467644315686166,,0.0002746400000000001,1.6180590894714004,,0.0002746400000000001,1.6180590894714004,,0.0002746400000000001,1.6180590894714004,,0.0002746400000000001,1.7590438542723097,,0.0002746400000000001,1.7590438542723097,,0.0002746400000000001,1.7590438542723097,,0.0002746400000000001,1.7590439002634957,,0.0002746400000000001,1.9181990329839946,,0.0002746400000000001,1.9181990329839946,,0.0002746400000000001,1.915153681086056,,0.0002746400000000001,1.62,,0.0002746400000000001,1.62,,0.0002746400000000001,1.7612508679541612
0.0002902650000000001,1.377665411971994,,0.0002902650000000001,1.6179780199779532,,0.0002902650000000001,1.6179780199779532,,0.0002902650000000001,1.6179780199779532,,0.0002902650000000001,1.8488292579601395,,0.0002902650000000001,1.8488292579601395,,0.0002902650000000001,1.8488292579601395,,0.0002902650000000001,1.8488293085960752,,0.0002902650000000001,2.1081112460490012,,0.0002902650000000001,2.1081112460490012,,0.0002902650000000001,2.1053219315485068,,0.0002902650000000001,1.62,,0.0002902650000000001,1.62,,0.0002902650000000001,1.8512092019048803
0.0003058900000000001,1.2969992905729355,,0.0003058900000000001,1.6179077915452145,,0.0003058900000000001,1.6179077915452145,,0.0003058900000000001,1.6179077915452145,,0.0003058900000000001,1.9293101293785893,,0.0003058900000000001,1.9293101293785893,,0.0003058900000000001,1.9293101293785893,,0.0003058900000000001,1.9293101839642184,,0.0003058900000000001,2.2783259877910385,,0.0003058900000000001,2.2783259877910385,,0.0003058900000000001,2.2758822389408038,,0.0003058900000000001,1.62,,0.0003058900000000001,1.62,,0.0003058900000000001,1.93183716702895
0.00032151500000000014,1.2287459052962744,,0.00032151500000000014,1.6178547109747536,,0.00032151500000000014,1.6178547109747536,,0.00032151500000000014,1.6178547109747536,,0.00032151500000000014,1.997400847274159,,0.00032151500000000014,1.997400847274159,,0.00032151500000000014,1.997400847274159,,0.00032151500000000014,1.9974009049091026,,0.00032151500000000014,2.422313041566004,,0.00032151500000000014,2.422313041566004,,0.00032151500000000014,2.42032505351703,,0.00032151500000000014,1.62,,0.00032151500000000014,1.62,,0.00032151500000000014,2.0000415064569315
0.00033714000000000015,1.175528195461253,,0.00033714000000000015,1.6178172299950584,,0.00033714000000000015,1.6178172299950584,,0.00033714000000000015,1.6178172299950584,,0.00033714000000000015,2.0504775448783628,,0.00033714000000000015,2.0504775448783628,,0.00033714000000000015,2.0504775448783628,,0.00033714000000000015,2.0504776045980737,,0.00033714000000000015,2.534528057826165,,0.00033714000000000015,2.534528057826165,,0.00033714000000000015,2.533057241717039,,0.00033714000000000015,1.62,,0.00033714000000000015,1.62,,0.00033714000000000015,2.053195950513506
0.00035276500000000016,1.1393912878119965,,0.00035276500000000016,1.6178003574061124,,0.00035276500000000016,1.6178003574061124,,0.00035276500000000016,1.6178003574061124,,0.00035276500000000016,2.086507648898854,,0.00035276500000000016,2.086507648898854,,0.00035276500000000016,2.086507648898854,,0.00035276500000000016,2.086507709606227,,0.00035276500000000016,2.6106696357327244,,0.00035276500000000016,2.6106696357327244,,0.00035276500000000016,2.6097862818614703,,0.00035276500000000016,1.62,,0.00035276500000000016,1.62,,0.00035276500000000016,2.0892629958926063
0.0003683900000000002,1.121723903443654,,0.0003683900000000002,1.617801192773187,,0.0003683900000000002,1.617801192773187,,0.0003683900000000002,1.617801192773187,,0.0003683900000000002,2.1040994425575583,,0.0003683900000000002,2.1040994425575583,,0.0003683900000000002,2.1040994425575583,,0.0003683900000000002,2.1040995031693517,,0.0003683900000000002,2.647800761683314,,0.0003683900000000002,2.647800761683314,,0.0003683900000000002,2.647526194386323,,0.0003683900000000002,1.62,,0.0003683900000000002,1.62,,0.0003683900000000002,2.1068514254013624
0.0003840150000000002,1.1232049900295173,,0.0003840150000000002,1.6178232333758746,,0.0003840150000000002,1.6178232333758746,,0.0003840150000000002,1.6178232333758746,,0.0003840150000000002,2.102583939432345,,0.0003840150000000002,2.102583939432345,,0.0003840150000000002,2.102583939432345,,0.0003840150000000002,2.1025839988178388,,0.0003840150000000002,2.644505402609283,,0.0003840150000000002,2.644505402609283,,0.0003840150000000002,2.6448617199744766,,0.0003840150000000002,1.62,,0.0003840150000000002,1.62,,0.0003840150000000002,2.1052904873759712
0.0003996400000000002,1.1437776302426954,,0.0003996400000000002,1.617862122169026,,0.0003996400000000002,1.617862122169026,,0.0003996400000000002,1.617862122169026,,0.0003996400000000002,2.082012356976001,,0.0003996400000000002,2.082012356976001,,0.0003996400000000002,2.082012356976001,,0.0003996400000000002,2.082012414102042,,0.0003996400000000002,2.600899317964741,,0.0003996400000000002,2.600899317964741,,0.0003996400000000002,2.60186229159377,,0.0003996400000000002,1.62,,0.0003996400000000002,1.62,,0.0003996400000000002,2.084635013529625
0.0004152650000000002,1.1826512290570645,,0.0004152650000000002,1.6179198555000904,,0.0004152650000000002,1.6179198555000904,,0.0004152650000000002,1.6179198555000904,,0.0004152650000000002,2.043182228788433,,0.0004152650000000002,2.043182228788433,,0.0004152650000000002,2.043182228788433,,0.0004152650000000002,2.0431822826590067,,0.0004152650000000002,2.518669111819792,,0.0004152650000000002,2.518669111819792,,0.0004152650000000002,2.5202113203682894,,0.0004152650000000002,1.62,,0.0004152650000000002,1.62,,0.0004152650000000002,2.0456839209168423
0.00043089000000000023,1.2383318958707545,,0.00043089000000000023,1.6179907429928648,,0.00043089000000000023,1.6179907429928648,,0.00043089000000000023,1.6179907429928648,,0.00043089000000000023,1.9875788290788348,,0.00043089000000000023,1.9875788290788348,,0.00043089000000000023,1.9875788290788348,,0.00043089000000000023,1.9875788788719355,,0.00043089000000000023,2.400964006958617,,0.00043089000000000023,2.400964006958617,,0.00043089000000000023,2.40301749231387,,0.00043089000000000023,1.62,,0.00043089000000000023,1.62,,0.00043089000000000023,1.9899289435718852
0.00044651500000000025,1.308679853884193,,0.00044651500000000025,1.618075513220526,,0.00044651500000000025,1.618075513220526,,0.00044651500000000025,1.618075513220526,,0.00044651500000000025,1.917345868374391,,0.00044651500000000025,1.917345868374391,,0.00044651500000000025,1.917345868374391,,0.00044651500000000025,1.9173459133766286,,0.00044651500000000025,2.2523181566469557,,0.00044651500000000025,2.2523181566469557,,0.00044651500000000025,2.254811857072379,,0.00044651500000000025,1.62,,0.00044651500000000025,1.62,,0.00044651500000000025,1.9195178363690084
0.00046214000000000026,1.390991670522512,,0.00046214000000000026,1.6181674746395318,,0.00046214000000000026,1.6181674746395318,,0.00046214000000000026,1.6181674746395318,,0.00046214000000000026,1.8351754898188155,,0.00046214000000000026,1.8351754898188155,,0.00046214000000000026,1.8351754898188155,,0.00046214000000000026,1.8351755295481302,,0.00046214000000000026,2.078433127719719,,0.00046214000000000026,2.078433127719719,,0.00046214000000000026,2.081264148450024,,0.00046214000000000026,1.62,,0.00046214000000000026,1.62,,0.00046214000000000026,1.837151337396193
0.0004777650000000003,1.4821041488333004,,0.0004777650000000003,1.6182665083536858,,0.0004777650000000003,1.6182665083536858,,0.0004777650000000003,1.6182665083536858,,0.0004777650000000003,1.7442322828177752,,0.0004777650000000003,1.7442322828177752,,0.0004777650000000003,1.7442322828177752,,0.0004777650000000003,1.7442323169484135,,0.0004777650000000003,1.8860020145402578,,0.0004777650000000003,1.8860020145402578,,0.0004777650000000003,1.8890678825590277,,0.0004777650000000003,1.62,,0.0004777650000000003,1.62,,0.0004777650000000003,1.7459998569857957
