X--Trace 1::[transient: TIME],Y--Trace 1::[PR1: V(1)],,X--Trace 2::[transient: TIME],Y--Trace 2::[PR2: V(2)],,X--Trace 3::[transient: TIME],Y--Trace 3::[PR3: V(2)],,X--Trace 4::[transient: TIME],Y--Trace 4::[PR4: V(2)],,X--Trace 5::[transient: TIME],Y--Trace 5::[PR5: V(3)],,X--Trace 6::[transient: TIME],Y--Trace 6::[PR6: V(3)],,X--Trace 7::[transient: TIME],Y--Trace 7::[PR7: V(3)],,X--Trace 8::[transient: TIME],Y--Trace 8::[PR8: V(5)],,X--Trace 9::[transient: TIME],Y--Trace 9::[PR9: V(7)],,X--Trace 10::[transient: TIME],Y--Trace 10::[PR14: V(7)],,X--Trace 11::[transient: TIME],Y--Trace 11::[PR10: V(8)],,X--Trace 12::[transient: TIME],Y--Trace 12::[PR11: V(4)],,X--Trace 13::[transient: TIME],Y--Trace 13::[PR12: V(4)],,X--Trace 14::[transient: TIME],Y--Trace 14::[PR13: V(6)]
0,1.62,,0,1.6183075931279687,,0,1.6183075931279687,,0,1.6183075931279687,,0,1.6064053551671476,,0,1.6064053551671476,,0,1.6064053551671476,,0,1.6064053869654675,,0,1.5937900375864975,,0,1.5937900375864975,,0,1.5937900375052143,,0,1.62,,0,1.62,,0,1.6080851665718128
1e-7,1.6206283183653514,,1e-7,1.618390425379347,,1e-7,1.618390425379347,,1e-7,1.618390425379347,,1e-7,1.6059427026783697,,1e-7,1.6059427026783697,,1e-7,1.6059427026783697,,1e-7,1.6059427261023922,,1e-7,1.5920894511048458,,1e-7,1.5920894511048458,,1e-7,1.5932894232921946,,1e-7,1.62,,1e-7,1.62,,1e-7,1.6073123419051907
2e-7,1.6212566357385019,,2e-7,1.618405121909577,,2e-7,1.618405121909577,,2e-7,1.618405121909577,,2e-7,1.605343780500081,,2e-7,1.605343780500081,,2e-7,1.605343780500081,,2e-7,1.6053438074881692,,2e-7,1.5910623807241944,,2e-7,1.5910623807241944,,2e-7,1.592633832285652,,2e-7,1.62,,2e-7,1.62,,2e-7,1.6068454197391977
4e-7,1.6225132635394095,,4e-7,1.6184117918268346,,4e-7,1.6184117918268346,,4e-7,1.6184117918268346,,4e-7,1.6041004981191431,,4e-7,1.6041004981191431,,4e-7,1.6041004981191431,,4e-7,1.6041005197144065,,4e-7,1.5878874651884511,,4e-7,1.5878874651884511,,4e-7,1.590774009259154,,4e-7,1.62,,4e-7,1.62,,4e-7,1.6054023852823378
8e-7,1.6250264635783653,,8e-7,1.6184106897706536,,8e-7,1.6184106897706536,,8e-7,1.6184106897706536,,8e-7,1.6015851127785614,,8e-7,1.6015851127785614,,8e-7,1.6015851127785614,,8e-7,1.601585144138616,,8e-7,1.583149667151138,,8e-7,1.583149667151138,,8e-7,1.5859930739210895,,8e-7,1.62,,8e-7,1.62,,8e-7,1.603248643488627
0.0000016,1.6300524191627288,,0.0000016,1.6184186628204127,,0.0000016,1.6184186628204127,,0.0000016,1.6184186628204127,,0.0000016,1.596575171318824,,0.0000016,1.596575171318824,,0.0000016,1.596575171318824,,0.0000016,1.5965751894067066,,0.0000016,1.5710456302436697,,0.0000016,1.5710456302436697,,0.0000016,1.5748685776831188,,0.0000016,1.62,,0.0000016,1.62,,0.0000016,1.5977470767427133
0.0000032,1.6401007746814766,,0.0000032,1.6184259300538895,,0.0000032,1.6184259300538895,,0.0000032,1.6184259300538895,,0.0000032,1.5865416080064487,,0.0000032,1.5865416080064487,,0.0000032,1.5865416080064487,,0.0000032,1.5865416405797852,,0.0000032,1.5501525417671058,,0.0000032,1.5501525417671058,,0.0000032,1.5529091789988998,,0.0000032,1.62,,0.0000032,1.62,,0.0000032,1.5882499258671774
0.0000064,1.6601690500666972,,0.0000064,1.6184483092221393,,0.0000064,1.6184483092221393,,0.0000064,1.6184483092221393,,0.0000064,1.5665190925516574,,0.0000064,1.5665190925516574,,0.0000064,1.5665190925516574,,0.0000064,1.566519107692718,,0.0000064,1.5046813457715003,,0.0000064,1.5046813457715003,,0.0000064,1.5085676271238517,,0.0000064,1.62,,0.0000064,1.62,,0.0000064,1.5675815529165178
0.000012479999999999999,1.698093113473714,,0.000012479999999999999,1.6184841258774307,,0.000012479999999999999,1.6184841258774307,,0.000012479999999999999,1.6184841258774307,,0.000012479999999999999,1.528670342535024,,0.000012479999999999999,1.528670342535024,,0.000012479999999999999,1.528670342535024,,0.000012479999999999999,1.5286703640463493,,0.000012479999999999999,1.421932617402584,,0.000012479999999999999,1.421932617402584,,0.000012479999999999999,1.425196777179497,,0.000012479999999999999,1.62,,0.000012479999999999999,1.62,,0.000012479999999999999,1.5299683664915689
0.000024639999999999998,1.7723556843138335,,0.000024639999999999998,1.618554991359092,,0.000024639999999999998,1.618554991359092,,0.000024639999999999998,1.618554991359092,,0.000024639999999999998,1.4545637307064705,,0.000024639999999999998,1.4545637307064705,,0.000024639999999999998,1.4545637307064705,,0.000024639999999999998,1.4545637476884532,,0.000024639999999999998,1.2585271695520803,,0.000024639999999999998,1.2585271695520803,,0.000024639999999999998,1.261707547959518,,0.000024639999999999998,1.62,,0.000024639999999999998,1.62,,0.000024639999999999998,1.4556932556394824
0.000040264999999999995,1.8623345880280056,,0.000040264999999999995,1.6186373247416792,,0.000040264999999999995,1.6186373247416792,,0.000040264999999999995,1.6186373247416792,,0.000040264999999999995,1.3647806469516899,,0.000040264999999999995,1.3647806469516899,,0.000040264999999999995,1.3647806469516899,,0.000040264999999999995,1.364780659186336,,0.000040264999999999995,1.0606153653882562,,0.000040264999999999995,1.0606153653882562,,0.000040264999999999995,1.063541368440886,,0.000040264999999999995,1.62,,0.000040264999999999995,1.62,,0.000040264999999999995,1.365733442032774
0.000055889999999999995,1.9430007094270643,,0.000055889999999999995,1.6187056473426227,,0.000055889999999999995,1.6187056473426227,,0.000055889999999999995,1.6187056473426227,,0.000055889999999999995,1.2842958379376128,,0.000055889999999999995,1.2842958379376128,,0.000055889999999999995,1.2842958379376128,,0.000055889999999999995,1.2842958460682394,,0.000055889999999999995,0.8832124189694986,,0.000055889999999999995,0.8832124189694986,,0.000055889999999999995,0.8857415972764152,,0.000055889999999999995,1.62,,0.000055889999999999995,1.62,,0.000055889999999999995,1.2850958233434142
0.000071515,2.0112540947037254,,0.000071515,1.618760623458361,,0.000071515,1.618760623458361,,0.000071515,1.618760623458361,,0.000071515,1.2162087852130687,,0.000071515,1.2162087852130687,,0.000071515,1.2162087852130687,,0.000071515,1.2162087901524075,,0.000071515,0.7331592228830733,,0.000071515,0.7331592228830733,,0.000071515,0.7352474458498943,,0.000071515,1.62,,0.000071515,1.62,,0.000071515,1.2168898907082106
0.00008714,2.0644718045387465,,0.00008714,1.6187962196161352,,0.00008714,1.6187962196161352,,0.00008714,1.6187962196161352,,0.00008714,1.1631281920727414,,0.00008714,1.1631281920727414,,0.00008714,1.1631281920727414,,0.00008714,1.1631281948517083,,0.00008714,0.6162046172048957,,0.00008714,0.6162046172048957,,0.00008714,0.6177222550627288,,0.00008714,1.62,,0.00008714,1.62,,0.00008714,1.1637287508223981
0.000102765,2.1006087121880035,,0.000102765,1.6188149668714418,,0.000102765,1.6188149668714418,,0.000102765,1.6188149668714418,,0.000102765,1.1271017115051478,,0.000102765,1.1271017115051478,,0.000102765,1.1271017115051478,,0.000102765,1.1271017132419698,,0.000102765,0.5368606019787037,,0.000102765,0.5368606019787037,,0.000102765,0.5377952523872279,,0.000102765,1.62,,0.000102765,1.62,,0.000102765,1.1276633109993277
0.00011839,2.1182760965563463,,0.00011839,1.6188122674311056,,0.00011839,1.6188122674311056,,0.00011839,1.6188122674311056,,0.00011839,1.1095060638472036,,0.00011839,1.1095060638472036,,0.00011839,1.1095060638472036,,0.00011839,1.1095060656958966,,0.00011839,0.49815891002517737,,0.00011839,0.49815891002517737,,0.00011839,0.49843198751141926,,0.00011839,1.62,,0.00011839,1.62,,0.00011839,1.1100716308665277
0.000134015,2.116795009970483,,0.000134015,1.6187920808753935,,0.000134015,1.6187920808753935,,0.000134015,1.6187920808753935,,0.000134015,1.1110251492263497,,0.000134015,1.1110251492263497,,0.000134015,1.1110251492263497,,0.000134015,1.11102515234099,,0.000134015,0.5016041416535204,,0.000134015,0.5016041416535204,,0.000134015,0.5012447636441025,,0.000134015,1.62,,0.000134015,1.62,,0.000134015,1.1116376196429398
0.00014963999999999998,2.0962223697573052,,0.00014963999999999998,1.618751348499781,,0.00014963999999999998,1.618751348499781,,0.00014963999999999998,1.618751348499781,,0.00014963999999999998,1.1315929187047804,,0.00014963999999999998,1.1315929187047804,,0.00014963999999999998,1.1315929187047804,,0.00014963999999999998,1.1315929241862142,,0.00014963999999999998,0.5470466479580177,,0.00014963999999999998,0.5470466479580177,,0.00014963999999999998,0.5460318853603746,,0.00014963999999999998,1.62,,0.00014963999999999998,1.62,,0.00014963999999999998,1.1322932561752816
0.000165265,2.0573487709429363,,0.000165265,1.6186954488525016,,0.000165265,1.6186954488525016,,0.000165265,1.6186954488525016,,0.000165265,1.170426588459627,,0.000165265,1.170426588459627,,0.000165265,1.170426588459627,,0.000165265,1.170426597322661,,0.000165265,0.6327572727044002,,0.000165265,0.6327572727044002,,0.000165265,0.6311601634645263,,0.000165265,1.62,,0.000165265,1.62,,0.000165265,1.1712525621080205
0.00018089,2.0016681041292466,,0.00018089,1.6186227380135234,,0.00018089,1.6186227380135234,,0.00018089,1.6186227380135234,,0.00018089,1.226026215703447,,0.00018089,1.226026215703447,,0.00018089,1.226026215703447,,0.00018089,1.226026228827576,,0.00018089,0.7554250769248806,,0.00018089,0.7554250769248806,,0.00018089,0.7532754924173494,,0.00018089,1.62,,0.00018089,1.62,,0.00018089,1.2270105679412329
0.00019651500000000003,1.9313201461158085,,0.00019651500000000003,1.618539781359356,,0.00019651500000000003,1.618539781359356,,0.00019651500000000003,1.618539781359356,,0.00019651500000000003,1.2962626777942645,,0.00019651500000000003,1.2962626777942645,,0.00019651500000000003,1.2962626777942645,,0.00019651500000000003,1.2962626959011367,,0.00019651500000000003,0.9103530749717702,,0.00019651500000000003,0.9103530749717702,,0.00019651500000000003,0.9077627433561835,,0.00019651500000000003,1.62,,0.00019651500000000003,1.62,,0.00019651500000000003,1.2974322834224339
0.00021214000000000004,1.8490083294774893,,0.00021214000000000004,1.6184460165791328,,0.00021214000000000004,1.6184460165791328,,0.00021214000000000004,1.6184460165791328,,0.00021214000000000004,1.3784293238935517,,0.00021214000000000004,1.3784293238935517,,0.00021214000000000004,1.3784293238935517,,0.00021214000000000004,1.3784293475067833,,0.00021214000000000004,1.0915704301716307,,0.00021214000000000004,1.0915704301716307,,0.00021214000000000004,1.088612016622747,,0.00021214000000000004,1.62,,0.00021214000000000004,1.62,,0.00021214000000000004,1.3798036959269508
0.00022776500000000005,1.757895851166701,,0.00022776500000000005,1.6183487765778317,,0.00022776500000000005,1.6183487765778317,,0.00022776500000000005,1.6183487765778317,,0.00022776500000000005,1.469375992599267,,0.00022776500000000005,1.469375992599267,,0.00022776500000000005,1.469375992599267,,0.00022776500000000005,1.4693760220381498,,0.00022776500000000005,1.2921300598492438,,0.00022776500000000005,1.2921300598492438,,0.00022776500000000005,1.288942027999806,,0.00022776500000000005,1.62,,0.00022776500000000005,1.62,,0.00022776500000000005,1.470967044781673
0.00024339000000000007,1.6614841126284605,,0.00024339000000000007,1.6182480892490936,,0.00024339000000000007,1.6182480892490936,,0.00024339000000000007,1.6182480892490936,,0.00024339000000000007,1.5656002340549788,,0.00024339000000000007,1.5656002340549788,,0.00024339000000000007,1.5656002340549788,,0.00024339000000000007,1.5656002694068247,,0.00024339000000000007,1.5043075842558542,,0.00024339000000000007,1.5043075842558542,,0.00024339000000000007,1.500989655475837,,0.00024339000000000007,1.62,,0.00024339000000000007,1.62,,0.00024339000000000007,1.5674112530266526
0.0002590150000000001,1.5634781629064667,,0.0002590150000000001,1.61815151248159,,0.0002590150000000001,1.61815151248159,,0.0002590150000000001,1.61815151248159,,0.0002590150000000001,1.6634115792613156,,0.0002590150000000001,1.6634115792613156,,0.0002590150000000001,1.6634115792613156,,0.0002590150000000001,1.663411620395211,,0.0002590150000000001,1.7199660987518275,,0.0002590150000000001,1.7199660987518275,,0.0002590150000000001,1.7166667102441644,,0.0002590150000000001,1.62,,0.0002590150000000001,1.62,,0.0002590150000000001,1.6654377321128084
0.0002746400000000001,1.467644315686166,,0.0002746400000000001,1.6180590894713576,,0.0002746400000000001,1.6180590894713576,,0.0002746400000000001,1.6180590894713576,,0.0002746400000000001,1.7590438542744826,,0.0002746400000000001,1.7590438542744826,,0.0002746400000000001,1.7590438542744826,,0.0002746400000000001,1.759043900827325,,0.0002746400000000001,1.9308010077550528,,0.0002746400000000001,1.9308010077550528,,0.0002746400000000001,1.9276277731298244,,0.0002746400000000001,1.62,,0.0002746400000000001,1.62,,0.0002746400000000001,1.7612716706190066
0.0002902650000000001,1.377665411971994,,0.0002902650000000001,1.6179780199780558,,0.0002902650000000001,1.6179780199780558,,0.0002902650000000001,1.6179780199780558,,0.0002902650000000001,1.8488292579627,,0.0002902650000000001,1.8488292579627,,0.0002902650000000001,1.8488292579627,,0.0002902650000000001,1.8488293093741832,,0.0002902650000000001,2.1287269902479555,,0.0002902650000000001,2.1287269902479555,,0.0002902650000000001,2.125819388791377,,0.0002902650000000001,1.62,,0.0002902650000000001,1.62,,0.0002902650000000001,1.8512379266720729
0.0003058900000000001,1.2969992905729355,,0.0003058900000000001,1.6179077915451816,,0.0003058900000000001,1.6179077915451816,,0.0003058900000000001,1.6179077915451816,,0.0003058900000000001,1.9293101293811565,,0.0003058900000000001,1.9293101293811565,,0.0003058900000000001,1.9293101293811565,,0.0003058900000000001,1.9293101848920906,,0.0003058900000000001,2.3061209013807495,,0.0003058900000000001,2.3061209013807495,,0.0003058900000000001,2.3035746856939823,,0.0003058900000000001,1.62,,0.0003058900000000001,1.62,,0.0003058900000000001,1.9318714385056883
0.00032151500000000014,1.2287459052962744,,0.00032151500000000014,1.6178547109748647,,0.00032151500000000014,1.6178547109748647,,0.00032151500000000014,1.6178547109748647,,0.00032151500000000014,1.997400847277356,,0.00032151500000000014,1.997400847277356,,0.00032151500000000014,1.997400847277356,,0.00032151500000000014,1.9974009059843714,,0.00032151500000000014,2.4561825517322458,,0.00032151500000000014,2.4561825517322458,,0.00032151500000000014,2.4541100998144914,,0.00032151500000000014,1.62,,0.00032151500000000014,1.62,,0.00032151500000000014,2.000081213891752
0.00033714000000000015,1.175528195461253,,0.00033714000000000015,1.6178172299950282,,0.00033714000000000015,1.6178172299950282,,0.00033714000000000015,1.6178172299950282,,0.00033714000000000015,2.0504775448814745,,0.00033714000000000015,2.0504775448814745,,0.00033714000000000015,2.0504775448814745,,0.00033714000000000015,2.050477605743762,,0.00033714000000000015,2.573128171383031,,0.00033714000000000015,2.573128171383031,,0.00033714000000000015,2.5715959686123657,,0.00033714000000000015,1.62,,0.00033714000000000015,1.62,,0.00033714000000000015,2.053238269322699
0.00035276500000000016,1.1393912878119965,,0.00035276500000000016,1.617800357406226,,0.00035276500000000016,1.617800357406226,,0.00035276500000000016,1.617800357406226,,0.00035276500000000016,2.0865076489024466,,0.00035276500000000016,2.0865076489024466,,0.00035276500000000016,2.0865076489024466,,0.00035276500000000016,2.086507710812304,,0.00035276500000000016,2.6524806005565176,,0.00035276500000000016,2.6524806005565176,,0.00035276500000000016,2.651559397132324,,0.00035276500000000016,1.62,,0.00035276500000000016,1.62,,0.00035276500000000016,2.0893075335576197
0.0003683900000000002,1.121723903443654,,0.0003683900000000002,1.6178011927731528,,0.0003683900000000002,1.6178011927731528,,0.0003683900000000002,1.6178011927731528,,0.0003683900000000002,2.104099442561048,,0.0003683900000000002,2.104099442561048,,0.0003683900000000002,2.104099442561048,,0.0003683900000000002,2.1040995043532082,,0.0003683900000000002,2.691173338650344,,0.0003683900000000002,2.691173338650344,,0.0003683900000000002,2.6908878809916925,,0.0003683900000000002,1.62,,0.0003683900000000002,1.62,,0.0003683900000000002,2.1068951438720607
0.0003840150000000002,1.1232049900295173,,0.0003840150000000002,1.6178232333759837,,0.0003840150000000002,1.6178232333759837,,0.0003840150000000002,1.6178232333759837,,0.0003840150000000002,2.102583939436268,,0.0003840150000000002,2.102583939436268,,0.0003840150000000002,2.102583939436268,,0.0003840150000000002,2.102583999968722,,0.0003840150000000002,2.687736496885221,,0.0003840150000000002,2.687736496885221,,0.0003840150000000002,2.6881072679273386,,0.0003840150000000002,1.62,,0.0003840150000000002,1.62,,0.0003840150000000002,2.1053329685435807
0.0003996400000000002,1.1437776302426954,,0.0003996400000000002,1.6178621221689815,,0.0003996400000000002,1.6178621221689815,,0.0003996400000000002,1.6178621221689815,,0.0003996400000000002,2.0820123569797127,,0.0003996400000000002,2.0820123569797127,,0.0003996400000000002,2.0820123569797127,,0.0003996400000000002,2.082012415138646,,0.0003996400000000002,2.6422850534597644,,0.0003996400000000002,2.6422850534597644,,0.0003996400000000002,2.643289367053206,,0.0003996400000000002,1.62,,0.0003996400000000002,1.62,,0.0003996400000000002,2.0846732698195085
0.0004152650000000002,1.1826512290570645,,0.0004152650000000002,1.617919855500189,,0.0004152650000000002,1.617919855500189,,0.0004152650000000002,1.617919855500189,,0.0004152650000000002,2.043182228792481,,0.0004152650000000002,2.043182228792481,,0.0004152650000000002,2.043182228792481,,0.0004152650000000002,2.043182283577037,,0.0004152650000000002,2.556582809168669,,0.0004152650000000002,2.556582809168669,,0.0004152650000000002,2.5581894955281363,,0.0004152650000000002,1.62,,0.0004152650000000002,1.62,,0.0004152650000000002,2.0457177730386005
0.00043089000000000023,1.2383318958707545,,0.00043089000000000023,1.617990742992805,,0.00043089000000000023,1.617990742992805,,0.00043089000000000023,1.617990742992805,,0.00043089000000000023,1.9875788290826495,,0.00043089000000000023,1.9875788290826495,,0.00043089000000000023,1.9875788290826495,,0.00043089000000000023,1.987578879598324,,0.00043089000000000023,2.4339060705940203,,0.00043089000000000023,2.4339060705940203,,0.00043089000000000023,2.4360469138149385,,0.00043089000000000023,1.62,,0.00043089000000000023,1.62,,0.00043089000000000023,1.9899557062927575
0.00044651500000000025,1.308679853884193,,0.00044651500000000025,1.6180755132206104,,0.00044651500000000025,1.6180755132206104,,0.00044651500000000025,1.6180755132206104,,0.00044651500000000025,1.9173458683786493,,0.00044651500000000025,1.9173458683786493,,0.00044651500000000025,1.9173458683786493,,0.00044651500000000025,1.9173459139199365,,0.00044651500000000025,2.2789864569058307,,0.00044651500000000025,2.2789864569058307,,0.00044651500000000025,2.2815847594787932,,0.00044651500000000025,1.62,,0.00044651500000000025,1.62,,0.00044651500000000025,1.9195378017147664
0.00046214000000000026,1.390991670522512,,0.00046214000000000026,1.6181674746394528,,0.00046214000000000026,1.6181674746394528,,0.00046214000000000026,1.6181674746394528,,0.00046214000000000026,1.8351754898228845,,0.00046214000000000026,1.8351754898228845,,0.00046214000000000026,1.8351754898228845,,0.00046214000000000026,1.8351755298488244,,0.00046214000000000026,2.0977601574268934,,0.00046214000000000026,2.0977601574268934,,0.00046214000000000026,2.1007113405215136,,0.00046214000000000026,1.62,,0.00046214000000000026,1.62,,0.00046214000000000026,1.8371623238105068
0.0004777650000000003,1.4821041488333004,,0.0004777650000000003,1.6182665083537522,,0.0004777650000000003,1.6182665083537522,,0.0004777650000000003,1.6182665083537522,,0.0004777650000000003,1.7442322828225119,,0.0004777650000000003,1.7442322828225119,,0.0004777650000000003,1.7442322828225119,,0.0004777650000000003,1.7442323170324237,,0.0004777650000000003,1.8972089281236628,,0.0004777650000000003,1.8972089281236628,,0.0004777650000000003,1.9004035095710745,,0.0004777650000000003,1.62,,0.0004777650000000003,1.62,,0.0004777650000000003,1.7460027931132935
