X--Trace 1::[transient: TIME],Y--Trace 1::[PR1: V(1)],,X--Trace 2::[transient: TIME],Y--Trace 2::[PR2: V(2)],,X--Trace 3::[transient: TIME],Y--Trace 3::[PR3: V(2)],,X--Trace 4::[transient: TIME],Y--Trace 4::[PR4: V(2)],,X--Trace 5::[transient: TIME],Y--Trace 5::[PR5: V(3)],,X--Trace 6::[transient: TIME],Y--Trace 6::[PR6: V(3)],,X--Trace 7::[transient: TIME],Y--Trace 7::[PR7: V(3)],,X--Trace 8::[transient: TIME],Y--Trace 8::[PR8: V(5)],,X--Trace 9::[transient: TIME],Y--Trace 9::[PR9: V(7)],,X--Trace 10::[transient: TIME],Y--Trace 10::[PR14: V(7)],,X--Trace 11::[transient: TIME],Y--Trace 11::[PR10: V(8)],,X--Trace 12::[transient: TIME],Y--Trace 12::[PR11: V(4)],,X--Trace 13::[transient: TIME],Y--Trace 13::[PR12: V(4)],,X--Trace 14::[transient: TIME],Y--Trace 14::[PR13: V(6)]
0,1.62,,0,1.6183075931279771,,0,1.6183075931279771,,0,1.6183075931279771,,0,1.6064053551670936,,0,1.6064053551670936,,0,1.6064053551670936,,0,1.6064053871910922,,0,1.602142522201882,,0,1.602142522201882,,0,1.6021425221201726,,0,1.62,,0,1.62,,0,1.6080935252687327
1e-7,1.6206283183653514,,1e-7,1.6183904253956434,,1e-7,1.6183904253956434,,1e-7,1.6183904253956434,,1e-7,1.6059427027108895,,1e-7,1.6059427027108895,,1e-7,1.6059427027108895,,1e-7,1.605942730029965,,1e-7,1.6011869706187394,,1e-7,1.6011869706187394,,1e-7,1.601861229337385,,1e-7,1.62,,1e-7,1.62,,1e-7,1.6074566070622884
2e-7,1.6212566357385019,,2e-7,1.6184051219007063,,2e-7,1.6184051219007063,,2e-7,1.6184051219007063,,2e-7,1.6053437804822652,,2e-7,1.6053437804822652,,2e-7,1.6053437804822652,,2e-7,1.6053438083803668,,2e-7,1.6003207687128638,,2e-7,1.6003207687128638,,2e-7,1.6014077525325001,,2e-7,1.62,,2e-7,1.62,,2e-7,1.6068791248397858
4e-7,1.6225132635394095,,4e-7,1.6184117918516157,,4e-7,1.6184117918516157,,4e-7,1.6184117918516157,,4e-7,1.6041004981686295,,4e-7,1.6041004981686295,,4e-7,1.6041004981686295,,4e-7,1.6041005253818492,,4e-7,1.5984177511588689,,4e-7,1.5984177511588689,,4e-7,1.6002075802167655,,4e-7,1.62,,4e-7,1.62,,4e-7,1.605610463406328
8e-7,1.6250264635783653,,8e-7,1.618410689731948,,8e-7,1.618410689731948,,8e-7,1.618410689731948,,8e-7,1.6015851127010738,,8e-7,1.6015851127010738,,8e-7,1.6015851127010738,,8e-7,1.6015851410792723,,8e-7,1.5947094010836607,,8e-7,1.5947094010836607,,8e-7,1.5968925889254062,,8e-7,1.62,,8e-7,1.62,,8e-7,1.6031382013076865
0.0000016,1.6300524191627288,,0.0000016,1.6184186628688757,,0.0000016,1.6184186628688757,,0.0000016,1.6184186628688757,,0.0000016,1.5965751714156624,,0.0000016,1.5965751714156624,,0.0000016,1.5965751714156624,,0.0000016,1.5965751982669094,,0.0000016,1.5871095243883986,,0.0000016,1.5871095243883986,,0.0000016,1.5894101737049877,,0.0000016,1.62,,0.0000016,1.62,,0.0000016,1.5980716546476328
0.0000032,1.6401007746814766,,0.0000032,1.6184259300002397,,0.0000032,1.6184259300002397,,0.0000032,1.6184259300002397,,0.0000032,1.5865416078990209,,0.0000032,1.5865416078990209,,0.0000032,1.5865416078990209,,0.0000032,1.586541635816616,,0.0000032,1.5721183109823538,,0.0000032,1.5721183109823538,,0.0000032,1.574334661768411,,0.0000032,1.62,,0.0000032,1.62,,0.0000032,1.5880774862474873
0.0000064,1.6601690500666972,,0.0000064,1.6184483092791018,,0.0000064,1.6184483092791018,,0.0000064,1.6184483092791018,,0.0000064,1.5665190926653816,,0.0000064,1.5665190926653816,,0.0000064,1.5665190926653816,,0.0000064,1.5665191182435416,,0.0000064,1.541954178385657,,0.0000064,1.541954178385657,,0.0000064,1.5442455521719696,,0.0000064,1.62,,0.0000064,1.62,,0.0000064,1.5679681226817812
0.000012479999999999999,1.698093113473714,,0.000012479999999999999,1.6184841258759732,,0.000012479999999999999,1.6184841258759732,,0.000012479999999999999,1.6184841258759732,,0.000012479999999999999,1.5286703425319583,,0.000012479999999999999,1.5286703425319583,,0.000012479999999999999,1.5286703425319583,,0.000012479999999999999,1.5286703674140856,,0.000012479999999999999,1.485141789027359,,0.000012479999999999999,1.485141789027359,,0.000012479999999999999,1.4873760854351703,,0.000012479999999999999,1.62,,0.000012479999999999999,1.62,,0.000012479999999999999,1.5300932143862591
0.000024639999999999998,1.7723556843138335,,0.000024639999999999998,1.6185549913600414,,0.000024639999999999998,1.6185549913600414,,0.000024639999999999998,1.6185549913600414,,0.000024639999999999998,1.4545637307082375,,0.000024639999999999998,1.4545637307082375,,0.000024639999999999998,1.4545637307082375,,0.000024639999999999998,1.454563752715009,,0.000024639999999999998,1.373820904666146,,0.000024639999999999998,1.373820904666146,,0.000024639999999999998,1.3759835562142606,,0.000024639999999999998,1.62,,0.000024639999999999998,1.62,,0.000024639999999999998,1.4558793639587988
0.000040264999999999995,1.8623345880280056,,0.000040264999999999995,1.618636675403375,,0.000040264999999999995,1.618636675403375,,0.000040264999999999995,1.618636675403375,,0.000040264999999999995,1.3647794301504588,,0.000040264999999999995,1.3647794301504588,,0.000040264999999999995,1.3647794301504588,,0.000040264999999999995,1.364779448881693,,0.000040264999999999995,1.2389610038466727,,0.000040264999999999995,1.2389610038466727,,0.000040264999999999995,1.2409416537982618,,0.000040264999999999995,1.62,,0.000040264999999999995,1.62,,0.000040264999999999995,1.3659728460872438
0.000055889999999999995,1.9430007094270643,,0.000055889999999999995,1.618706292917316,,0.000055889999999999995,1.618706292917316,,0.000055889999999999995,1.618706292917316,,0.000055889999999999995,1.2842972109468211,,0.000055889999999999995,1.2842972109468211,,0.000055889999999999995,1.2842972109468211,,0.000055889999999999995,1.284297226864331,,0.000055889999999999995,1.1180800389521204,,0.000055889999999999995,1.1180800389521204,,0.000055889999999999995,1.1198157261421078,,0.000055889999999999995,1.62,,0.000055889999999999995,1.62,,0.000055889999999999995,1.2853856072432586
0.000071515,2.0112540947037254,,0.000071515,1.618759981299376,,0.000071515,1.618759981299376,,0.000071515,1.618759981299376,,0.000071515,1.2162075827443888,,0.000071515,1.2162075827443888,,0.000071515,1.2162075827443888,,0.000071515,1.2162075965177765,,0.000071515,1.0158253727289035,,0.000071515,1.0158253727289035,,0.000071515,1.0172369659195704,,0.000071515,1.62,,0.000071515,1.62,,0.000071515,1.2172158840652851
0.00008714,2.0644718045387465,,0.00008714,1.6187968580564804,,0.00008714,1.6187968580564804,,0.00008714,1.6187968580564804,,0.00008714,1.1631295507872987,,0.00008714,1.1631295507872987,,0.00008714,1.1631295507872987,,0.00008714,1.1631295630681524,,0.00008714,0.9361245509508731,,0.00008714,0.9361245509508731,,0.00008714,0.9371695539670928,,0.00008714,1.62,,0.00008714,1.62,,0.00008714,1.1640820407948673
0.000102765,2.1006087121880035,,0.000102765,1.6188143318023809,,0.000102765,1.6188143318023809,,0.000102765,1.6188143318023809,,0.000102765,1.127100523190524,,0.000102765,1.127100523190524,,0.000102765,1.127100523190524,,0.000102765,1.1271005347889298,,0.000102765,0.8820425279656428,,0.000102765,0.8820425279656428,,0.000102765,0.8826696685412915,,0.000102765,1.62,,0.000102765,1.62,,0.000102765,1.1280273763762527
0.00011839,2.1182760965563463,,0.00011839,1.6188128988258124,,0.00011839,1.6188128988258124,,0.00011839,1.6188128988258124,,0.00011839,1.1095074084447194,,0.00011839,1.1095074084447194,,0.00011839,1.1095074084447194,,0.00011839,1.1095074200951391,,0.00011839,0.8556554831004598,,0.00011839,0.8556554831004598,,0.00011839,0.8558511766761558,,0.00011839,1.62,,0.00011839,1.62,,0.00011839,1.1104360122003127
0.000134015,2.116795009970483,,0.000134015,1.6187914528080067,,0.000134015,1.6187914528080067,,0.000134015,1.6187914528080067,,0.000134015,1.1110239748892257,,0.000134015,1.1110239748892257,,0.000134015,1.1110239748892257,,0.000134015,1.111023987426663,,0.000134015,0.8579796684972695,,0.000134015,0.8579796684972695,,0.000134015,0.8577264387920461,,0.000134015,1.62,,0.000134015,1.62,,0.000134015,1.1119854471990949
0.00014963999999999998,2.0962223697573052,,0.00014963999999999998,1.6187519729364224,,0.00014963999999999998,1.6187519729364224,,0.00014963999999999998,1.6187519729364224,,0.00014963999999999998,1.1315942493604931,,0.00014963999999999998,1.1315942493604931,,0.00014963999999999998,1.1315942493604931,,0.00014963999999999998,1.1315942634826506,,0.00014963999999999998,0.8889234904617456,,0.00014963999999999998,0.8889234904617456,,0.00014963999999999998,0.8882404998618068,,0.00014963999999999998,1.62,,0.00014963999999999998,1.62,,0.00014963999999999998,1.1326146223009528
0.000165265,2.0573487709429363,,0.000165265,1.6186948276996815,,0.000165265,1.6186948276996815,,0.000165265,1.6186948276996815,,0.000165265,1.170425427926142,,0.000165265,1.170425427926142,,0.000165265,1.170425427926142,,0.000165265,1.170425444373692,,0.000165265,0.9473001200294437,,0.000165265,0.9473001200294437,,0.000165265,0.9462046768433492,,0.000165265,1.62,,0.000165265,1.62,,0.000165265,1.1715323171512515
0.00018089,2.0016681041292466,,0.00018089,1.6186233555785545,,0.00018089,1.6186233555785545,,0.00018089,1.6186233555785545,,0.00018089,1.2260275325903962,,0.00018089,1.2260275325903962,,0.00018089,1.2260275325903962,,0.00018089,1.2260275519101362,,0.00018089,1.0308637895226955,,0.00018089,1.0308637895226955,,0.00018089,1.029406468516631,,0.00018089,1.62,,0.00018089,1.62,,0.00018089,1.2272413581149644
0.00019651500000000003,1.9313201461158085,,0.00019651500000000003,1.6185391670351281,,0.00019651500000000003,1.6185391670351281,,0.00019651500000000003,1.6185391670351281,,0.00019651500000000003,1.2962615308920449,,0.00019651500000000003,1.2962615308920449,,0.00019651500000000003,1.2962615308920449,,0.00019651500000000003,1.2962615536255346,,0.00019651500000000003,1.1364056269137413,,0.00019651500000000003,1.1364056269137413,,0.00019651500000000003,1.1346343869085074,,0.00019651500000000003,1.62,,0.00019651500000000003,1.62,,0.00019651500000000003,1.2976024973458777
0.00021214000000000004,1.8490083294774893,,0.00021214000000000004,1.6184466273579146,,0.00021214000000000004,1.6184466273579146,,0.00021214000000000004,1.6184466273579146,,0.00021214000000000004,1.378430627182093,,0.00021214000000000004,1.378430627182093,,0.00021214000000000004,1.378430627182093,,0.00021214000000000004,1.3784306536339492,,0.00021214000000000004,1.259867225564317,,0.00021214000000000004,1.259867225564317,,0.00021214000000000004,1.2578577747511024,,0.00021214000000000004,1.62,,0.00021214000000000004,1.62,,0.00021214000000000004,1.3799101363228243
0.00022776500000000005,1.757895851166701,,0.00022776500000000005,1.618348168997345,,0.00022776500000000005,1.618348168997345,,0.00022776500000000005,1.618348168997345,,0.00022776500000000005,1.4693748591588431,,0.00022776500000000005,1.4693748591588431,,0.00022776500000000005,1.4693748591588431,,0.00022776500000000005,1.4693748895971461,,0.00022776500000000005,1.3965065633161995,,0.00022776500000000005,1.3965065633161995,,0.00022776500000000005,1.3943288626632666,,0.00022776500000000005,1.62,,0.00022776500000000005,1.62,,0.00022776500000000005,1.4710029279057788
0.00024339000000000007,1.6614841126284605,,0.00024339000000000007,1.6182486933259106,,0.00024339000000000007,1.6182486933259106,,0.00024339000000000007,1.6182486933259106,,0.00024339000000000007,1.5656015239138408,,0.00024339000000000007,1.5656015239138408,,0.00024339000000000007,1.5656015239138408,,0.00024339000000000007,1.5656015583465221,,0.00024339000000000007,1.5410700705694362,,0.00024339000000000007,1.5410700705694362,,0.00024339000000000007,1.538814713977108,,0.00024339000000000007,1.62,,0.00024339000000000007,1.62,,0.00024339000000000007,1.5673784988547612
0.0002590150000000001,1.5634781629064667,,0.0002590150000000001,1.6181509115611068,,0.0002590150000000001,1.6181509115611068,,0.0002590150000000001,1.6181509115611068,,0.0002590150000000001,1.663410459114775,,0.0002590150000000001,1.663410459114775,,0.0002590150000000001,1.663410459114775,,0.0002590150000000001,1.6634104975038,,0.0002590150000000001,1.6880048927791849,,0.0002590150000000001,1.6880048927791849,,0.0002590150000000001,1.6857519788219955,,0.0002590150000000001,1.62,,0.0002590150000000001,1.62,,0.0002590150000000001,1.6653349473489816
0.0002746400000000001,1.467644315686166,,0.0002746400000000001,1.618059686929432,,0.0002746400000000001,1.618059686929432,,0.0002746400000000001,1.618059686929432,,0.0002746400000000001,1.7590451308697326,,0.0002746400000000001,1.7590451308697326,,0.0002746400000000001,1.7590451308697326,,0.0002746400000000001,1.759045172916915,,0.0002746400000000001,1.8316617097599344,,0.0002746400000000001,1.8316617097599344,,0.0002746400000000001,1.829504079098017,,0.0002746400000000001,1.62,,0.0002746400000000001,1.62,,0.0002746400000000001,1.7611060664300944
0.0002902650000000001,1.377665411971994,,0.0002902650000000001,1.6179774256349346,,0.0002902650000000001,1.6179774256349346,,0.0002902650000000001,1.6179774256349346,,0.0002902650000000001,1.8488281509450235,,0.0002902650000000001,1.8488281509450235,,0.0002902650000000001,1.8488281509450235,,0.0002902650000000001,1.8488281963202757,,0.0002902650000000001,1.9665226103261273,,0.0002902650000000001,1.9665226103261273,,0.0002902650000000001,1.964537208336505,,0.0002902650000000001,1.62,,0.0002902650000000001,1.62,,0.0002902650000000001,1.8510132495023566
0.0003058900000000001,1.2969992905729355,,0.0003058900000000001,1.6179083824666842,,0.0003058900000000001,1.6179083824666842,,0.0003058900000000001,1.6179083824666842,,0.0003058900000000001,1.9293113928775176,,0.0003058900000000001,1.9293113928775176,,0.0003058900000000001,1.9293113928775176,,0.0003058900000000001,1.9293114410136156,,0.0003058900000000001,2.087402169613102,,0.0003058900000000001,2.087402169613102,,0.0003058900000000001,2.0856709930665893,,0.0003058900000000001,1.62,,0.0003058900000000001,1.62,,0.0003058900000000001,1.9315995525801926
0.00032151500000000014,1.2287459052962744,,0.00032151500000000014,1.6178541231275434,,0.00032151500000000014,1.6178541231275434,,0.00032151500000000014,1.6178541231275434,,0.00032151500000000014,1.9973997532253358,,0.00032151500000000014,1.9973997532253358,,0.00032151500000000014,1.9973997532253358,,0.00032151500000000014,1.9973998035587524,,0.00032151500000000014,2.1896578914385088,,0.00032151500000000014,2.1896578914385088,,0.00032151500000000014,2.188242024411733,,0.00032151500000000014,1.62,,0.00032151500000000014,1.62,,0.00032151500000000014,1.9997699781794962
0.00033714000000000015,1.175528195461253,,0.00033714000000000015,1.617817814461089,,0.00033714000000000015,1.617817814461089,,0.00033714000000000015,1.617817814461089,,0.00033714000000000015,2.050478795440899,,0.00033714000000000015,2.050478795440899,,0.00033714000000000015,2.050478795440899,,0.00033714000000000015,2.0504788472133217,,0.00033714000000000015,2.269357252782375,,0.00033714000000000015,2.269357252782375,,0.00033714000000000015,2.2683163123102785,,0.00033714000000000015,1.62,,0.00033714000000000015,1.62,,0.00033714000000000015,2.052902849148777
0.00035276500000000016,1.1393912878119965,,0.00035276500000000016,1.6177997759742007,,0.00035276500000000016,1.6177997759742007,,0.00035276500000000016,1.6177997759742007,,0.00035276500000000016,2.0865065676548737,,0.00035276500000000016,2.0865065676548737,,0.00035276500000000016,2.0865065676548737,,0.00035276500000000016,2.0865066201635774,,0.00035276500000000016,2.3234403854717556,,0.00035276500000000016,2.3234403854717556,,0.00035276500000000016,2.32280939087055,,0.00035276500000000016,1.62,,0.00035276500000000016,1.62,,0.00035276500000000016,2.08895825204114
0.0003683900000000002,1.121723903443654,,0.0003683900000000002,1.6178017708638652,,0.0003683900000000002,1.6178017708638652,,0.0003683900000000002,1.6178017708638652,,0.0003683900000000002,2.1041006803437186,,0.0003683900000000002,2.1041006803437186,,0.0003683900000000002,2.1041006803437186,,0.0003683900000000002,2.1041007327462555,,0.0003683900000000002,2.3498259167000914,,0.0003683900000000002,2.3498259167000914,,0.0003683900000000002,2.3496338924357785,,0.0003683900000000002,1.62,,0.0003683900000000002,1.62,,0.0003683900000000002,2.1065486084628406
0.0003840150000000002,1.1232049900295173,,0.0003840150000000002,1.6178226582797863,,0.0003840150000000002,1.6178226582797863,,0.0003840150000000002,1.6178226582797863,,0.0003840150000000002,2.1025828708343837,,0.0003840150000000002,2.1025828708343837,,0.0003840150000000002,2.1025828708343837,,0.0003840150000000002,2.10258292240435,,0.0003840150000000002,2.3475028936082563,,0.0003840150000000002,2.3475028936082563,,0.0003840150000000002,2.3477526375431172,,0.0003840150000000002,1.62,,0.0003840150000000002,1.62,,0.0003840150000000002,2.1049999469896137
0.0003996400000000002,1.1437776302426954,,0.0003996400000000002,1.6178626939634078,,0.0003996400000000002,1.6178626939634078,,0.0003996400000000002,1.6178626939634078,,0.0003996400000000002,2.082013582144028,,0.0003996400000000002,2.082013582144028,,0.0003996400000000002,2.082013582144028,,0.0003996400000000002,2.0820136320745175,,0.0003996400000000002,2.3165575061915504,,0.0003996400000000002,2.3165575061915504,,0.0003996400000000002,2.317243821314767,,0.0003996400000000002,1.62,,0.0003996400000000002,1.62,,0.0003996400000000002,2.08436972960506
0.0004152650000000002,1.1826512290570645,,0.0004152650000000002,1.6179192866613679,,0.0004152650000000002,1.6179192866613679,,0.0004152650000000002,1.6179192866613679,,0.0004152650000000002,2.0431811726796623,,0.0004152650000000002,2.0431811726796623,,0.0004152650000000002,2.0431811726796623,,0.0004152650000000002,2.0431812203398008,,0.0004152650000000002,2.2581820902502967,,0.0004152650000000002,2.2581820902502967,,0.0004152650000000002,2.2592743703988987,,0.0004152650000000002,1.62,,0.0004152650000000002,1.62,,0.0004152650000000002,2.045452842479894
0.00043089000000000023,1.2383318958707545,,0.00043089000000000023,1.6179913085689808,,0.00043089000000000023,1.6179913085689808,,0.00043089000000000023,1.6179913085689808,,0.00043089000000000023,1.9875800417847216,,0.00043089000000000023,1.9875800417847216,,0.00043089000000000023,1.9875800417847216,,0.00043089000000000023,1.9875800865173272,,0.00043089000000000023,2.1746168046667265,,0.00043089000000000023,2.1746168046667265,,0.00043089000000000023,2.176077148185,,0.00043089000000000023,1.62,,0.00043089000000000023,1.62,,0.00043089000000000023,1.9897427254891389
0.00044651500000000025,1.308679853884193,,0.00044651500000000025,1.6180749505617078,,0.00044651500000000025,1.6180749505617078,,0.00044651500000000025,1.6180749505617078,,0.00044651500000000025,1.9173448245997895,,0.00044651500000000025,1.9173448245997895,,0.00044651500000000025,1.9173448245997895,,0.00044651500000000025,1.9173448659742665,,0.00044651500000000025,2.0690762311406283,,0.00044651500000000025,2.0690762311406283,,0.00044651500000000025,2.0708445906432353,,0.00044651500000000025,1.62,,0.00044651500000000025,1.62,,0.00044651500000000025,1.9193824274615399
0.00046214000000000026,1.390991670522512,,0.00046214000000000026,1.6181680340743974,,0.00046214000000000026,1.6181680340743974,,0.00046214000000000026,1.6181680340743974,,0.00046214000000000026,1.8351766902165783,,0.00046214000000000026,1.8351766902165783,,0.00046214000000000026,1.8351766902165783,,0.00046214000000000026,1.8351767278167723,,0.00046214000000000026,1.9456129667530433,,0.00046214000000000026,1.9456129667530433,,0.00046214000000000026,1.9476251758426404,,0.00046214000000000026,1.62,,0.00046214000000000026,1.62,,0.00046214000000000026,1.837073679373867
0.0004777650000000003,1.4821041488333004,,0.0004777650000000003,1.6182659517982876,,0.0004777650000000003,1.6182659517982876,,0.0004777650000000003,1.6182659517982876,,0.0004777650000000003,1.7442312512244114,,0.0004777650000000003,1.7442312512244114,,0.0004777650000000003,1.7442312512244114,,0.0004777650000000003,1.744231284894347,,0.0004777650000000003,1.8089749421994152,,0.0004777650000000003,1.8089749421994152,,0.0004777650000000003,1.8111500093852984,,0.0004777650000000003,1.62,,0.0004777650000000003,1.62,,0.0004777650000000003,1.7459817618690172
