X--Trace 1::[transient: TIME],Y--Trace 1::[PR1: V(1)],,X--Trace 2::[transient: TIME],Y--Trace 2::[PR2: V(2)],,X--Trace 3::[transient: TIME],Y--Trace 3::[PR3: V(2)],,X--Trace 4::[transient: TIME],Y--Trace 4::[PR4: V(2)],,X--Trace 5::[transient: TIME],Y--Trace 5::[PR5: V(3)],,X--Trace 6::[transient: TIME],Y--Trace 6::[PR6: V(3)],,X--Trace 7::[transient: TIME],Y--Trace 7::[PR7: V(3)],,X--Trace 8::[transient: TIME],Y--Trace 8::[PR8: V(5)],,X--Trace 9::[transient: TIME],Y--Trace 9::[PR9: V(7)],,X--Trace 10::[transient: TIME],Y--Trace 10::[PR14: V(7)],,X--Trace 11::[transient: TIME],Y--Trace 11::[PR10: V(8)],,X--Trace 12::[transient: TIME],Y--Trace 12::[PR11: V(4)],,X--Trace 13::[transient: TIME],Y--Trace 13::[PR12: V(4)],,X--Trace 14::[transient: TIME],Y--Trace 14::[PR13: V(6)]
0,1.62,,0,1.6183075931279662,,0,1.6183075931279662,,0,1.6183075931279662,,0,1.6064053551669133,,0,1.6064053551669133,,0,1.6064053551669133,,0,1.6064053868913721,,0,1.591059555383097,,0,1.591059555383097,,0,1.591059555301953,,0,1.62,,0,1.62,,0,1.6080824308970392
1e-7,1.6206283183653514,,1e-7,1.6183904253724042,,1e-7,1.6183904253724042,,1e-7,1.6183904253724042,,1e-7,1.6059427026642528,,1e-7,1.6059427026642528,,1e-7,1.6059427026642528,,1e-7,1.6059427244507727,,1e-7,1.5890416785914272,,1e-7,1.5890416785914272,,1e-7,1.5904655379950232,,1e-7,1.62,,1e-7,1.62,,1e-7,1.6072516920210451
2e-7,1.6212566357385019,,2e-7,1.6184051219163484,,2e-7,1.6184051219163484,,2e-7,1.6184051219163484,,2e-7,1.6053437805133939,,2e-7,1.6053437805133939,,2e-7,1.6053437805133939,,2e-7,1.6053438078097124,,2e-7,1.588082946610146,,2e-7,1.588082946610146,,2e-7,1.5897641569335115,,2e-7,1.62,,2e-7,1.62,,2e-7,1.60685683600704
4e-7,1.6225132635394095,,4e-7,1.6184117918050605,,4e-7,1.6184117918050605,,4e-7,1.6184117918050605,,4e-7,1.6041004980753675,,4e-7,1.6041004980753675,,4e-7,1.6041004980753675,,4e-7,1.604100515758228,,4e-7,1.5841984341931794,,4e-7,1.5841984341931794,,4e-7,1.5876308236318493,,4e-7,1.62,,4e-7,1.62,,4e-7,1.6052574775229334
8e-7,1.6250264635783653,,8e-7,1.6184106898072295,,8e-7,1.6184106898072295,,8e-7,1.6184106898072295,,8e-7,1.6015851128514913,,8e-7,1.6015851128514913,,8e-7,1.6015851128514913,,8e-7,1.6015851487819786,,8e-7,1.579731621431843,,8e-7,1.579731621431843,,8e-7,1.5824765858331902,,8e-7,1.62,,8e-7,1.62,,8e-7,1.6034179234192933
0.0000016,1.6300524191627288,,0.0000016,1.6184186627731916,,0.0000016,1.6184186627731916,,0.0000016,1.6184186627731916,,0.0000016,1.5965751712241698,,0.0000016,1.5965751712241698,,0.0000016,1.5965751712241698,,0.0000016,1.5965751817506924,,0.0000016,1.5652784831965392,,0.0000016,1.5652784831965392,,0.0000016,1.5700063233984403,,0.0000016,1.62,,0.0000016,1.62,,0.0000016,1.597467018698694
0.0000032,1.6401007746814766,,0.0000032,1.6184259301073147,,0.0000032,1.6184259301073147,,0.0000032,1.6184259301073147,,0.0000032,1.586541608113093,,0.0000032,1.586541608113093,,0.0000032,1.586541608113093,,0.0000032,1.5865416475645233,,0.0000032,1.5435138673851132,,0.0000032,1.5435138673851132,,0.0000032,1.5459837812234722,,0.0000032,1.62,,0.0000032,1.62,,0.0000032,1.5885046770649773
0.0000064,1.6601690500666972,,0.0000064,1.6184483091651527,,0.0000064,1.6184483091651527,,0.0000064,1.6184483091651527,,0.0000064,1.5665190924374535,,0.0000064,1.5665190924374535,,0.0000064,1.5665190924374535,,0.0000064,1.5665190984437065,,0.0000064,1.4918776547010466,,0.0000064,1.4918776547010466,,0.0000064,1.4967792017672867,,0.0000064,1.62,,0.0000064,1.62,,0.0000064,1.567243217450942
0.000012479999999999999,1.698093113473714,,0.000012479999999999999,1.6184841258792966,,0.000012479999999999999,1.6184841258792966,,0.000012479999999999999,1.6184841258792966,,0.000012479999999999999,1.5286703425386028,,0.000012479999999999999,1.5286703425386028,,0.000012479999999999999,1.5286703425386028,,0.000012479999999999999,1.528670363150163,,0.000012479999999999999,1.4012726231025288,,0.000012479999999999999,1.4012726231025288,,0.000012479999999999999,1.4048561861953097,,0.000012479999999999999,1.62,,0.000012479999999999999,1.62,,0.000012479999999999999,1.5299350409875268
0.00002292350186877301,1.762048850107193,,0.00002292350186877301,1.6185452250653398,,0.00002292350186877301,1.6185452250653398,,0.00002292350186877301,1.6185452250653398,,0.00002292350186877301,1.4648484830856703,,0.00002292350186877301,1.4648484830856703,,0.00002292350186877301,1.4648484830856703,,0.00002292350186877301,1.4648484989775,,0.00002292350186877301,1.2458504145091318,,0.00002292350186877301,1.2458504145091318,,0.00002292350186877301,1.2493894613403997,,0.00002292350186877301,1.62,,0.00002292350186877301,1.62,,0.00002292350186877301,1.465937733746766
0.00003854850186877301,1.852845266727463,,0.00003854850186877301,1.61862887581135,,0.00003854850186877301,1.61862887581135,,0.00003854850186877301,1.61862887581135,,0.00003854850186877301,1.3742489776334808,,0.00003854850186877301,1.3742489776334808,,0.00003854850186877301,1.3742489776334808,,0.00003854850186877301,1.3742489883314288,,0.00003854850186877301,1.0253534616166202,,0.00003854850186877301,1.0253534616166202,,0.00003854850186877301,1.0286184497156259,,0.00003854850186877301,1.62,,0.00003854850186877301,1.62,,0.00003854850186877301,1.3751449511213178
0.00005417350186877301,1.9346935703285268,,0.00005417350186877301,1.6186987468917042,,0.00005417350186877301,1.6186987468917042,,0.00005417350186877301,1.6186987468917042,,0.00005417350186877301,1.2925836829839636,,0.00005417350186877301,1.2925836829839636,,0.00005417350186877301,1.2925836829839636,,0.00005417350186877301,1.2925836889800173,,0.00005417350186877301,0.826598367281871,,0.00005417350186877301,0.826598367281871,,0.00005417350186877301,0.8294443588736804,,0.00005417350186877301,1.62,,0.00005417350186877301,1.62,,0.00005417350186877301,1.2933046908766554
0.000069798501868773,2.004448376504053,,0.000069798501868773,1.6187555033388479,,0.000069798501868773,1.6187555033388479,,0.000069798501868773,1.6187555033388479,,0.000069798501868773,1.2229975818303904,,0.000069798501868773,1.2229975818303904,,0.000069798501868773,1.2229975818303904,,0.000069798501868773,1.2229975842508676,,0.000069798501868773,0.6572801043549243,,0.000069798501868773,0.6572801043549243,,0.000069798501868773,0.6596438635640629,,0.000069798501868773,1.62,,0.000069798501868773,1.62,,0.000069798501868773,1.223585461532228
0.000085423501868773,2.0594290471716614,,0.000085423501868773,1.6187931097312545,,0.000085423501868773,1.6187931097312545,,0.000085423501868773,1.6187931097312545,,0.000085423501868773,1.1681571179943961,,0.000085423501868773,1.1681571179943961,,0.000085423501868773,1.1681571179943961,,0.000085423501868773,1.168157117828389,,0.000085423501868773,0.5238620384394425,,0.000085423501868773,0.5238620384394425,,0.000085423501868773,0.5256106331326601,,0.000085423501868773,1.62,,0.000085423501868773,1.62,,0.000085423501868773,1.1686486509846756
0.000101048501868773,2.097522705991112,,0.000101048501868773,1.61881395377542,,0.000101048501868773,1.61881395377542,,0.000101048501868773,1.61881395377542,,0.000101048501868773,1.130177443114801,,0.000101048501868773,1.130177443114801,,0.000101048501868773,1.130177443114801,,0.000101048501868773,1.1301774417284494,,0.000101048501868773,0.4315149470691116,,0.000101048501868773,0.4315149470691116,,0.000101048501868773,0.43261946999786094,,0.000101048501868773,1.62,,0.000101048501868773,1.62,,0.000101048501868773,1.1306233971479376
0.000116673501868773,2.1172654350171425,,0.000116673501868773,1.6188134228273263,,0.000116673501868773,1.6188134228273263,,0.000116673501868773,1.6188134228273263,,0.000116673501868773,1.1105104691452872,,0.000116673501868773,1.1105104691452872,,0.000116673501868773,1.1105104691452872,,0.000116673501868773,1.1105104676707778,,0.000116673501868773,0.3837438847579761,,0.000116673501868773,0.3837438847579761,,0.000116673501868773,0.38412718274805624,,0.000116673501868773,1.62,,0.000116673501868773,1.62,,0.000116673501868773,1.110952961313139
0.000132298501868773,2.1178985322451336,,0.000132298501868773,1.6187953277726481,,0.000132298501868773,1.6187953277726481,,0.000132298501868773,1.6187953277726481,,0.000132298501868773,1.109919565400259,,0.000132298501868773,1.109919565400259,,0.000132298501868773,1.109919565400259,,0.000132298501868773,1.1099195652573899,,0.000132298501868773,0.38242864817000577,,0.000132298501868773,0.38242864817000577,,0.000132298501868773,0.38210732267952624,,0.000132298501868773,1.62,,0.000132298501868773,1.62,,0.000132298501868773,1.1104113730049983
0.000147923501868773,2.0993976681036575,,0.000147923501868773,1.6187565945276705,,0.000147923501868773,1.6187565945276705,,0.000147923501868773,1.6187565945276705,,0.000147923501868773,1.1284198986327272,,0.000147923501868773,1.1284198986327272,,0.000147923501868773,1.1284198986327272,,0.000147923501868773,1.1284199009023577,,0.000147923501868773,0.42757557126228257,,0.000147923501868773,0.42757557126228257,,0.000147923501868773,0.42653382067075374,,0.000147923501868773,1.62,,0.000147923501868773,1.62,,0.000147923501868773,1.1290012454923535
0.000163548501868773,2.062473820426267,,0.000163548501868773,1.6187024601814868,,0.000163548501868773,1.6187024601814868,,0.000163548501868773,1.6187024601814868,,0.000163548501868773,1.1653080061681342,,0.000163548501868773,1.1653080061681342,,0.000163548501868773,1.1653080061681342,,0.000163548501868773,1.1653080121298782,,0.000163548501868773,0.517494112810577,,0.000163548501868773,0.517494112810577,,0.000163548501868773,0.5157971224346478,,0.000163548501868773,1.62,,0.000163548501868773,1.62,,0.000163548501868773,1.166026470542789
0.00017917350186877302,2.0085459519720734,,0.00017917350186877302,1.6186312772481195,,0.00017917350186877302,1.6186312772481195,,0.00017917350186877302,1.6186312772481195,,0.00017917350186877302,1.2191588406306375,,0.00017917350186877302,1.2191588406306375,,0.00017917350186877302,1.2191588406306375,,0.00017917350186877302,1.2191588511269018,,0.00017917350186877302,0.648684066070915,,0.00017917350186877302,0.648684066070915,,0.00017917350186877302,0.6463747265685779,,0.00017917350186877302,1.62,,0.00017917350186877302,1.62,,0.00017917350186877302,1.2200457932412605
0.00019479850186877304,1.9396864804826726,,0.00019479850186877304,1.6185494884717733,,0.00019479850186877304,1.6185494884717733,,0.00019479850186877304,1.6185494884717733,,0.00019479850186877304,1.2879103566724153,,0.00019479850186877304,1.2879103566724153,,0.00019479850186877304,1.2879103566724153,,0.00019479850186877304,1.287910372670672,,0.00019479850186877304,0.8161488107142109,,0.00019479850186877304,0.8161488107142109,,0.00019479850186877304,0.8133355256878452,,0.00019479850186877304,1.62,,0.00019479850186877304,1.62,,0.00019479850186877304,1.2890017798056226
0.00021042350186877305,1.8585416368305665,,0.00021042350186877305,1.6184565502208423,,0.00021042350186877305,1.6184565502208423,,0.00021042350186877305,1.6184565502208423,,0.00021042350186877305,1.36891309621906,,0.00021042350186877305,1.36891309621906,,0.00021042350186877305,1.36891309621906,,0.00021042350186877305,1.3689131181718714,,0.00021042350186877305,1.0134075490980152,,0.00021042350186877305,1.0134075490980152,,0.00021042350186877305,1.0101812909984285,,0.00021042350186877305,1.62,,0.00021042350186877305,1.62,,0.00021042350186877305,1.3702258743863234
0.00022604850186877306,1.7682297718507527,,0.00022604850186877306,1.618359700430474,,0.00022604850186877306,1.618359700430474,,0.00022604850186877306,1.618359700430474,,0.00022604850186877306,1.4590614997309042,,0.00022604850186877306,1.4590614997309042,,0.00022604850186877306,1.4590614997309042,,0.00022604850186877306,1.4590615281697588,,0.00022604850186877306,1.2329252349211601,,0.00022604850186877306,1.2329252349211601,,0.00022604850186877306,1.2294247527116275,,0.00022604850186877306,1.62,,0.00022604850186877306,1.62,,0.00022604850186877306,1.460615409694015
0.00024167350186877308,1.6722215198669284,,0.00024167350186877308,1.6182590148543259,,0.00024167350186877308,1.6182590148543259,,0.00024167350186877308,1.6182590148543259,,0.00024167350186877308,1.5548839199460944,,0.00024167350186877308,1.5548839199460944,,0.00024167350186877308,1.5548839199460944,,0.00024167350186877308,1.5548839548410494,,0.00024167350186877308,1.4662201191044981,,0.00024167350186877308,1.4662201191044981,,0.00024167350186877308,1.4625674113805238,,0.00024167350186877308,1.62,,0.00024167350186877308,1.62,,0.00024167350186877308,1.5566779094188887
0.0002572985018687731,1.5742064241607838,,0.0002572985018687731,1.6181619888070915,,0.0002572985018687731,1.6181619888070915,,0.0002572985018687731,1.6181619888070915,,0.0002572985018687731,1.6527052046169888,,0.0002572985018687731,1.6527052046169888,,0.0002572985018687731,1.6527052046169888,,0.0002572985018687731,1.652705246006722,,0.0002572985018687731,1.7043729174835325,,0.0002572985018687731,1.7043729174835325,,0.0002572985018687731,1.7007187606096703,,0.0002572985018687731,1.62,,0.0002572985018687731,1.62,,0.0002572985018687731,1.654740726139175
0.0002729235018687731,1.4779511498928068,,0.0002729235018687731,1.6180687449102058,,0.0002729235018687731,1.6180687449102058,,0.0002729235018687731,1.6180687449102058,,0.0002729235018687731,1.7487589221510578,,0.0002729235018687731,1.7487589221510578,,0.0002729235018687731,1.7487589221510578,,0.0002729235018687731,1.7487589695032568,,0.0002729235018687731,1.938185108887322,,0.0002729235018687731,1.938185108887322,,0.0002729235018687731,1.9346615271887084,,0.0002729235018687731,1.62,,0.0002729235018687731,1.62,,0.0002729235018687731,1.7510162422450795
0.0002885485018687731,1.3871547332725365,,0.0002885485018687731,1.6179864526543444,,0.0002885485018687731,1.6179864526543444,,0.0002885485018687731,1.6179864526543444,,0.0002885485018687731,1.8393609519865486,,0.0002885485018687731,1.8393609519865486,,0.0002885485018687731,1.8393609519865486,,0.0002885485018687731,1.8393610048659623,,0.0002885485018687731,2.1587181879611683,,0.0002885485018687731,2.1587181879611683,,0.0002885485018687731,2.1554671011530413,,0.0002885485018687731,1.62,,0.0002885485018687731,1.62,,0.0002885485018687731,1.8418238952733028
0.00030417350186877313,1.305306429671473,,0.00030417350186877313,1.6179147080457983,,0.00030417350186877313,1.6179147080457983,,0.00030417350186877313,1.6179147080457983,,0.00030417350186877313,1.9210223736387597,,0.00030417350186877313,1.9210223736387597,,0.00030417350186877313,1.9210223736387597,,0.00030417350186877313,1.9210224310666189,,0.00030417350186877313,2.3574500680124673,,0.00030417350186877313,2.3574500680124673,,0.00030417350186877313,2.354591693498088,,0.00030417350186877313,1.62,,0.00030417350186877313,1.62,,0.00030417350186877313,1.9236545990356737
0.00031979850186877315,1.235551623495947,,0.00031979850186877315,1.6178598150201116,,0.00031979850186877315,1.6178598150201116,,0.00031979850186877315,1.6178598150201116,,0.00031979850186877315,1.9906120757067307,,0.00031979850186877315,1.9906120757067307,,0.00031979850186877315,1.9906120757067307,,0.00031979850186877315,1.9906121368656113,,0.00031979850186877315,2.5267910640610687,,0.00031979850186877315,2.5267910640610687,,0.00031979850186877315,2.5244382734977022,,0.00031979850186877315,1.62,,0.00031979850186877315,1.62,,0.00031979850186877315,1.9933831867065208
0.00033542350186877316,1.1805709528283383,,0.00033542350186877316,1.617820355750994,,0.00033542350186877316,1.617820355750994,,0.00033542350186877316,1.617820355750994,,0.00033542350186877316,2.0454487078878176,,0.00033542350186877316,2.0454487078878176,,0.00033542350186877316,2.0454487078878176,,0.00033542350186877316,2.045448771475633,,0.00033542350186877316,2.660185647100041,,0.00033542350186877316,2.660185647100041,,0.00033542350186877316,2.6584274355254123,,0.00033542350186877316,1.62,,0.00033542350186877316,1.62,,0.00033542350186877316,2.0483103302371997
0.0003510485018687732,1.142477294008888,,0.0003510485018687732,1.6178013546055168,,0.0003510485018687732,1.6178013546055168,,0.0003510485018687732,1.6178013546055168,,0.0003510485018687732,2.083431942676109,,0.0003510485018687732,2.083431942676109,,0.0003510485018687732,2.083431942676109,,0.0003510485018687732,2.083432007643963,,0.0003510485018687732,2.752555754361879,,0.0003510485018687732,2.752555754361879,,0.0003510485018687732,2.7514595903006516,,0.0003510485018687732,1.62,,0.0003510485018687732,1.62,,0.0003510485018687732,2.0863450587702372
0.0003666735018687732,1.1227345649828575,,0.0003666735018687732,1.6178000530716279,,0.0003666735018687732,1.6178000530716279,,0.0003666735018687732,1.6178000530716279,,0.0003666735018687732,2.1030951258200066,,0.0003666735018687732,2.1030951258200066,,0.0003666735018687732,2.1030951258200066,,0.0003666735018687732,2.1030951907140762,,0.0003666735018687732,2.800303037702718,,0.0003666735018687732,2.800303037702718,,0.0003666735018687732,2.7999125860465486,,0.0003666735018687732,1.62,,0.0003666735018687732,1.62,,0.0003666735018687732,2.106005705734075
0.0003822985018687732,1.122101467754867,,0.0003822985018687732,1.6178199707573229,,0.0003822985018687732,1.6178199707573229,,0.0003822985018687732,1.6178199707573229,,0.0003822985018687732,2.103689548977983,,0.0003822985018687732,2.103689548977983,,0.0003822985018687732,2.103689548977983,,0.0003822985018687732,2.1036896127046374,,0.0003822985018687732,2.801641599552975,,0.0003822985018687732,2.801641599552975,,0.0003822985018687732,2.801968958137503,,0.0003822985018687732,1.62,,0.0003822985018687732,1.62,,0.0003822985018687732,2.1065568960573953
0.0003979235018687732,1.1406023318963432,,0.0003979235018687732,1.617856891661594,,0.0003979235018687732,1.617856891661594,,0.0003979235018687732,1.617856891661594,,0.0003979235018687732,2.085185465241931,,0.0003979235018687732,2.085185465241931,,0.0003979235018687732,2.085185465241931,,0.0003979235018687732,2.0851855263894787,,0.0003979235018687732,2.756470575630995,,0.0003979235018687732,2.756470575630995,,0.0003979235018687732,2.7575073694426346,,0.0003979235018687732,1.62,,0.0003979235018687732,1.62,,0.0003979235018687732,2.0879571022398697
0.00041354850186877323,1.1775261795737335,,0.00041354850186877323,1.6179128286229403,,0.00041354850186877323,1.6179128286229403,,0.00041354850186877323,1.6179128286229403,,0.00041354850186877323,2.0483008371277176,,0.00041354850186877323,2.0483008371277176,,0.00041354850186877323,2.0483008371277176,,0.00041354850186877323,2.0483008947521717,,0.00041354850186877323,2.6665756937042446,,0.00041354850186877323,2.6665756937042446,,0.00041354850186877323,2.6682766411296965,,0.00041354850186877323,1.62,,0.00041354850186877323,1.62,,0.00041354850186877323,2.0509416168087746
0.00042917350186877324,1.231454048027928,,0.00042917350186877324,1.6179822191066835,,0.00042917350186877324,1.6179822191066835,,0.00042917350186877324,1.6179822191066835,,0.00042917350186877324,1.9944462919837245,,0.00042917350186877324,1.9944462919837245,,0.00042917350186877324,1.9944462919837245,,0.00042917350186877324,1.9944463449021306,,0.00042917350186877324,2.5353612934889727,,0.00042917350186877324,2.5353612934889727,,0.00042917350186877324,2.537667638959017,,0.00042917350186877324,1.62,,0.00042917350186877324,1.62,,0.00042917350186877324,1.9969122303331366
0.00044479850186877326,1.3003135195173283,,0.00044479850186877326,1.6180657907309188,,0.00044479850186877326,1.6180657907309188,,0.00044479850186877326,1.6180657907309188,,0.00044479850186877326,1.9256982158683014,,0.00044479850186877326,1.9256982158683014,,0.00044479850186877326,1.9256982158683014,,0.00044479850186877326,1.9256982634587785,,0.00044479850186877326,2.3679205664244534,,0.00044479850186877326,2.3679205664244534,,0.00044479850186877326,2.37073595195215,,0.00044479850186877326,1.62,,0.00044479850186877326,1.62,,0.00044479850186877326,1.927966130705373
