X--Trace 1::[transient: TIME],Y--Trace 1::[PR1: V(1)],,X--Trace 2::[transient: TIME],Y--Trace 2::[PR2: V(2)],,X--Trace 3::[transient: TIME],Y--Trace 3::[PR3: V(2)],,X--Trace 4::[transient: TIME],Y--Trace 4::[PR4: V(2)],,X--Trace 5::[transient: TIME],Y--Trace 5::[PR5: V(3)],,X--Trace 6::[transient: TIME],Y--Trace 6::[PR6: V(3)],,X--Trace 7::[transient: TIME],Y--Trace 7::[PR7: V(3)],,X--Trace 8::[transient: TIME],Y--Trace 8::[PR8: V(5)],,X--Trace 9::[transient: TIME],Y--Trace 9::[PR9: V(7)],,X--Trace 10::[transient: TIME],Y--Trace 10::[PR14: V(7)],,X--Trace 11::[transient: TIME],Y--Trace 11::[PR10: V(8)],,X--Trace 12::[transient: TIME],Y--Trace 12::[PR11: V(4)],,X--Trace 13::[transient: TIME],Y--Trace 13::[PR12: V(4)],,X--Trace 14::[transient: TIME],Y--Trace 14::[PR13: V(6)]
0,1.62,,0,1.6183075931279718,,0,1.6183075931279718,,0,1.6183075931279718,,0,1.6064053551665793,,0,1.6064053551665793,,0,1.6064053551665793,,0,1.6064053870293569,,0,1.596177336215334,,0,1.596177336215334,,0,1.5961773361339289,,0,1.62,,0,1.62,,0,1.6080875539438828
1e-7,1.6213823004037726,,1e-7,1.618489824092709,,1e-7,1.618489824092709,,1e-7,1.618489824092709,,1e-7,1.6053875197146767,,1e-7,1.6053875197146767,,1e-7,1.6053875197146767,,1e-7,1.6053875357909557,,1e-7,1.5929716584286722,,1e-7,1.5929716584286722,,1e-7,1.595233657068102,,1e-7,1.62,,1e-7,1.62,,1e-7,1.6064850074141037
1.7924696842988556e-7,1.622477730125265,,1.7924696842988556e-7,1.6185203875042788,,1.7924696842988556e-7,1.6185203875042788,,1.7924696842988556e-7,1.6185203875042788,,1.7924696842988556e-7,1.6043532202975612,,1.7924696842988556e-7,1.6043532202975612,,1.7924696842988556e-7,1.6043532202975612,,1.7924696842988556e-7,1.6043532426177036,,1.7924696842988556e-7,1.5913657910036745,,1.7924696842988556e-7,1.5913657910036745,,1.7924696842988556e-7,1.5942726300113124,,1.7924696842988556e-7,1.62,,1.7924696842988556e-7,1.62,,1.7924696842988556e-7,1.6056819580877126
3.377409052896567e-7,1.6246685811103285,,3.377409052896567e-7,1.6185361505028022,,3.377409052896567e-7,1.6185361505028022,,3.377409052896567e-7,1.6185361505028022,,3.377409052896567e-7,1.6021939041206197,,3.377409052896567e-7,1.6021939041206197,,3.377409052896567e-7,1.6021939041206197,,3.377409052896567e-7,1.6021939139970194,,3.377409052896567e-7,1.5861248709000138,,3.377409052896567e-7,1.5861248709000138,,3.377409052896567e-7,1.5915259558374681,,3.377409052896567e-7,1.62,,3.377409052896567e-7,1.62,,3.377409052896567e-7,1.6030617285125615
6.547287790091989e-7,1.6290502188312,,6.547287790091989e-7,1.6185324946997899,,6.547287790091989e-7,1.6185324946997899,,6.547287790091989e-7,1.6185324946997899,,6.547287790091989e-7,1.5978049830055152,,6.547287790091989e-7,1.5978049830055152,,6.547287790091989e-7,1.5978049830055152,,6.547287790091989e-7,1.5978050172014502,,6.547287790091989e-7,1.579149337189201,,6.547287790091989e-7,1.579149337189201,,6.547287790091989e-7,1.5844498605118593,,6.547287790091989e-7,1.62,,6.547287790091989e-7,1.62,,6.547287790091989e-7,1.599573511352219
0.0000012887045264482835,1.6378129939412156,,0.0000012887045264482835,1.6185474956698307,,0.0000012887045264482835,1.6185474956698307,,0.0000012887045264482835,1.6185474956698307,,0.0000012887045264482835,1.5890723082486231,,0.0000012887045264482835,1.5890723082486231,,0.0000012887045264482835,1.5890723082486231,,0.0000012887045264482835,1.5890723084692502,,0.0000012887045264482835,1.5591657969924646,,0.0000012887045264482835,1.5591657969924646,,0.0000012887045264482835,1.5670344583443507,,0.0000012887045264482835,1.62,,0.0000012887045264482835,1.62,,0.0000012887045264482835,1.5895823705697878
0.0000025566560213264525,1.6553345963400201,,0.0000025566560213264525,1.6185593298591003,,0.0000025566560213264525,1.6185593298591003,,0.0000025566560213264525,1.6185593298591003,,0.0000025566560213264525,1.5715747392192423,,0.0000025566560213264525,1.5715747392192423,,0.0000025566560213264525,1.5715747392192423,,0.0000025566560213264525,1.5715747783730603,,0.0000025566560213264525,1.5270557683578514,,0.0000025566560213264525,1.5270557683578514,,0.0000025566560213264525,1.5323144143041465,,0.0000025566560213264525,1.62,,0.0000025566560213264525,1.62,,0.0000025566560213264525,1.57352663551552
0.0000050925590110827905,1.6903464437034859,,0.0000050925590110827905,1.6185992065478867,,0.0000050925590110827905,1.6185992065478867,,0.0000050925590110827905,1.6185992065478867,,0.0000050925590110827905,1.536644047192505,,0.0000050925590110827905,1.536644047192505,,0.0000050925590110827905,1.536644047192505,,0.0000050925590110827905,1.5366440409954003,,0.0000050925590110827905,1.453832586655342,,0.0000050925590110827905,1.453832586655342,,0.0000050925590110827905,1.4618877545415645,,0.0000050925590110827905,1.62,,0.0000050925590110827905,1.62,,0.0000050925590110827905,1.5369158850369302
0.000009910774691619832,1.7566428338220257,,0.000009910774691619832,1.6186617612575298,,0.000009910774691619832,1.6186617612575298,,0.000009910774691619832,1.6186617612575298,,0.000009910774691619832,1.4704778911484777,,0.000009910774691619832,1.4704778911484777,,0.000009910774691619832,1.4704778911484777,,0.000009910774691619832,1.4704779045403837,,0.000009910774691619832,1.3229507517890509,,0.000009910774691619832,1.3229507517890509,,0.000009910774691619832,1.3294912166318391,,0.000009910774691619832,1.62,,0.000009910774691619832,1.62,,0.000009910774691619832,1.4714746058295674
0.000017648275738509233,1.861957403096856,,0.000017648275738509233,1.6187633175493743,,0.000017648275738509233,1.6187633175493743,,0.000017648275738509233,1.6187633175493743,,0.000017648275738509233,1.3653813548520541,,0.000017648275738509233,1.3653813548520541,,0.000017648275738509233,1.3653813548520541,,0.000017648275738509233,1.3653813617606994,,0.000017648275738509233,1.1122750794938243,,0.000017648275738509233,1.1122750794938243,,0.000017648275738509233,1.1187737594813725,,0.000017648275738509233,1.62,,0.000017648275738509233,1.62,,0.000017648275738509233,1.3661368913211722
0.000033123277832288034,2.064756182262424,,0.000033123277832288034,1.6189535341171308,,0.000033123277832288034,1.6189535341171308,,0.000033123277832288034,1.6189535341171308,,0.000033123277832288034,1.163016817456207,,0.000033123277832288034,1.163016817456207,,0.000033123277832288034,1.163016817456207,,0.000033123277832288034,1.1630168145206408,,0.000033123277832288034,0.7068123662013099,,0.000033123277832288034,0.7068123662013099,,0.000033123277832288034,0.7129224788192918,,0.000033123277832288034,1.62,,0.000033123277832288034,1.62,,0.000033123277832288034,1.163405720014333
0.000048748277832288034,2.252486300605711,,0.000048748277832288034,1.6191175584968445,,0.000048748277832288034,1.6191175584968445,,0.000048748277832288034,1.6191175584968445,,0.000048748277832288034,0.9756999126454509,,0.000048748277832288034,0.9756999126454509,,0.000048748277832288034,0.9756999126454509,,0.000048748277832288034,0.9756999007010893,,0.000048748277832288034,0.3315071347414461,,0.000048748277832288034,0.3315071347414461,,0.000048748277832288034,0.3369329814329311,,0.000048748277832288034,1.62,,0.000048748277832288034,1.62,,0.000048748277832288034,0.9757532739269842
0.00006437327783228803,2.4159103251191247,,0.00006437327783228803,1.6192543933494976,,0.00006437327783228803,1.6192543933494976,,0.00006437327783228803,1.6192543933494976,,0.00006437327783228803,0.8126623526062758,,0.00006437327783228803,0.8126623526062758,,0.00006437327783228803,0.8126623526062758,,0.00006437327783228803,0.8126623334930595,,0.00006437327783228803,0.004897442892286328,,0.00006437327783228803,0.004897442892286328,,0.00006437327783228803,0.009517235144456843,,0.00006437327783228803,1.62,,0.00006437327783228803,1.62,,0.00006437327783228803,0.8124485632072026
0.00006632640283228804,2.4343046092944998,,0.00006632640283228804,1.6192659031849743,,0.00006632640283228804,1.6192659031849743,,0.00006632640283228804,1.6192659031849743,,0.00006632640283228804,0.7943069747989809,,0.00006632640283228804,0.7943069747989809,,0.00006632640283228804,0.7943069747989809,,0.00006632640283228804,0.7943069547623781,,0.00006632640283228804,-0.03188211541823383,,0.00006632640283228804,-0.03188211541823383,,0.00006632640283228804,-0.02743249335103292,,0.00006632640283228804,1.62,,0.00006632640283228804,1.62,,0.00006632640283228804,0.794058801427396
0.00006681468408228804,2.438826965046741,,0.00006681468408228804,1.6192719993033997,,0.00006681468408228804,1.6192719993033997,,0.00006681468408228804,1.6192719993033997,,0.00006681468408228804,0.7898008392449343,,0.00006681468408228804,0.7898008392449343,,0.00006681468408228804,0.7898008392449343,,0.00006681468408228804,0.7898008139279046,,0.00006681468408228804,-0.04128582564593921,,0.00006681468408228804,-0.04128582564593921,,0.00006681468408228804,-0.03666796157264661,,0.00006681468408228804,1.62,,0.00006681468408228804,1.62,,0.00006681468408228804,0.7893570441687692
0.00006682994287135054,2.4389677928006295,,0.00006682994287135054,1.6192713917268988,,0.00006682994287135054,1.6192713917268988,,0.00006682994287135054,1.6192713917268988,,0.00006682994287135054,0.7896589225710602,,0.00006682994287135054,0.7896589225710602,,0.00006682994287135054,0.7896589225710602,,0.00006682994287135054,0.7896588970549019,,0.00006682994287135054,-0.04158441988332854,,0.00006682994287135054,-0.04158441988332854,,0.00006682994287135054,-0.03696206776720016,,0.00006682994287135054,1.62,,0.00006682994287135054,1.62,,0.00006682994287135054,0.7892077507398458
0.00006686046044947554,2.4392493579699153,,0.00006686046044947554,1.6192712820933124,,0.00006686046044947554,1.6192712820933124,,0.00006686046044947554,1.6192712820933124,,0.00006686046044947554,0.7893773906640438,,0.00006686046044947554,0.7893773906640438,,0.00006686046044947554,0.7893773906640438,,0.00006686046044947554,0.7893773654195099,,0.00006686046044947554,-0.04212735840215402,,0.00006686046044947554,-0.04212735840215402,,0.00006686046044947554,-0.0375478392036313,,0.00006686046044947554,1.62,,0.00006686046044947554,1.62,,0.00006686046044947554,0.7889362764544727
0.00006692149560572553,2.439812126809615,,0.00006692149560572553,1.619271563641127,,0.00006692149560572553,1.619271563641127,,0.00006692149560572553,1.619271563641127,,0.00006692149560572553,0.7888156902367696,,0.00006692149560572553,0.7888156902367696,,0.00006692149560572553,0.7888156902367696,,0.00006692149560572553,0.7888156760541906,,0.00006692149560572553,-0.04243093458930628,,0.00006692149560572553,-0.04243093458930628,,0.00006692149560572553,-0.038616519049425375,,0.00006692149560572553,1.62,,0.00006692149560572553,1.62,,0.00006692149560572553,0.788784283514204
0.00006693675439478804,2.439952743677098,,0.00006693675439478804,1.6192716861019183,,0.00006693675439478804,1.6192716861019183,,0.00006693675439478804,1.6192716861019183,,0.00006693675439478804,0.7886754446739616,,0.00006693675439478804,0.7886754446739616,,0.00006693675439478804,0.7886754446739616,,0.00006693675439478804,0.7886754367499259,,0.00006693675439478804,-0.042247588421889144,,0.00006693675439478804,-0.042247588421889144,,0.00006693675439478804,-0.03884619066589565,,0.00006693675439478804,1.62,,0.00006693675439478804,1.62,,0.00006693675439478804,0.7888758406987526
0.00006696727197291303,2.4402338869649403,,0.00006696727197291303,1.6192719071939226,,0.00006696727197291303,1.6192719071939226,,0.00006696727197291303,1.6192719071939226,,0.00006696727197291303,0.7883949964010825,,0.00006696727197291303,0.7883949964010825,,0.00006696727197291303,0.7883949964010825,,0.00006696727197291303,0.7883950117959747,,0.00006696727197291303,-0.0410802522611142,,0.00006696727197291303,-0.0410802522611142,,0.00006696727197291303,-0.03918346197851016,,0.00006696727197291303,1.62,,0.00006696727197291303,1.62,,0.00006696727197291303,0.7894590769427087
0.00006701189214007536,2.44064473326027,,0.00006701189214007536,1.6192722278939957,,0.00006701189214007536,1.6192722278939957,,0.00006701189214007536,1.6192722278939957,,0.00006701189214007536,0.7879851613288187,,0.00006701189214007536,0.7879851613288187,,0.00006701189214007536,0.7879851613288187,,0.00006701189214007536,0.7879852874686495,,0.00006701189214007536,-0.03369227860286519,,0.00006701189214007536,-0.03369227860286519,,0.00006701189214007536,-0.03887740043567927,,0.00006701189214007536,1.62,,0.00006701189214007536,1.62,,0.00006701189214007536,0.7931510129047694
0.00006706657989660284,2.4411479263494495,,0.00006706657989660284,1.6192726233372494,,0.00006706657989660284,1.6192726233372494,,0.00006706657989660284,1.6192726233372494,,0.00006706657989660284,0.7874832126431928,,0.00006706657989660284,0.7874832126431928,,0.00006706657989660284,0.7874832126431928,,0.00006706657989660284,0.787484138748183,,0.00006706657989660284,0.024591721334099273,,0.00006706657989660284,0.024591721334099273,,0.00006706657989660284,-0.03184756963909831,,0.00006706657989660284,1.62,,0.00006706657989660284,1.62,,0.00006706657989660284,0.8222781984148644
0.00006711906368976748,2.44163047564648,,0.00006711906368976748,1.6192730325593492,,0.00006711906368976748,1.6192730325593492,,0.00006711906368976748,1.6192730325593492,,0.00006711906368976748,0.787001917290628,,0.00006711906368976748,0.787001917290628,,0.00006711906368976748,0.787001917290628,,0.00006711906368976748,0.7870073131200642,,0.00006711906368976748,0.3548943088849351,,0.00006711906368976748,0.3548943088849351,,0.00006711906368976748,0.011883465472953495,,0.00006711906368976748,1.62,,0.00006711906368976748,1.62,,0.00006711906368976748,0.987346717867057
0.00006717746309847406,2.4421669945147437,,0.00006717746309847406,1.6192737153588295,,0.00006717746309847406,1.6192737153588295,,0.00006717746309847406,1.6192737153588295,,0.00006717746309847406,0.7864672489083795,,0.00006717746309847406,0.7864672489083795,,0.00006717746309847406,0.7864672489083795,,0.00006717746309847406,0.786506537329051,,0.00006717746309847406,2.8657103672625817,,0.00006717746309847406,2.8657103672625817,,0.00006717746309847406,0.3590267144745548,,0.00006717746309847406,1.62,,0.00006717746309847406,1.62,,0.00006717746309847406,2.2421270939321483
0.00006721267580437671,2.4424902817890475,,0.00006721267580437671,1.6192738307752068,,0.00006721267580437671,1.6192738307752068,,0.00006721267580437671,1.6192738307752068,,0.00006721267580437671,0.7861444849884851,,0.00006721267580437671,0.7861444849884851,,0.00006721267580437671,0.7861444849884851,,0.00006721267580437671,0.786184667834829,,0.00006721267580437671,2.931353502877588,,0.00006721267580437671,2.931353502877588,,0.00006721267580437671,0.7065612756870124,,0.00006721267580437671,1.62,,0.00006721267580437671,1.62,,0.00006721267580437671,2.2749320979748333
0.00006724837756729678,2.4428178946711387,,0.00006724837756729678,1.6192738976552021,,0.00006724837756729678,1.6192738976552021,,0.00006724837756729678,1.6192738976552021,,0.00006724837756729678,0.7858173025671502,,0.00006724837756729678,0.7858173025671502,,0.00006724837756729678,0.7858173025671502,,0.00006724837756729678,0.7858580911418654,,0.00006724837756729678,2.975591546034426,,0.00006724837756729678,2.975591546034426,,0.00006724837756729678,1.0180286340965814,,0.00006724837756729678,1.62,,0.00006724837756729678,1.62,,0.00006724837756729678,2.2970399021417447
0.00006729028713906322,2.4432022614349362,,0.00006729028713906322,1.6192741931825518,,0.00006729028713906322,1.6192741931825518,,0.00006729028713906322,1.6192741931825518,,0.00006729028713906322,0.7854338752988839,,0.00006729028713906322,0.7854338752988839,,0.00006729028713906322,0.7854338752988839,,0.00006729028713906322,0.7854754565178659,,0.00006729028713906322,3.0335700170264057,,0.00006729028713906322,3.0335700170264057,,0.00006729028713906322,1.338663522797835,,0.00006729028713906322,1.62,,0.00006729028713906322,1.62,,0.00006729028713906322,2.3260144587523714
0.0000673741062825961,2.4439703098821637,,0.0000673741062825961,1.6192748042566734,,0.0000673741062825961,1.6192748042566734,,0.0000673741062825961,1.6192748042566734,,0.0000673741062825961,0.7846677463673271,,0.0000673741062825961,0.7846677463673271,,0.0000673741062825961,0.7846677463673271,,0.0000673741062825961,0.7847104979610962,,0.0000673741062825961,3.118777861355863,,0.0000673741062825961,3.118777861355863,,0.0000673741062825961,1.858208999205991,,0.0000673741062825961,1.62,,0.0000673741062825961,1.62,,0.0000673741062825961,2.3685967068879314
0.00006754174456966185,2.4455036634741028,,0.00006754174456966185,1.6192759840736661,,0.00006754174456966185,1.6192759840736661,,0.00006754174456966185,1.6192759840736661,,0.00006754174456966185,0.7831381490849388,,0.00006754174456966185,0.7831381490849388,,0.00006754174456966185,0.7831381490849388,,0.00006754174456966185,0.7831824512063914,,0.00006754174456966185,3.230633067810812,,0.00006754174456966185,3.230633067810812,,0.00006754174456966185,2.540379488269319,,0.00006754174456966185,1.62,,0.00006754174456966185,1.62,,0.00006754174456966185,2.424495596088439
0.00006775037360113955,2.4474068337818857,,0.00006775037360113955,1.61927744871976,,0.00006775037360113955,1.61927744871976,,0.00006775037360113955,1.61927744871976,,0.00006775037360113955,0.7812396498634123,,0.00006775037360113955,0.7812396498634123,,0.00006775037360113955,0.7812396498634123,,0.00006775037360113955,0.7812850420956848,,0.00006775037360113955,3.30762753649091,,0.00006775037360113955,3.30762753649091,,0.00006775037360113955,3.009904128020306,,0.00006775037360113955,1.62,,0.00006775037360113955,1.62,,0.00006775037360113955,2.4629726428157985
0.00006799026267118961,2.4495881367003554,,0.00006799026267118961,1.6192791236821642,,0.00006799026267118961,1.6192791236821642,,0.00006799026267118961,1.6192791236821642,,0.00006799026267118961,0.7790637045746454,,0.00006799026267118961,0.7790637045746454,,0.00006799026267118961,0.7790637045746454,,0.00006799026267118961,0.7791096749340162,,0.00006799026267118961,3.3461224006519887,,0.00006799026267118961,3.3461224006519887,,0.00006799026267118961,3.244653407473762,,0.00006799026267118961,1.62,,0.00006799026267118961,1.62,,0.00006799026267118961,2.482209368657469
0.00006839241226881134,2.453227946697538,,0.00006839241226881134,1.619281914651077,,0.00006839241226881134,1.619281914651077,,0.00006839241226881134,1.619281914651077,,0.00006839241226881134,0.7754328540063224,,0.00006839241226881134,0.7754328540063224,,0.00006839241226881134,0.7754328540063224,,0.00006839241226881134,0.7754791437934704,,0.00006839241226881134,3.3625344133628303,,0.00006839241226881134,3.3625344133628303,,0.00006839241226881134,3.34471756037687,,0.00006839241226881134,1.62,,0.00006839241226881134,1.62,,0.00006839241226881134,2.490409459619838
0.00006898380130461585,2.458541859402145,,0.00006898380130461585,1.6192859746586956,,0.00006898380130461585,1.6192859746586956,,0.00006898380130461585,1.6192859746586956,,0.00006898380130461585,0.7701320547863559,,0.00006898380130461585,0.7701320547863559,,0.00006898380130461585,0.7701320547863559,,0.00006898380130461585,0.7701785355940415,,0.00006898380130461585,3.3660898352173794,,0.00006898380130461585,3.3660898352173794,,0.00006898380130461585,3.3663614318977357,,0.00006898380130461585,1.62,,0.00006898380130461585,1.62,,0.00006898380130461585,2.4921836331385117
0.00006978315118902731,2.4656507423854377,,0.00006978315118902731,1.6192913762598093,,0.00006978315118902731,1.6192913762598093,,0.00006978315118902731,1.6192913762598093,,0.00006978315118902731,0.7630407743628927,,0.00006978315118902731,0.7630407743628927,,0.00006978315118902731,0.7630407743628927,,0.00006978315118902731,0.7630874458323862,,0.00006978315118902731,3.3660376722422565,,0.00006978315118902731,3.3660376722422565,,0.00006978315118902731,3.36598927288643,,0.00006978315118902731,1.62,,0.00006978315118902731,1.62,,0.00006978315118902731,2.492154020912478
