X--Trace 1::[transient: TIME],Y--Trace 1::[PR1: V(1)],,X--Trace 2::[transient: TIME],Y--Trace 2::[PR2: V(2)],,X--Trace 3::[transient: TIME],Y--Trace 3::[PR3: V(2)],,X--Trace 4::[transient: TIME],Y--Trace 4::[PR4: V(2)],,X--Trace 5::[transient: TIME],Y--Trace 5::[PR5: V(3)],,X--Trace 6::[transient: TIME],Y--Trace 6::[PR6: V(3)],,X--Trace 7::[transient: TIME],Y--Trace 7::[PR7: V(3)],,X--Trace 8::[transient: TIME],Y--Trace 8::[PR8: V(5)],,X--Trace 9::[transient: TIME],Y--Trace 9::[PR9: V(7)],,X--Trace 10::[transient: TIME],Y--Trace 10::[PR14: V(7)],,X--Trace 11::[transient: TIME],Y--Trace 11::[PR10: V(8)],,X--Trace 12::[transient: TIME],Y--Trace 12::[PR11: V(4)],,X--Trace 13::[transient: TIME],Y--Trace 13::[PR12: V(4)],,X--Trace 14::[transient: TIME],Y--Trace 14::[PR13: V(6)]
0,1.62,,0,1.6183075931279718,,0,1.6183075931279718,,0,1.6183075931279718,,0,1.6064053551665793,,0,1.6064053551665793,,0,1.6064053551665793,,0,1.6064053870293569,,0,1.596177336215334,,0,1.596177336215334,,0,1.5961773361339289,,0,1.62,,0,1.62,,0,1.6080875539438828
1e-7,1.6206283183653514,,1e-7,1.6183519318822361,,1e-7,1.6183519318822361,,1e-7,1.6183519318822361,,1e-7,1.6061577048506828,,1e-7,1.6061577048506828,,1e-7,1.6061577048506828,,1e-7,1.606157732872435,,1e-7,1.5953973603216296,,1e-7,1.5953973603216296,,1e-7,1.595947728864664,,1e-7,1.62,,1e-7,1.62,,1e-7,1.607697637132138
2e-7,1.6212566357385019,,2e-7,1.6183572249666427,,2e-7,1.6183572249666427,,2e-7,1.6183572249666427,,2e-7,1.6058514868905405,,2e-7,1.6058514868905405,,2e-7,1.6058514868905405,,2e-7,1.6058515163902158,,2e-7,1.594894451742874,,2e-7,1.594894451742874,,2e-7,1.5956376678687358,,2e-7,1.62,,2e-7,1.62,,2e-7,1.60744615547786
4e-7,1.6225132635394095,,4e-7,1.6183593224735897,,4e-7,1.6183593224735897,,4e-7,1.6183593224735897,,4e-7,1.6052263220983907,,4e-7,1.6052263220983907,,4e-7,1.6052263220983907,,4e-7,1.605226349807619,,4e-7,1.5935114140287439,,4e-7,1.5935114140287439,,4e-7,1.5947929607363933,,4e-7,1.62,,4e-7,1.62,,4e-7,1.6067546697872659
8e-7,1.6250264635783653,,8e-7,1.6183594913237398,,8e-7,1.6183594913237398,,8e-7,1.6183594913237398,,8e-7,1.6039699848627689,,8e-7,1.6039699848627689,,8e-7,1.6039699848627689,,8e-7,1.603970015730007,,8e-7,1.591232764305758,,8e-7,1.591232764305758,,8e-7,1.592590666762847,,8e-7,1.62,,8e-7,1.62,,8e-7,1.605615286461788
0.0000016,1.6300524191627288,,0.0000016,1.6183629290889265,,0.0000016,1.6183629290889265,,0.0000016,1.6183629290889265,,0.0000016,1.6014621979508241,,0.0000016,1.6014621979508241,,0.0000016,1.6014621979508241,,0.0000016,1.601462224593738,,0.0000016,1.5859040624382188,,0.0000016,1.5859040624382188,,0.0000016,1.5875604920285005,,0.0000016,1.62,,0.0000016,1.62,,0.0000016,1.6029510137954253
0.0000032,1.6401007746814766,,0.0000032,1.6183670459143094,,0.0000032,1.6183670459143094,,0.0000032,1.6183670459143094,,0.0000032,1.596444324764544,,0.0000032,1.596444324764544,,0.0000032,1.596444324764544,,0.0000032,1.5964443558336558,,0.0000032,1.5761962548569604,,0.0000032,1.5761962548569604,,0.0000032,1.5775417043603337,,0.0000032,1.62,,0.0000032,1.62,,0.0000032,1.5980970281118092
0.0000064,1.6601690500666972,,0.0000064,1.6183777906675505,,0.0000064,1.6183777906675505,,0.0000064,1.6183777906675505,,0.0000064,1.5864268060537627,,0.0000064,1.5864268060537627,,0.0000064,1.5864268060537627,,0.0000064,1.5864268315589503,,0.0000064,1.5557486570531731,,0.0000064,1.5557486570531731,,0.0000064,1.557417991171952,,0.0000064,1.62,,0.0000064,1.62,,0.0000064,1.587873332397862
0.000012479999999999999,1.698093113473714,,0.000012479999999999999,1.6183959221337854,,0.000012479999999999999,1.6183959221337854,,0.000012479999999999999,1.6183959221337854,,0.000012479999999999999,1.5674938140258665,,0.000012479999999999999,1.5674938140258665,,0.000012479999999999999,1.5674938140258665,,0.000012479999999999999,1.567493841171482,,0.000012479999999999999,1.5180038710083932,,0.000012479999999999999,1.5180038710083932,,0.000012479999999999999,1.5194911505700706,,0.000012479999999999999,1.62,,0.000012479999999999999,1.62,,0.000012479999999999999,1.5690009092805532
0.000024639999999999998,1.7723556843138335,,0.000024639999999999998,1.6184313785604292,,0.000024639999999999998,1.6184313785604292,,0.000024639999999999998,1.6184313785604292,,0.000024639999999999998,1.5304228337932124,,0.000024639999999999998,1.5304228337932124,,0.000024639999999999998,1.5304228337932124,,0.000024639999999999998,1.5304228589371187,,0.000024639999999999998,1.4437128151090812,,0.000024639999999999998,1.4437128151090812,,0.000024639999999999998,1.4451575089747866,,0.000024639999999999998,1.62,,0.000024639999999999998,1.62,,0.000024639999999999998,1.5318554189563414
0.000040264999999999995,1.8623345880280056,,0.000040264999999999995,1.6184725601655117,,0.000040264999999999995,1.6184725601655117,,0.000040264999999999995,1.6184725601655117,,0.000040264999999999995,1.4855107423148952,,0.000040264999999999995,1.4855107423148952,,0.000040264999999999995,1.4855107423148952,,0.000040264999999999995,1.485510765279084,,0.000040264999999999995,1.3537261868922819,,0.000040264999999999995,1.3537261868922819,,0.000040264999999999995,1.3550569599569808,,0.000040264999999999995,1.62,,0.000040264999999999995,1.62,,0.000040264999999999995,1.4868621458876201
0.000055889999999999995,1.9430007094270643,,0.000055889999999999995,1.6185067353106222,,0.000055889999999999995,1.6185067353106222,,0.000055889999999999995,1.6185067353106222,,0.000055889999999999995,1.4452512922950267,,0.000055889999999999995,1.4452512922950267,,0.000055889999999999995,1.4452512922950267,,0.000055889999999999995,1.4452513134049059,,0.000055889999999999995,1.273069051795506,,0.000055889999999999995,1.273069051795506,,0.000055889999999999995,1.2742185309404281,,0.000055889999999999995,1.62,,0.000055889999999999995,1.62,,0.000055889999999999995,1.4465336132829383
0.000071515,2.0112540947037254,,0.000071515,1.618534233486326,,0.000071515,1.618534233486326,,0.000071515,1.618534233486326,,0.000071515,1.4111940538746066,,0.000071515,1.4111940538746066,,0.000071515,1.4111940538746066,,0.000071515,1.4111940735235227,,0.000071515,1.2048456162549932,,0.000071515,1.2048456162549932,,0.000071515,1.205795466090102,,0.000071515,1.62,,0.000071515,1.62,,0.000071515,1.412421923078908
0.00008714,2.0644718045387465,,0.00008714,1.6185520341752049,,0.00008714,1.6185520341752049,,0.00008714,1.6185520341752049,,0.00008714,1.3846448807499003,,0.00008714,1.3846448807499003,,0.00008714,1.3846448807499003,,0.00008714,1.384644899428308,,0.00008714,1.1516748108505257,,0.00008714,1.1516748108505257,,0.00008714,1.1523643141272153,,0.00008714,1.62,,0.00008714,1.62,,0.00008714,1.385836538747654
0.000102765,2.1006087121880035,,0.000102765,1.6185614101507897,,0.000102765,1.6185614101507897,,0.000102765,1.6185614101507897,,0.000102765,1.3666269768062524,,0.000102765,1.3666269768062524,,0.000102765,1.3666269768062524,,0.000102765,1.3666269950002177,,0.000102765,1.1156027385161675,,0.000102765,1.1156027385161675,,0.000102765,1.1160280886591123,,0.000102765,1.62,,0.000102765,1.62,,0.000102765,1.3678005118220682
0.00011839,2.1182760965563463,,0.00011839,1.6185600511622928,,0.00011839,1.6185600511622928,,0.00011839,1.6185600511622928,,0.00011839,1.3578298338720065,,0.00011839,1.3578298338720065,,0.00011839,1.3578298338720065,,0.00011839,1.3578298521285608,,0.00011839,1.0980129151240792,,0.00011839,1.0980129151240792,,0.00011839,1.098136507213494,,0.00011839,1.62,,0.00011839,1.62,,0.00011839,1.359005599098919
0.000134015,2.116795009970483,,0.000134015,1.618549952502197,,0.000134015,1.618549952502197,,0.000134015,1.618549952502197,,0.000134015,1.3585944346032257,,0.000134015,1.3585944346032257,,0.000134015,1.3585944346032257,,0.000134015,1.358594453424036,,0.000134015,1.099583950657239,,0.000134015,1.099583950657239,,0.000134015,1.0994209497050014,,0.000134015,1.62,,0.000134015,1.62,,0.000134015,1.3597911064046235
0.00014963999999999998,2.0962223697573052,,0.00014963999999999998,1.6185295660321237,,0.00014963999999999998,1.6185295660321237,,0.00014963999999999998,1.6185295660321237,,0.00014963999999999998,1.3688884902772709,,0.00014963999999999998,1.3688884902772709,,0.00014963999999999998,1.3688884902772709,,0.00014963999999999998,1.3688885101858395,,0.00014963999999999998,1.1202528853529288,,0.00014963999999999998,1.1202528853529288,,0.00014963999999999998,1.119790903420082,,0.00014963999999999998,1.62,,0.00014963999999999998,1.62,,0.00014963999999999998,1.3701255534539867
0.000165265,2.0573487709429363,,0.000165265,1.6185016046102254,,0.000165265,1.6185016046102254,,0.000165265,1.6185016046102254,,0.000165265,1.3883192990198623,,0.000165265,1.3883192990198623,,0.000165265,1.3883192990198623,,0.000165265,1.3883193204538569,,0.000165265,1.1592279460952222,,0.000165265,1.1592279460952222,,0.000165265,1.1585022032936745,,0.000165265,1.62,,0.000165265,1.62,,0.000165265,1.3896130552844617
0.00018089,2.0016681041292466,,0.00018089,1.6184652201408276,,0.00018089,1.6184652201408276,,0.00018089,1.6184652201408276,,0.00018089,1.4161372605829627,,0.00018089,1.4161372605829627,,0.00018089,1.4161372605829627,,0.00018089,1.416137283965931,,0.00018089,1.215008870928462,,0.00018089,1.215008870928462,,0.00018089,1.2140309042187092,,0.00018089,1.62,,0.00018089,1.62,,0.00018089,1.4175034811910192
0.00019651500000000003,1.9313201461158085,,0.00019651500000000003,1.6184237267521167,,0.00019651500000000003,1.6184237267521167,,0.00019651500000000003,1.6184237267521167,,0.00019651500000000003,1.4512762189307644,,0.00019651500000000003,1.4512762189307644,,0.00019651500000000003,1.4512762189307644,,0.00019651500000000003,1.4512762445664276,,0.00019651500000000003,1.2854544456749573,,0.00019651500000000003,1.2854544456749573,,0.00019651500000000003,1.2842771451903026,,0.00019651500000000003,1.62,,0.00019651500000000003,1.62,,0.00019651500000000003,1.4527262263197447
0.00021214000000000004,1.8490083294774893,,0.00021214000000000004,1.618376809836054,,0.00021214000000000004,1.618376809836054,,0.00021214000000000004,1.618376809836054,,0.00021214000000000004,1.492382938627996,,0.00021214000000000004,1.492382938627996,,0.00021214000000000004,1.492382938627996,,0.00021214000000000004,1.4923829667788222,,0.00021214000000000004,1.367855114992985,,0.00021214000000000004,1.367855114992985,,0.00021214000000000004,1.3665093982470635,,0.00021214000000000004,1.62,,0.00021214000000000004,1.62,,0.00021214000000000004,1.4939265137841335
0.00022776500000000005,1.757895851166701,,0.00022776500000000005,1.6183281748771632,,0.00022776500000000005,1.6183281748771632,,0.00022776500000000005,1.6183281748771632,,0.00022776500000000005,1.537880564016978,,0.00022776500000000005,1.537880564016978,,0.00022776500000000005,1.537880564016978,,0.00022776500000000005,1.53788059480311,,0.00022776500000000005,1.4590465878230843,,0.00022776500000000005,1.4590465878230843,,0.00022776500000000005,1.4575975734681144,,0.00022776500000000005,1.62,,0.00022776500000000005,1.62,,0.00022776500000000005,1.5395222007137777
0.00024339000000000007,1.6614841126284605,,0.00024339000000000007,1.6182777950518727,,0.00024339000000000007,1.6182777950518727,,0.00024339000000000007,1.6182777950518727,,0.00024339000000000007,1.5860178019047044,,0.00024339000000000007,1.5860178019047044,,0.00024339000000000007,1.5860178019047044,,0.00024339000000000007,1.5860178353909986,,0.00024339000000000007,1.5555221451836414,,0.00024339000000000007,1.5555221451836414,,0.00024339000000000007,1.5540129804346352,,0.00024339000000000007,1.62,,0.00024339000000000007,1.62,,0.00024339000000000007,1.5877599286680066
0.0002590150000000001,1.5634781629064667,,0.0002590150000000001,1.6182294956458771,,0.0002590150000000001,1.6182294956458771,,0.0002590150000000001,1.6182294956458771,,0.0002590150000000001,1.6349475978479682,,0.0002590150000000001,1.6349475978479682,,0.0002590150000000001,1.6349475978479682,,0.0002590150000000001,1.634947633949243,,0.0002590150000000001,1.6535765214927276,,0.0002590150000000001,1.6535765214927276,,0.0002590150000000001,1.6520769272864932,,0.0002590150000000001,1.62,,0.0002590150000000001,1.62,,0.0002590150000000001,1.6367870676620295
0.0002746400000000001,1.467644315686166,,0.0002746400000000001,1.6181832501558442,,0.0002746400000000001,1.6181832501558442,,0.0002746400000000001,1.6181832501558442,,0.0002746400000000001,1.6827867820876183,,0.0002746400000000001,1.6827867820876183,,0.0002746400000000001,1.6827867820876183,,0.0002746400000000001,1.6827868206647263,,0.0002746400000000001,1.7494393398927863,,0.0002746400000000001,1.7494393398927863,,0.0002746400000000001,1.747995983801254,,0.0002746400000000001,1.62,,0.0002746400000000001,1.62,,0.0002746400000000001,1.684718430294811
0.0002902650000000001,1.377665411971994,,0.0002902650000000001,1.618142711832769,,0.0002902650000000001,1.618142711832769,,0.0002902650000000001,1.618142711832769,,0.0002902650000000001,1.727699734483542,,0.0002902650000000001,1.727699734483542,,0.0002902650000000001,1.727699734483542,,0.0002902650000000001,1.7276997752554384,,0.0002902650000000001,1.839428806890102,,0.0002902650000000001,1.839428806890102,,0.0002902650000000001,1.838107400360441,,0.0002902650000000001,1.62,,0.0002902650000000001,1.62,,0.0002902650000000001,1.729713122474756
0.0003058900000000001,1.2969992905729355,,0.0003058900000000001,1.6181075690132374,,0.0003058900000000001,1.6181075690132374,,0.0003058900000000001,1.6181075690132374,,0.0003058900000000001,1.7679576699625827,,0.0003058900000000001,1.7679576699625827,,0.0003058900000000001,1.7679576699625827,,0.0003058900000000001,1.7679577126108301,,0.0003058900000000001,1.920084546437078,,0.0003058900000000001,1.920084546437078,,0.0003058900000000001,1.9189262996351435,,0.0003058900000000001,1.62,,0.0003058900000000001,1.62,,0.0003058900000000001,1.7700409568963835
0.00032151500000000014,1.2287459052962744,,0.00032151500000000014,1.6180810352450923,,0.00032151500000000014,1.6180810352450923,,0.00032151500000000014,1.6180810352450923,,0.00032151500000000014,1.802016291972657,,0.00032151500000000014,1.802016291972657,,0.00032151500000000014,1.802016291972657,,0.00032151500000000014,1.8020163360595842,,0.00032151500000000014,1.9883090976929214,,0.00032151500000000014,1.9883090976929214,,0.00032151500000000014,1.9873674599900888,,0.00032151500000000014,1.62,,0.00032151500000000014,1.62,,0.00032151500000000014,1.8041532053706968
0.00033714000000000015,1.175528195461253,,0.00033714000000000015,1.6180622736515426,,0.00033714000000000015,1.6180622736515426,,0.00033714000000000015,1.6180622736515426,,0.00033714000000000015,1.8285639607313122,,0.00033714000000000015,1.8285639607313122,,0.00033714000000000015,1.8285639607313122,,0.00033714000000000015,1.8285640058112387,,0.00033714000000000015,2.0414785612055955,,0.00033714000000000015,2.0414785612055955,,0.00033714000000000015,2.040781374348222,,0.00033714000000000015,1.62,,0.00033714000000000015,1.62,,0.00033714000000000015,1.83073791833957
0.00035276500000000016,1.1393912878119965,,0.00035276500000000016,1.6180538553449246,,0.00035276500000000016,1.6180538553449246,,0.00035276500000000016,1.6180538553449246,,0.00035276500000000016,1.8465832381769283,,0.00035276500000000016,1.8465832381769283,,0.00035276500000000016,1.8465832381769283,,0.00035276500000000016,1.846583283718605,,0.00035276500000000016,2.0775516987689913,,0.00035276500000000016,2.0775516987689913,,0.00035276500000000016,2.07713354272702,,0.00035276500000000016,1.62,,0.00035276500000000016,1.62,,0.00035276500000000016,1.8487744782998992
0.0003683900000000002,1.121723903443654,,0.0003683900000000002,1.6180542601362586,,0.0003683900000000002,1.6180542601362586,,0.0003683900000000002,1.6180542601362586,,0.0003683900000000002,1.8553788868262495,,0.0003683900000000002,1.8553788868262495,,0.0003683900000000002,1.8553788868262495,,0.0003683900000000002,1.8553789323281988,,0.0003683900000000002,2.095140227929145,,0.0003683900000000002,2.095140227929145,,0.0003683900000000002,2.0950099082615528,,0.0003683900000000002,1.62,,0.0003683900000000002,1.62,,0.0003683900000000002,1.8575687434837302
0.0003840150000000002,1.1232049900295173,,0.0003840150000000002,1.6180653097886657,,0.0003840150000000002,1.6180653097886657,,0.0003840150000000002,1.6180653097886657,,0.0003840150000000002,1.8546156496015191,,0.0003840150000000002,1.8546156496015191,,0.0003840150000000002,1.8546156496015191,,0.0003840150000000002,1.8546156945161847,,0.0003840150000000002,2.0935702127773776,,0.0003840150000000002,2.0935702127773776,,0.0003840150000000002,2.093739510080185,,0.0003840150000000002,1.62,,0.0003840150000000002,1.62,,0.0003840150000000002,1.85678374679507
0.0003996400000000002,1.1437776302426954,,0.0003996400000000002,1.6180847487074557,,0.0003996400000000002,1.6180847487074557,,0.0003996400000000002,1.6180847487074557,,0.0003996400000000002,1.844320109630978,,0.0003996400000000002,1.844320109630978,,0.0003996400000000002,1.844320109630978,,0.0003996400000000002,1.8443201534810492,,0.0003996400000000002,2.0729000262052555,,0.0003996400000000002,2.0729000262052555,,0.0003996400000000002,2.07335612360054,,0.0003996400000000002,1.62,,0.0003996400000000002,1.62,,0.0003996400000000002,1.846448673378565
0.0004152650000000002,1.1826512290570645,,0.0004152650000000002,1.6181136545063297,,0.0004152650000000002,1.6181136545063297,,0.0004152650000000002,1.6181136545063297,,0.0004152650000000002,1.8248906544919008,,0.0004152650000000002,1.8248906544919008,,0.0004152650000000002,1.8248906544919008,,0.0004152650000000002,1.8248906967932477,,0.0004152650000000002,2.033925945985708,,0.0004152650000000002,2.033925945985708,,0.0004152650000000002,2.034657193475441,,0.0004152650000000002,1.62,,0.0004152650000000002,1.62,,0.0004152650000000002,1.8269616622409044
0.00043089000000000023,1.2383318958707545,,0.00043089000000000023,1.6181490980093067,,0.00043089000000000023,1.6181490980093067,,0.00043089000000000023,1.6181490980093067,,0.00043089000000000023,1.7970712185296722,,0.00043089000000000023,1.7970712185296722,,0.00043089000000000023,1.7970712185296722,,0.00043089000000000023,1.7970712589054503,,0.00043089000000000023,1.9781438069405237,,0.00043089000000000023,1.9781438069405237,,0.00043089000000000023,1.979116632521066,,0.00043089000000000023,1.62,,0.00043089000000000023,1.62,,0.00043089000000000023,1.7990706287949887
0.00044651500000000025,1.308679853884193,,0.00044651500000000025,1.6181915292203726,,0.00044651500000000025,1.6181915292203726,,0.00044651500000000025,1.6181915292203726,,0.00044651500000000025,1.761933603973393,,0.00044651500000000025,1.761933603973393,,0.00044651500000000025,1.761933603973393,,0.00044651500000000025,1.7619336420729648,,0.00044651500000000025,1.9076991772716996,,0.00044651500000000025,1.9076991772716996,,0.00044651500000000025,1.908881284351276,,0.00044651500000000025,1.62,,0.00044651500000000025,1.62,,0.00044651500000000025,1.7638483566405447
0.00046214000000000026,1.390991670522512,,0.00046214000000000026,1.6182375116944638,,0.00046214000000000026,1.6182375116944638,,0.00046214000000000026,1.6182375116944638,,0.00046214000000000026,1.7208254196833825,,0.00046214000000000026,1.7208254196833825,,0.00046214000000000026,1.7208254196833825,,0.00046214000000000026,1.7208254552913835,,0.00046214000000000026,1.8252973272531463,,0.00046214000000000026,1.8252973272531463,,0.00046214000000000026,1.826638558403498,,0.00046214000000000026,1.62,,0.00046214000000000026,1.62,,0.00046214000000000026,1.7226474783889976
0.0004777650000000003,1.4821041488333004,,0.0004777650000000003,1.6182870779812035,,0.0004777650000000003,1.6182870779812035,,0.0004777650000000003,1.6182870779812035,,0.0004777650000000003,1.6753291283638498,,0.0004777650000000003,1.6753291283638498,,0.0004777650000000003,1.6753291283638498,,0.0004777650000000003,1.6753291613128698,,0.0004777650000000003,1.7341067679622253,,0.0004777650000000003,1.7341067679622253,,0.0004777650000000003,1.7355599733455165,,0.0004777650000000003,1.62,,0.0004777650000000003,1.62,,0.0004777650000000003,1.6770522486673831
