X--Trace 1::[transient: TIME],Y--Trace 1::[PR1: V(1)],,X--Trace 2::[transient: TIME],Y--Trace 2::[PR2: V(2)],,X--Trace 3::[transient: TIME],Y--Trace 3::[PR3: V(2)],,X--Trace 4::[transient: TIME],Y--Trace 4::[PR4: V(2)],,X--Trace 5::[transient: TIME],Y--Trace 5::[PR5: V(3)],,X--Trace 6::[transient: TIME],Y--Trace 6::[PR6: V(3)],,X--Trace 7::[transient: TIME],Y--Trace 7::[PR7: V(3)],,X--Trace 8::[transient: TIME],Y--Trace 8::[PR8: V(5)],,X--Trace 9::[transient: TIME],Y--Trace 9::[PR9: V(7)],,X--Trace 10::[transient: TIME],Y--Trace 10::[PR14: V(7)],,X--Trace 11::[transient: TIME],Y--Trace 11::[PR10: V(8)],,X--Trace 12::[transient: TIME],Y--Trace 12::[PR11: V(4)],,X--Trace 13::[transient: TIME],Y--Trace 13::[PR12: V(4)],,X--Trace 14::[transient: TIME],Y--Trace 14::[PR13: V(6)]
0,1.62,,0,1.6183075931279718,,0,1.6183075931279718,,0,1.6183075931279718,,0,1.6064053551665793,,0,1.6064053551665793,,0,1.6064053551665793,,0,1.6064053870293569,,0,1.596177336215334,,0,1.596177336215334,,0,1.5961773361339289,,0,1.62,,0,1.62,,0,1.6080875539438828
1e-7,1.621005309384562,,1e-7,1.6184401247386897,,1e-7,1.6184401247386897,,1e-7,1.6184401247386897,,1e-7,1.6056651112015605,,1e-7,1.6056651112015605,,1e-7,1.6056651112015605,,1e-7,1.6056651315832482,,1e-7,1.5938459341887774,,1e-7,1.5938459341887774,,1e-7,1.595491024086086,,1e-7,1.62,,1e-7,1.62,,1e-7,1.6069220655586096
2e-7,1.622010617181603,,2e-7,1.6184636391721674,,2e-7,1.6184636391721674,,2e-7,1.6184636391721674,,2e-7,1.6047068356865184,,2e-7,1.6047068356865184,,2e-7,1.6047068356865184,,2e-7,1.6047068598193799,,2e-7,1.5922073751283363,,2e-7,1.5922073751283363,,2e-7,1.5945243920463243,,2e-7,1.62,,2e-7,1.62,,2e-7,1.606102716575193
4e-7,1.6240212216630552,,4e-7,1.618474311064821,,4e-7,1.618474311064821,,4e-7,1.618474311064821,,4e-7,1.6027175839271042,,4e-7,1.6027175839271042,,4e-7,1.6027175839271042,,4e-7,1.602717602998802,,4e-7,1.5878537331725031,,4e-7,1.5878537331725031,,4e-7,1.591878623440402,,4e-7,1.62,,4e-7,1.62,,4e-7,1.6039259893542437
8e-7,1.6280423417253846,,8e-7,1.618472547726228,,8e-7,1.618472547726228,,8e-7,1.618472547726228,,8e-7,1.5986929672847723,,8e-7,1.5986929672847723,,8e-7,1.5986929672847723,,8e-7,1.5986929951972462,,8e-7,1.5804596366676347,,8e-7,1.5804596366676347,,8e-7,1.5848538896661557,,8e-7,1.62,,8e-7,1.62,,8e-7,1.600228777440838
0.0000016,1.6360838706603662,,0.0000016,1.6184853046739225,,0.0000016,1.6184853046739225,,0.0000016,1.6184853046739225,,0.0000016,1.59067706108536,,0.0000016,1.59067706108536,,0.0000016,1.59067706108536,,0.0000016,1.5906770771995284,,0.0000016,1.5635532545925341,,0.0000016,1.5635532545925341,,0.0000016,1.5687870531909467,,0.0000016,1.62,,0.0000016,1.62,,0.0000016,1.5917758050150272
0.0000032,1.6521612394903626,,0.0000032,1.6184969321669083,,0.0000032,1.6184969321669083,,0.0000032,1.6184969321669083,,0.0000032,1.5746233596244077,,0.0000032,1.5746233596244077,,0.0000032,1.5746233596244077,,0.0000032,1.5746233879124347,,0.0000032,1.5323477726555115,,0.0000032,1.5323477726555115,,0.0000032,1.536721588697552,,0.0000032,1.62,,0.0000032,1.62,,0.0000032,1.5761728388410012
0.0000064,1.6842704801067154,,0.0000064,1.618532738923846,,0.0000064,1.618532738923846,,0.0000064,1.618532738923846,,0.0000064,1.5425873350721562,,0.0000064,1.5425873350721562,,0.0000064,1.5425873350721562,,0.0000064,1.5425873476980232,,0.0000064,1.4671143104547493,,0.0000064,1.4671143104547493,,0.0000064,1.4723797117060364,,0.0000064,1.62,,0.0000064,1.62,,0.0000064,1.5435563982669493
0.000012479999999999999,1.7449489815579426,,0.000012479999999999999,1.6185900455257927,,0.000012479999999999999,1.6185900455257927,,0.000012479999999999999,1.6185900455257927,,0.000012479999999999999,1.4820293349526281,,0.000012479999999999999,1.4820293349526281,,0.000012479999999999999,1.4820293349526281,,0.000012479999999999999,1.482029351702982,,0.000012479999999999999,1.346302775804682,,0.000012479999999999999,1.346302775804682,,0.000012479999999999999,1.351061603045648,,0.000012479999999999999,1.62,,0.000012479999999999999,1.62,,0.000012479999999999999,1.483150555469357
0.000024639999999999998,1.8637690949021337,,0.000024639999999999998,1.6187034302984753,,0.000024639999999999998,1.6187034302984753,,0.000024639999999999998,1.6187034302984753,,0.000024639999999999998,1.363458756030942,,0.000024639999999999998,1.363458756030942,,0.000024639999999999998,1.363458756030942,,0.000024639999999999998,1.3634587664202564,,0.000024639999999999998,1.1086878065702432,,0.000024639999999999998,1.1086878065702432,,0.000024639999999999998,1.1133078789037971,,0.000024639999999999998,1.62,,0.000024639999999999998,1.62,,0.000024639999999999998,1.3643431904300745
0.000040264999999999995,2.007735340844809,,0.000040264999999999995,1.6188351637098541,,0.000040264999999999995,1.6188351637098541,,0.000040264999999999995,1.6188351637098541,,0.000040264999999999995,1.2198058220215313,,0.000040264999999999995,1.2198058220215313,,0.000040264999999999995,1.2198058220215313,,0.000040264999999999995,1.2198058254225848,,0.000040264999999999995,0.820861139408149,,0.000040264999999999995,0.820861139408149,,0.000040264999999999995,0.8251179565945042,,0.000040264999999999995,1.62,,0.000040264999999999995,1.62,,0.000040264999999999995,1.2204299884187246
0.000055889999999999995,2.136801135083303,,0.000055889999999999995,1.6189444798717534,,0.000055889999999999995,1.6189444798717534,,0.000055889999999999995,1.6189444798717534,,0.000055889999999999995,1.0910301275995304,,0.000055889999999999995,1.0910301275995304,,0.000055889999999999995,1.0910301275995304,,0.000055889999999999995,1.0910301250766434,,0.000055889999999999995,0.5628681295103973,,0.000055889999999999995,0.5628681295103973,,0.000055889999999999995,0.5665447518905135,,0.000055889999999999995,1.62,,0.000055889999999999995,1.62,,0.000055889999999999995,1.091433595106252
0.000071515,2.2460065515259604,,0.000071515,1.6190324416565711,,0.000071515,1.6190324416565711,,0.000071515,1.6190324416565711,,0.000071515,0.9820908432394457,,0.000071515,0.9820908432394457,,0.000071515,0.9820908432394457,,0.000071515,0.9820908360356753,,0.000071515,0.34464046390681347,,0.000071515,0.34464046390681347,,0.000071515,0.34767899314364004,,0.000071515,1.62,,0.000071515,1.62,,0.000071515,0.982319850623339
0.00008714,2.3311548872619943,,0.00008714,1.6190893955093952,,0.00008714,1.6190893955093952,,0.00008714,1.6190893955093952,,0.00008714,0.897161894215653,,0.00008714,0.897161894215653,,0.00008714,0.897161894215653,,0.00008714,0.8971618839143016,,0.00008714,0.17455129338025335,,0.00008714,0.17455129338025335,,0.00008714,0.176756926593738,,0.00008714,1.62,,0.00008714,1.62,,0.00008714,0.8972753239977738
0.000102765,2.388973939500805,,0.000102765,1.6191193911175028,,0.000102765,1.6191193911175028,,0.000102765,1.6191193911175028,,0.000102765,0.8395195253066801,,0.000102765,0.8395195253066801,,0.000102765,0.8395195253066801,,0.000102765,0.8395195134478441,,0.000102765,0.059149970965206175,,0.000102765,0.059149970965206175,,0.000102765,0.06051095028629529,,0.000102765,1.62,,0.000102765,1.62,,0.000102765,0.8395746924977492
0.00011839,2.417241754490154,,0.00011839,1.6191150719259366,,0.00011839,1.6191150719259366,,0.00011839,1.6191150719259366,,0.00011839,0.8113664888797942,,0.00011839,0.8113664888797942,,0.00011839,0.8113664888797942,,0.00011839,0.8113656954744412,,0.00011839,-0.05507951026880542,,0.00011839,-0.05507951026880542,,0.00011839,-0.05295904847624687,,0.00011839,1.62,,0.00011839,1.62,,0.00011839,0.7824744256761823
0.00013083259639873186,2.417852124328683,,0.00013083259639873186,1.6190921390806503,,0.00013083259639873186,1.6190921390806503,,0.00013083259639873186,1.6190921390806503,,0.00013083259639873186,0.8108103009306632,,0.00013083259639873186,0.8108103009306632,,0.00013083259639873186,0.8108103009306632,,0.00013083259639873186,0.810809511618288,,0.00013083259639873186,-0.05588855398225065,,0.00013083259639873186,-0.05588855398225065,,0.00013083259639873186,-0.057821664353362695,,0.00013083259639873186,1.62,,0.00013083259639873186,1.62,,0.00013083259639873186,0.7820698280304005
0.00014219995264352382,2.401385866635122,,0.00014219995264352382,1.6190515599490485,,0.00014219995264352382,1.6190515599490485,,0.00014219995264352382,1.6190515599490485,,0.00014219995264352382,0.8272858577092445,,0.00014219995264352382,0.8272858577092445,,0.00014219995264352382,0.8272858577092445,,0.00014219995264352382,0.8272846180109574,,0.00014219995264352382,-0.05631661188078772,,0.00014219995264352382,-0.05631661188078772,,0.00014219995264352382,-0.05452263286074558,,0.00014219995264352382,1.62,,0.00014219995264352382,1.62,,0.00014219995264352382,0.7818641394806599
0.00015245418294133211,2.372860514204551,,0.00015245418294133211,1.6190038604607746,,0.00015245418294133211,1.6190038604607746,,0.00015245418294133211,1.6190038604607746,,0.00015245418294133211,0.8557948027109165,,0.00015245418294133211,0.8557948027109165,,0.00015245418294133211,0.8557948027109165,,0.00015245418294133211,0.855792771842927,,0.00015245418294133211,-0.05793419949660537,,0.00015245418294133211,-0.05793419949660537,,0.00015245418294133211,-0.05778865417619644,,0.00015245418294133211,1.62,,0.00015245418294133211,1.62,,0.00015245418294133211,0.7810699968289343
0.00016434958345756397,2.324171935628339,,0.00016434958345756397,1.6189333727843627,,0.00016434958345756397,1.6189333727843627,,0.00016434958345756397,1.6189333727843627,,0.00016434958345756397,0.9044294199674985,,0.00016434958345756397,0.9044294199674985,,0.00016434958345756397,0.9044294199674985,,0.00016434958345756397,0.9044260585396474,,0.00016434958345756397,-0.05927592271843255,,0.00016434958345756397,-0.05927592271843255,,0.00016434958345756397,-0.0592973372118762,,0.00016434958345756397,1.62,,0.00016434958345756397,1.62,,0.00016434958345756397,0.7804237749787563
0.00017761550966837247,2.2514116182594455,,0.00017761550966837247,1.6188381951301134,,0.00017761550966837247,1.6188381951301134,,0.00017761550966837247,1.6188381951301134,,0.00017761550966837247,0.9770882245164064,,0.00017761550966837247,0.9770882245164064,,0.00017761550966837247,0.9770882245164064,,0.00017761550966837247,0.9770828862672861,,0.00017761550966837247,-0.06046523414514669,,0.00017761550966837247,-0.06046523414514669,,0.00017761550966837247,-0.06043569890406987,,0.00017761550966837247,1.62,,0.00017761550966837247,1.62,,0.00017761550966837247,0.7798657267089785
0.00019324050966837246,2.1434425288971695,,0.00019324050966837246,1.618708054561026,,0.00019324050966837246,1.618708054561026,,0.00019324050966837246,1.618708054561026,,0.00019324050966837246,1.0848877418449174,,0.00019324050966837246,1.0848877418449174,,0.00019324050966837246,1.0848877418449174,,0.00019324050966837246,1.0848794791842709,,0.00019324050966837246,-0.061601278875754346,,0.00019324050966837246,-0.061601278875754346,,0.00019324050966837246,-0.061595237607911794,,0.00019324050966837246,1.62,,0.00019324050966837246,1.62,,0.00019324050966837246,0.7793518595788368
0.00020886550966837247,2.015357836699327,,0.00020886550966837247,1.618561634978258,,0.00020886550966837247,1.618561634978258,,0.00020886550966837247,1.618561634978258,,0.00020886550966837247,1.2127516551050799,,0.00020886550966837247,1.2127516551050799,,0.00020886550966837247,1.2127516551050799,,0.00020886550966837247,1.2127399297195007,,0.00020886550966837247,-0.06250421155728775,,0.00020886550966837247,-0.06250421155728775,,0.00020886550966837247,-0.062483014406188316,,0.00020886550966837247,1.62,,0.00020886550966837247,1.62,,0.00020886550966837247,0.7789645171384315
0.0002244905096683725,1.8720797645563587,,0.0002244905096683725,1.6184062883673245,,0.0002244905096683725,1.6184062883673245,,0.0002244905096683725,1.6184062883673245,,0.0002244905096683725,1.3557696722704182,,0.0002244905096683725,1.3557696722704182,,0.0002244905096683725,1.3557696722704182,,0.0002244905096683725,1.355754077387508,,0.0002244905096683725,-0.06324580114405531,,0.0002244905096683725,-0.06324580114405531,,0.0002244905096683725,-0.06324366045105259,,0.0002244905096683725,1.62,,0.0002244905096683725,1.62,,0.0002244905096683725,0.7786653789909469
0.0002401155096683725,1.71911440842945,,0.0002401155096683725,1.6182462690313697,,0.0002401155096683725,1.6182462690313697,,0.0002401155096683725,1.6182462690313697,,0.0002401155096683725,1.5084422561212274,,0.0002401155096683725,1.5084422561212274,,0.0002401155096683725,1.5084422561212274,,0.0002401155096683725,1.5084225330486822,,0.0002401155096683725,-0.06385055565447016,,0.0002401155096683725,-0.06385055565447016,,0.0002401155096683725,-0.06383456640099806,,0.0002401155096683725,1.62,,0.0002401155096683725,1.62,,0.0002401155096683725,0.7784394489308594
0.0002557405096683725,1.5623401411705984,,0.0002557405096683725,1.6180894324958037,,0.0002557405096683725,1.6180894324958037,,0.0002557405096683725,1.6180894324958037,,0.0002557405096683725,1.6649056931529398,,0.0002557405096683725,1.6649056931529398,,0.0002557405096683725,1.6649056931529398,,0.0002557405096683725,1.6648817409007097,,0.0002557405096683725,-0.06435821473020742,,0.0002557405096683725,-0.06435821473020742,,0.0002557405096683725,-0.06435813990434153,,0.0002557405096683725,1.62,,0.0002557405096683725,1.62,,0.0002557405096683725,0.7782639367547599
0.00027136550966837253,1.4077817099505396,,0.00027136550966837253,1.617940109292553,,0.00027136550966837253,1.617940109292553,,0.00027136550966837253,1.617940109292553,,0.00027136550966837253,1.8191437841452203,,0.00027136550966837253,1.8191437841452203,,0.00027136550966837253,1.8191437841452203,,0.00027136550966837253,1.8191156640577466,,0.00027136550966837253,-0.06477018304195166,,0.00027136550966837253,-0.06477018304195166,,0.00027136550966837253,-0.06475798982587996,,0.00027136550966837253,1.62,,0.00027136550966837253,1.62,,0.00027136550966837253,0.7781351339631501
0.00028699050966837254,1.261378708603693,,0.00028699050966837254,1.617805725047281,,0.00028699050966837254,1.617805725047281,,0.00028699050966837254,1.617805725047281,,0.00028699050966837254,1.965232616325918,,0.00028699050966837254,1.965232616325918,,0.00028699050966837254,1.965232616325918,,0.00028699050966837254,1.9652005492667635,,0.00028699050966837254,-0.06511194624961651,,0.00028699050966837254,-0.06511194624961651,,0.00028699050966837254,-0.06511323982082001,,0.00028699050966837254,1.62,,0.00028699050966837254,1.62,,0.00028699050966837254,0.7780373436980327
0.00030261550966837256,1.128757322368069,,0.00030261550966837256,1.6176897661986827,,0.00030261550966837256,1.6176897661986827,,0.00030261550966837256,1.6176897661986827,,0.00030261550966837256,2.0975547181940732,,0.00030261550966837256,2.0975547181940732,,0.00030261550966837256,2.0975547181940732,,0.00030261550966837256,2.0975190766288576,,0.00030261550966837256,-0.06538285970665737,,0.00030261550966837256,-0.06538285970665737,,0.00030261550966837256,-0.06537357852093752,,0.00030261550966837256,1.62,,0.00030261550966837256,1.62,,0.00030261550966837256,0.7779680808653021
0.00031824050966837257,1.015014116741773,,0.00031824050966837257,1.6175983575802184,,0.00031824050966837257,1.6175983575802184,,0.00031824050966837257,1.6175983575802184,,0.00031824050966837257,2.2110283589126447,,0.00031824050966837257,2.2110283589126447,,0.00031824050966837257,2.2110283589126447,,0.00031824050966837257,2.21098965223583,,0.00031824050966837257,-0.06559826423858743,,0.00031824050966837257,-0.06559826423858743,,0.00031824050966837257,-0.06560058062972658,,0.00031824050966837257,1.62,,0.00031824050966837257,1.62,,0.00031824050966837257,0.7779171393584035
0.0003338655096683726,0.9245201793290988,,0.0003338655096683726,1.6175333526039566,,0.0003338655096683726,1.6175333526039566,,0.0003338655096683726,1.6175333526039566,,0.0003338655096683726,2.3012894875038494,,0.0003338655096683726,2.3012894875038494,,0.0003338655096683726,2.3012894875038494,,0.0003338655096683726,2.3012483429308097,,0.0003338655096683726,-0.06575427478471164,,0.0003338655096683726,-0.06575427478471164,,0.0003338655096683726,-0.06574745213412442,,0.0003338655096683726,1.62,,0.0003338655096683726,1.62,,0.0003338655096683726,0.7778842798607664
0.0003494905096683726,0.8607531413952303,,0.0003494905096683726,1.6174988995874202,,0.0003494905096683726,1.6174988995874202,,0.0003494905096683726,1.6174988995874202,,0.0003494905096683726,2.364872715972848,,0.0003494905096683726,2.364872715972848,,0.0003494905096683726,2.364872715972848,,0.0003494905096683726,2.3648298540877777,,0.0003494905096683726,-0.06586188296513015,,0.0003494905096683726,-0.06586188296513015,,0.0003494905096683726,-0.0658650961037856,,0.0003494905096683726,1.62,,0.0003494905096683726,1.62,,0.0003494905096683726,0.7778622775275222
0.0003651155096683726,0.8261635344469994,,0.0003651155096683726,1.617494681443375,,0.0003651155096683726,1.617494681443375,,0.0003651155096683726,1.617494681443375,,0.0003651155096683726,2.399331290452128,,0.0003651155096683726,2.399331290452128,,0.0003651155096683726,2.399331290452128,,0.0003651155096683726,2.39928749793835,,0.0003651155096683726,-0.06591583325247813,,0.0003651155096683726,-0.06591583325247813,,0.0003651155096683726,-0.06591120540011582,,0.0003651155096683726,1.62,,0.0003651155096683726,1.62,,0.0003651155096683726,0.7778525360765965
0.00038074050966837263,0.8220806176813517,,0.00038074050966837263,1.6175224923268616,,0.00038074050966837263,1.6175224923268616,,0.00038074050966837263,1.6175224923268616,,0.00038074050966837263,2.403344247490679,,0.00038074050966837263,2.403344247490679,,0.00038074050966837263,2.403344247490679,,0.00038074050966837263,2.403300346573976,,0.00038074050966837263,-0.0659239169207071,,0.00038074050966837263,-0.0659239169207071,,0.00038074050966837263,-0.06592802860354723,,0.00038074050966837263,1.62,,0.00038074050966837263,1.62,,0.00038074050966837263,0.7778505016840163
0.00039636550966837264,0.8486612952998648,,0.00039636550966837264,1.617579640429309,,0.00039636550966837264,1.617579640429309,,0.00039636550966837264,1.617579640429309,,0.00039636550966837264,2.3767541214365053,,0.00039636550966837264,2.3767541214365053,,0.00039636550966837264,2.3767541214365053,,0.00039636550966837264,2.376710938675206,,0.00039636550966837264,-0.06587996985873394,,0.00039636550966837264,-0.06587996985873394,,0.00039636550966837264,-0.06587741119233557,,0.00039636550966837264,1.62,,0.00039636550966837264,1.62,,0.00039636550966837264,0.777859176173722
0.00041199050966837265,0.9048840867682747,,0.00041199050966837265,1.61766554370236,,0.00041199050966837265,1.61766554370236,,0.00041199050966837265,1.61766554370236,,0.00041199050966837265,2.3205859802991884,,0.00041199050966837265,2.3205859802991884,,0.00041199050966837265,2.3205859802991884,,0.00041199050966837265,2.320544314520953,,0.00041199050966837265,-0.06578904167960933,,0.00041199050966837265,-0.06578904167960933,,0.00041199050966837265,-0.06579415477925599,,0.00041199050966837265,1.62,,0.00041199050966837265,1.62,,0.00041199050966837265,0.7778765482649878
0.00042761550966837267,0.9885883817405561,,0.00042761550966837267,1.6177752957007194,,0.00042761550966837267,1.6177752957007194,,0.00042761550966837267,1.6177752957007194,,0.00042761550966837267,2.2369951199233356,,0.00042761550966837267,2.2369951199233356,,0.00042761550966837267,2.2369951199233356,,0.00042761550966837267,2.2369557118897223,,0.00042761550966837267,-0.06564395695081282,,0.00042761550966837267,-0.06564395695081282,,0.00042761550966837267,-0.0656434671810752,,0.00042761550966837267,1.62,,0.00042761550966837267,1.62,,0.00042761550966837267,0.7779072809614149
