X--Trace 1::[transient: TIME],Y--Trace 1::[PR1: V(1)],,X--Trace 2::[transient: TIME],Y--Trace 2::[PR2: V(2)],,X--Trace 3::[transient: TIME],Y--Trace 3::[PR3: V(2)],,X--Trace 4::[transient: TIME],Y--Trace 4::[PR4: V(2)],,X--Trace 5::[transient: TIME],Y--Trace 5::[PR5: V(3)],,X--Trace 6::[transient: TIME],Y--Trace 6::[PR6: V(3)],,X--Trace 7::[transient: TIME],Y--Trace 7::[PR7: V(3)],,X--Trace 8::[transient: TIME],Y--Trace 8::[PR8: V(5)],,X--Trace 9::[transient: TIME],Y--Trace 9::[PR9: V(7)],,X--Trace 10::[transient: TIME],Y--Trace 10::[PR14: V(7)],,X--Trace 11::[transient: TIME],Y--Trace 11::[PR10: V(8)],,X--Trace 12::[transient: TIME],Y--Trace 12::[PR11: V(4)],,X--Trace 13::[transient: TIME],Y--Trace 13::[PR12: V(4)],,X--Trace 14::[transient: TIME],Y--Trace 14::[PR13: V(6)]
0,1.62,,0,1.6183075931279718,,0,1.6183075931279718,,0,1.6183075931279718,,0,1.6064053551665793,,0,1.6064053551665793,,0,1.6064053551665793,,0,1.606405378768636,,0,1.5961773196608033,,0,1.5961773196608033,,0,1.5961773195793982,,0,1.62,,0,1.62,,0,1.608087545666599
1e-7,1.6206283183653514,,1e-7,1.6183904253846706,,1e-7,1.6183904253846706,,1e-7,1.6183904253846706,,1e-7,1.6059427026884416,,1e-7,1.6059427026884416,,1e-7,1.6059427026884416,,1e-7,1.6059427209752002,,1e-7,1.594720199253454,,1e-7,1.594720199253454,,1e-7,1.5957483762743268,,1e-7,1.62,,1e-7,1.62,,1e-7,1.6073591183548752
2e-7,1.6212566357385019,,2e-7,1.618405121905594,,2e-7,1.618405121905594,,2e-7,1.618405121905594,,2e-7,1.6053437804915385,,2e-7,1.6053437804915385,,2e-7,1.6053437804915385,,2e-7,1.6053438005149099,,2e-7,1.59369609445933,,2e-7,1.59369609445933,,2e-7,1.5951442308824075,,2e-7,1.62,,2e-7,1.62,,2e-7,1.6068470225506062
4e-7,1.6225132635394095,,4e-7,1.6184117918385033,,4e-7,1.6184117918385033,,4e-7,1.6184117918385033,,4e-7,1.604100498141904,,4e-7,1.604100498141904,,4e-7,1.604100498141904,,4e-7,1.604100515822218,,4e-7,1.590975077257639,,4e-7,1.590975077257639,,4e-7,1.5934906276411747,,4e-7,1.62,,4e-7,1.62,,4e-7,1.6054865725460221
8e-7,1.6250264635783653,,8e-7,1.6184106897518808,,8e-7,1.6184106897518808,,8e-7,1.6184106897518808,,8e-7,1.601585112740444,,8e-7,1.601585112740444,,8e-7,1.601585112740444,,8e-7,1.6015851345135717,,8e-7,1.5863537502621963,,8e-7,1.5863537502621963,,8e-7,1.589100166906662,,8e-7,1.62,,8e-7,1.62,,8e-7,1.603175806763646
0.0000016,1.6300524191627288,,0.0000016,1.618418662844192,,0.0000016,1.618418662844192,,0.0000016,1.618418662844192,,0.0000016,1.5965751713658207,,0.0000016,1.5965751713658207,,0.0000016,1.5965751713658207,,0.0000016,1.5965751876769607,,0.0000016,1.5757872843538472,,0.0000016,1.5757872843538472,,0.0000016,1.5790583977280748,,0.0000016,1.62,,0.0000016,1.62,,0.0000016,1.5978927104370464
0.0000032,1.6401007746814766,,0.0000032,1.6184259300273063,,0.0000032,1.6184259300273063,,0.0000032,1.6184259300273063,,0.0000032,1.5865416079527128,,0.0000032,1.5865416079527128,,0.0000032,1.5865416079527128,,0.0000032,1.5865416298996744,,0.0000032,1.5562838317740546,,0.0000032,1.5562838317740546,,0.0000032,1.5590174786258038,,0.0000032,1.62,,0.0000032,1.62,,0.0000032,1.5881408433993003
0.0000064,1.6601690500666972,,0.0000064,1.6184483092503945,,0.0000064,1.6184483092503945,,0.0000064,1.6184483092503945,,0.0000064,1.566519092607567,,0.0000064,1.566519092607567,,0.0000064,1.566519092607567,,0.0000064,1.5665191073037714,,0.0000064,1.5155129473127542,,0.0000064,1.5155129473127542,,0.0000064,1.518803810465328,,0.0000064,1.62,,0.0000064,1.62,,0.0000064,1.5677555827415193
0.000012479999999999999,1.698093113473714,,0.000012479999999999999,1.6184841258766098,,0.000012479999999999999,1.6184841258766098,,0.000012479999999999999,1.6184841258766098,,0.000012479999999999999,1.5286703425328527,,0.000012479999999999999,1.5286703425328527,,0.000012479999999999999,1.5286703425328527,,0.000012479999999999999,1.5286703591384132,,0.000012479999999999999,1.4400057239422048,,0.000012479999999999999,1.4400057239422048,,0.000012479999999999999,1.4429799912647023,,0.000012479999999999999,1.62,,0.000012479999999999999,1.62,,0.000012479999999999999,1.5300019238891387
0.000024639999999999998,1.7723556843138335,,0.000024639999999999998,1.6185549913595367,,0.000024639999999999998,1.6185549913595367,,0.000024639999999999998,1.6185549913595367,,0.000024639999999999998,1.4545637307067982,,0.000024639999999999998,1.4545637307067982,,0.000024639999999999998,1.4545637307067982,,0.000024639999999999998,1.4545637443674386,,0.000024639999999999998,1.2914963707700557,,0.000024639999999999998,1.2914963707700557,,0.000024639999999999998,1.2943839157537242,,0.000024639999999999998,1.62,,0.000024639999999999998,1.62,,0.000024639999999999998,1.455747322039093
0.000040264999999999995,1.8623345880280056,,0.000040264999999999995,1.6186373247416477,,0.000040264999999999995,1.6186373247416477,,0.000040264999999999995,1.6186373247416477,,0.000040264999999999995,1.3647806469510662,,0.000040264999999999995,1.3647806469510662,,0.000040264999999999995,1.3647806469510662,,0.000040264999999999995,1.3647806573763983,,0.000040264999999999995,1.1116047058536966,,0.000040264999999999995,1.1116047058536966,,0.000040264999999999995,1.1142652165800764,,0.000040264999999999995,1.62,,0.000040264999999999995,1.62,,0.000040264999999999995,1.3658015718120744
0.000055889999999999995,1.9430007094270643,,0.000055889999999999995,1.6187056473428347,,0.000055889999999999995,1.6187056473428347,,0.000055889999999999995,1.6187056473428347,,0.000055889999999999995,1.2842958379373728,,0.000055889999999999995,1.2842958379373728,,0.000055889999999999995,1.2842958379373728,,0.000055889999999999995,1.284295845620141,,0.000055889999999999995,0.9503590766899901,,0.000055889999999999995,0.9503590766899901,,0.000055889999999999995,0.952656965572317,,0.000055889999999999995,1.62,,0.000055889999999999995,1.62,,0.000055889999999999995,1.285178827002923
0.000071515,2.0112540947037254,,0.000071515,1.6187606234583465,,0.000071515,1.6187606234583465,,0.000071515,1.6187606234583465,,0.000071515,1.2162087852121495,,0.000071515,1.2162087852121495,,0.000071515,1.2162087852121495,,0.000071515,1.2162087907278412,,0.000071515,0.8139667871061856,,0.000071515,0.8139667871061856,,0.000071515,0.8158658678767212,,0.000071515,1.62,,0.000071515,1.62,,0.000071515,1.2169827374103521
0.00008714,2.0644718045387465,,0.00008714,1.6187962196163614,,0.00008714,1.6187962196163614,,0.00008714,1.6187962196163614,,0.00008714,1.1631281920721228,,0.00008714,1.1631281920721228,,0.00008714,1.1631281920721228,,0.00008714,1.1631281961537503,,0.00008714,0.7076610566327053,,0.00008714,0.7076610566327053,,0.00008714,0.709039577301318,,0.00008714,1.62,,0.00008714,1.62,,0.00008714,1.163829908822158
0.000102765,2.1006087121880035,,0.000102765,1.6188149668714287,,0.000102765,1.6188149668714287,,0.000102765,1.6188149668714287,,0.000102765,1.1271017115039434,,0.000102765,1.1271017115039434,,0.000102765,1.1271017115039434,,0.000102765,1.1271017148645117,,0.000102765,0.6355352304572698,,0.000102765,0.6355352304572698,,0.000102765,0.6363858425482406,,0.000102765,1.62,,0.000102765,1.62,,0.000102765,1.1277670143016807
0.00011839,2.1182760965563463,,0.00011839,1.6188122674313294,,0.00011839,1.6188122674313294,,0.00011839,1.6188122674313294,,0.00011839,1.1095060638463532,,0.00011839,1.1095060638463532,,0.00011839,1.1095060638463532,,0.00011839,1.1095060673024815,,0.00011839,0.6003531436741791,,0.00011839,0.6003531436741791,,0.00011839,0.6006004835895491,,0.00011839,1.62,,0.00011839,1.62,,0.00011839,1.1101759687850072
0.000134015,2.116795009970483,,0.000134015,1.6187920808753664,,0.000134015,1.6187920808753664,,0.000134015,1.6187920808753664,,0.000134015,1.1110251492248084,,0.000134015,1.1110251492248084,,0.000134015,1.1110251492248084,,0.000134015,1.1110251535128322,,0.000134015,0.6034745776514362,,0.000134015,0.6034745776514362,,0.000134015,0.6031490437706234,,0.000134015,1.62,,0.000134015,1.62,,0.000134015,1.1117366649530678
0.00014963999999999998,2.0962223697573052,,0.00014963999999999998,1.6187513484999878,,0.00014963999999999998,1.6187513484999878,,0.00014963999999999998,1.6187513484999878,,0.00014963999999999998,1.131592918703477,,0.00014963999999999998,1.131592918703477,,0.00014963999999999998,1.131592918703477,,0.00014963999999999998,1.1315929246050056,,0.00014963999999999998,0.6447719629704208,,0.00014963999999999998,0.6447719629704208,,0.00014963999999999998,0.643848764243962,,0.00014963999999999998,1.62,,0.00014963999999999998,1.62,,0.00014963999999999998,1.132385316965615
0.000165265,2.0573487709429363,,0.000165265,1.6186954488524463,,0.000165265,1.6186954488524463,,0.000165265,1.6186954488524463,,0.000165265,1.1704265884577225,,0.000165265,1.1704265884577225,,0.000165265,1.1704265884577225,,0.000165265,1.170426596614554,,0.000165265,0.7226657278907711,,0.000165265,0.7226657278907711,,0.000165265,0.7212152004970684,,0.000165265,1.62,,0.000165265,1.62,,0.000165265,1.17133214245958
0.00018089,2.0016681041292466,,0.00018089,1.6186227380137,,0.00018089,1.6186227380137,,0.00018089,1.6186227380137,,0.00018089,1.2260262157019748,,0.00018089,1.2260262157019748,,0.00018089,1.2260262157019748,,0.00018089,1.2260262267475381,,0.00018089,0.8341551194518048,,0.00018089,0.8341551194518048,,0.00018089,0.8322004419811648,,0.00018089,1.62,,0.00018089,1.62,,0.00018089,1.227076765186327
0.00019651500000000003,1.9313201461158085,,0.00019651500000000003,1.6185397813592632,,0.00019651500000000003,1.6185397813592632,,0.00019651500000000003,1.6185397813592632,,0.00019651500000000003,1.296262677791977,,0.00019651500000000003,1.296262677791977,,0.00019651500000000003,1.296262677791977,,0.00019651500000000003,1.2962626921699538,,0.00019651500000000003,0.9749628650976342,,0.00019651500000000003,0.9749628650976342,,0.00019651500000000003,0.9726095658998066,,0.00019651500000000003,1.62,,0.00019651500000000003,1.62,,0.00019651500000000003,1.2974805536436842
0.00021214000000000004,1.8490083294774893,,0.00021214000000000004,1.6184460165792722,,0.00021214000000000004,1.6184460165792722,,0.00021214000000000004,1.6184460165792722,,0.00021214000000000004,1.3784293238917003,,0.00021214000000000004,1.3784293238917003,,0.00021214000000000004,1.3784293238917003,,0.00021214000000000004,1.3784293419968205,,0.00021214000000000004,1.1396707112445297,,0.00021214000000000004,1.1396707112445297,,0.00021214000000000004,1.1369808367510195,,0.00021214000000000004,1.62,,0.00021214000000000004,1.62,,0.00021214000000000004,1.3798343823041854
0.00022776500000000005,1.757895851166701,,0.00022776500000000005,1.618348776577696,,0.00022776500000000005,1.618348776577696,,0.00022776500000000005,1.618348776577696,,0.00022776500000000005,1.4693759925969059,,0.00022776500000000005,1.4693759925969059,,0.00022776500000000005,1.4693759925969059,,0.00022776500000000005,1.4693760146012338,,0.00022776500000000005,1.3219559938487675,,0.00022776500000000005,1.3219559938487675,,0.00022776500000000005,1.3190594063752372,,0.00022776500000000005,1.62,,0.00022776500000000005,1.62,,0.00022776500000000005,1.4709769247599525
0.00024339000000000007,1.6614841126284605,,0.00024339000000000007,1.6182480892491953,,0.00024339000000000007,1.6182480892491953,,0.00024339000000000007,1.6182480892491953,,0.00024339000000000007,1.5656002340529438,,0.00024339000000000007,1.5656002340529438,,0.00024339000000000007,1.5656002340529438,,0.00024339000000000007,1.5656002600584038,,0.00024339000000000007,1.5148067254385886,,0.00024339000000000007,1.5148067254385886,,0.00024339000000000007,1.511790028899699,,0.00024339000000000007,1.62,,0.00024339000000000007,1.62,,0.00024339000000000007,1.5674021890811702
0.0002590150000000001,1.5634781629064667,,0.0002590150000000001,1.6181515124814136,,0.0002590150000000001,1.6181515124814136,,0.0002590150000000001,1.6181515124814136,,0.0002590150000000001,1.6634115792585535,,0.0002590150000000001,1.6634115792585535,,0.0002590150000000001,1.6634115792585535,,0.0002590150000000001,1.6634116091333808,,0.0002590150000000001,1.7108185129274982,,0.0002590150000000001,1.7108185129274982,,0.0002590150000000001,1.7078206754179726,,0.0002590150000000001,1.62,,0.0002590150000000001,1.62,,0.0002590150000000001,1.665407984622351
0.0002746400000000001,1.467644315686166,,0.0002746400000000001,1.6180590894714264,,0.0002746400000000001,1.6180590894714264,,0.0002746400000000001,1.6180590894714264,,0.0002746400000000001,1.7590438542720306,,0.0002746400000000001,1.7590438542720306,,0.0002746400000000001,1.7590438542720306,,0.0002746400000000001,1.7590438878158698,,0.0002746400000000001,1.9024520704760837,,0.0002746400000000001,1.9024520704760837,,0.0002746400000000001,1.8995668290154173,,0.0002746400000000001,1.62,,0.0002746400000000001,1.62,,0.0002746400000000001,1.761224670235007
0.0002902650000000001,1.377665411971994,,0.0002902650000000001,1.617978019977847,,0.0002902650000000001,1.617978019977847,,0.0002902650000000001,1.617978019977847,,0.0002902650000000001,1.848829257959669,,0.0002902650000000001,1.848829257959669,,0.0002902650000000001,1.848829257959669,,0.0002902650000000001,1.8488292947509215,,0.0002902650000000001,2.082349586430657,,0.0002902650000000001,2.082349586430657,,0.0002902650000000001,2.0797078140421834,,0.0002902650000000001,1.62,,0.0002902650000000001,1.62,,0.0002902650000000001,1.851173345678568
0.0003058900000000001,1.2969992905729355,,0.0003058900000000001,1.6179077915452273,,0.0003058900000000001,1.6179077915452273,,0.0003058900000000001,1.6179077915452273,,0.0003058900000000001,1.929310129378489,,0.0003058900000000001,1.929310129378489,,0.0003058900000000001,1.929310129378489,,0.0003058900000000001,1.9293101689511039,,0.0003058900000000001,2.2435912221832175,,0.0003058900000000001,2.2435912221832175,,0.0003058900000000001,2.241275829139317,,0.0003058900000000001,1.62,,0.0003058900000000001,1.62,,0.0003058900000000001,1.931794092812161
0.00032151500000000014,1.2287459052962744,,0.00032151500000000014,1.617854710974636,,0.00032151500000000014,1.617854710974636,,0.00032151500000000014,1.617854710974636,,0.00032151500000000014,1.9974008472736917,,0.00032151500000000014,1.9974008472736917,,0.00032151500000000014,1.9974008472736917,,0.00032151500000000014,1.9974008889743249,,0.00032151500000000014,2.379986934328117,,0.00032151500000000014,2.379986934328117,,0.00032151500000000014,2.3781042133824357,,0.00032151500000000014,1.62,,0.00032151500000000014,1.62,,0.00032151500000000014,1.9999918946617459
0.00033714000000000015,1.175528195461253,,0.00033714000000000015,1.6178172299950662,,0.00033714000000000015,1.6178172299950662,,0.00033714000000000015,1.6178172299950662,,0.00033714000000000015,2.050477544877956,,0.00033714000000000015,2.050477544877956,,0.00033714000000000015,2.050477544877956,,0.00033714000000000015,2.0504775880519204,,0.00033714000000000015,2.486288802390904,,0.00033714000000000015,2.486288802390904,,0.00033714000000000015,2.484895010565714,,0.00033714000000000015,1.62,,0.00033714000000000015,1.62,,0.00033714000000000015,2.0531427910630113
0.00035276500000000016,1.1393912878119965,,0.00035276500000000016,1.6178003574059927,,0.00035276500000000016,1.6178003574059927,,0.00035276500000000016,1.6178003574059927,,0.00035276500000000016,2.086507648898137,,0.00035276500000000016,2.086507648898137,,0.00035276500000000016,2.086507648898137,,0.00035276500000000016,2.086507692753694,,0.00035276500000000016,2.5584179268172487,,0.00035276500000000016,2.5584179268172487,,0.00035276500000000016,2.55758157819199,,0.00035276500000000016,1.62,,0.00035276500000000016,1.62,,0.00035276500000000016,2.0892073356954755
0.0003683900000000002,1.121723903443654,,0.0003683900000000002,1.6178011927731988,,0.0003683900000000002,1.6178011927731988,,0.0003683900000000002,1.6178011927731988,,0.0003683900000000002,2.1040994425570996,,0.0003683900000000002,2.1040994425570996,,0.0003683900000000002,2.1040994425570996,,0.0003683900000000002,2.1040994863567155,,0.0003683900000000002,2.5935962695108525,,0.0003683900000000002,2.5935962695108525,,0.0003683900000000002,2.593335626465894,,0.0003683900000000002,1.62,,0.0003683900000000002,1.62,,0.0003683900000000002,2.1067965081769793
0.0003840150000000002,1.1232049900295173,,0.0003840150000000002,1.6178232333757605,,0.0003840150000000002,1.6178232333757605,,0.0003840150000000002,1.6178232333757605,,0.0003840150000000002,2.102583939431592,,0.0003840150000000002,2.102583939431592,,0.0003840150000000002,2.102583939431592,,0.0003840150000000002,2.1025839823595467,,0.0003840150000000002,2.590478021411213,,0.0003840150000000002,2.590478021411213,,0.0003840150000000002,2.5908159712453935,,0.0003840150000000002,1.62,,0.0003840150000000002,1.62,,0.0003840150000000002,2.105237405941853
0.0003996400000000002,1.1437776302426954,,0.0003996400000000002,1.6178621221690497,,0.0003996400000000002,1.6178621221690497,,0.0003996400000000002,1.6178621221690497,,0.0003996400000000002,2.0820123569754436,,0.0003996400000000002,2.0820123569754436,,0.0003996400000000002,2.0820123569754436,,0.0003996400000000002,2.082012398329763,,0.0003996400000000002,2.5491769990833926,,0.0003996400000000002,2.5491769990833926,,0.0003996400000000002,2.550088629010539,,0.0003996400000000002,1.62,,0.0003996400000000002,1.62,,0.0003996400000000002,2.084586934428186
0.0004152650000000002,1.1826512290570645,,0.0004152650000000002,1.61791985549999,,0.0004152650000000002,1.61791985549999,,0.0004152650000000002,1.61791985549999,,0.0004152650000000002,2.043182228787464,,0.0004152650000000002,2.043182228787464,,0.0004152650000000002,2.043182228787464,,0.0004152650000000002,2.0431822678465097,,0.0004152650000000002,2.4712863182522087,,0.0004152650000000002,2.4712863182522087,,0.0004152650000000002,2.4727476335550644,,0.0004152650000000002,1.62,,0.0004152650000000002,1.62,,0.0004152650000000002,2.0456416519780136
0.00043089000000000023,1.2383318958707545,,0.00043089000000000023,1.6179907429929077,,0.00043089000000000023,1.6179907429929077,,0.00043089000000000023,1.6179907429929077,,0.00043089000000000023,1.9875788290780028,,0.00043089000000000023,1.9875788290780028,,0.00043089000000000023,1.9875788290780028,,0.00043089000000000023,1.987578865288347,,0.00043089000000000023,2.3597933867943715,,0.00043089000000000023,2.3597933867943715,,0.00043089000000000023,2.3617380236909638,,0.00043089000000000023,1.62,,0.00043089000000000023,1.62,,0.00043089000000000023,1.9898952583021094
0.00044651500000000025,1.308679853884193,,0.00044651500000000025,1.618075513220445,,0.00044651500000000025,1.618075513220445,,0.00044651500000000025,1.618075513220445,,0.00044651500000000025,1.917345868373311,,0.00044651500000000025,1.917345868373311,,0.00044651500000000025,1.917345868373311,,0.00044651500000000025,1.917345901211151,,0.00044651500000000025,2.2189886328397828,,0.00044651500000000025,2.2189886328397828,,0.00044651500000000025,2.221351285457245,,0.00044651500000000025,1.62,,0.00044651500000000025,1.62,,0.00044651500000000025,1.919492966692658
0.00046214000000000026,1.390991670522512,,0.00046214000000000026,1.6181674746395978,,0.00046214000000000026,1.6181674746395978,,0.00046214000000000026,1.6181674746395978,,0.00046214000000000026,1.835175489817958,,0.00046214000000000026,1.835175489817958,,0.00046214000000000026,1.835175489817958,,0.00046214000000000026,1.8351755189687675,,0.00046214000000000026,2.0542773350599597,,0.00046214000000000026,2.0542773350599597,,0.00046214000000000026,2.0569585154369587,,0.00046214000000000026,1.62,,0.00046214000000000026,1.62,,0.00046214000000000026,1.837137411212911
0.0004777650000000003,1.4821041488333004,,0.0004777650000000003,1.6182665083536263,,0.0004777650000000003,1.6182665083536263,,0.0004777650000000003,1.6182665083536263,,0.0004777650000000003,1.7442322828166552,,0.0004777650000000003,1.7442322828166552,,0.0004777650000000003,1.7442322828166552,,0.0004777650000000003,1.7442323080281195,,0.0004777650000000003,1.8719949600872752,,0.0004777650000000003,1.8719949600872752,,0.0004777650000000003,1.8748996371886162,,0.0004777650000000003,1.62,,0.0004777650000000003,1.62,,0.0004777650000000003,1.7459963235763516
