X--Trace 1::[transient: TIME],Y--Trace 1::[PR1: V(1)],,X--Trace 2::[transient: TIME],Y--Trace 2::[PR2: V(2)],,X--Trace 3::[transient: TIME],Y--Trace 3::[PR3: V(2)],,X--Trace 4::[transient: TIME],Y--Trace 4::[PR4: V(2)],,X--Trace 5::[transient: TIME],Y--Trace 5::[PR5: V(3)],,X--Trace 6::[transient: TIME],Y--Trace 6::[PR6: V(3)],,X--Trace 7::[transient: TIME],Y--Trace 7::[PR7: V(3)],,X--Trace 8::[transient: TIME],Y--Trace 8::[PR8: V(5)],,X--Trace 9::[transient: TIME],Y--Trace 9::[PR9: V(7)],,X--Trace 10::[transient: TIME],Y--Trace 10::[PR14: V(7)],,X--Trace 11::[transient: TIME],Y--Trace 11::[PR10: V(8)],,X--Trace 12::[transient: TIME],Y--Trace 12::[PR11: V(4)],,X--Trace 13::[transient: TIME],Y--Trace 13::[PR12: V(4)],,X--Trace 14::[transient: TIME],Y--Trace 14::[PR13: V(6)]
0,1.62,,0,1.6183075931279718,,0,1.6183075931279718,,0,1.6183075931279718,,0,1.6064053551665793,,0,1.6064053551665793,,0,1.6064053551665793,,0,1.6064053610670936,,0,1.5961772841866464,,0,1.5961772841866464,,0,1.5961772841052413,,0,1.62,,0,1.62,,0,1.6080875279295646
1e-7,1.6206283183653514,,1e-7,1.6183904253846713,,1e-7,1.6183904253846713,,1e-7,1.6183904253846713,,1e-7,1.6059427026884407,,1e-7,1.6059427026884407,,1e-7,1.6059427026884407,,1e-7,1.605942707260142,,1e-7,1.5947201763346364,,1e-7,1.5947201763346364,,1e-7,1.5957483444961778,,1e-7,1.62,,1e-7,1.62,,1e-7,1.6073591068943391
2e-7,1.6212566357385019,,2e-7,1.618405121905594,,2e-7,1.618405121905594,,2e-7,1.618405121905594,,2e-7,1.6053437804915334,,2e-7,1.6053437804915334,,2e-7,1.6053437804915334,,2e-7,1.6053437854973656,,2e-7,1.593696060009477,,2e-7,1.593696060009477,,2e-7,1.5951441983177692,,2e-7,1.62,,2e-7,1.62,,2e-7,1.6068470053267823
4e-7,1.6225132635394095,,4e-7,1.618411791838505,,4e-7,1.618411791838505,,4e-7,1.618411791838505,,4e-7,1.6041004981418958,,4e-7,1.6041004981418958,,4e-7,1.6041004981418958,,4e-7,1.6041005025620032,,4e-7,1.590975062136813,,4e-7,1.590975062136813,,4e-7,1.593490599656636,,4e-7,1.62,,4e-7,1.62,,4e-7,1.605486564982761
8e-7,1.6250264635783653,,8e-7,1.618410689751879,,8e-7,1.618410689751879,,8e-7,1.618410689751879,,8e-7,1.6015851127404215,,8e-7,1.6015851127404215,,8e-7,1.6015851127404215,,8e-7,1.601585118183658,,8e-7,1.5863536994008518,,8e-7,1.5863536994008518,,8e-7,1.5891001343676114,,8e-7,1.62,,8e-7,1.62,,8e-7,1.603175781337522
0.0000016,1.6300524191627288,,0.0000016,1.6184186628441941,,0.0000016,1.6184186628441941,,0.0000016,1.6184186628441941,,0.0000016,1.5965751713658098,,0.0000016,1.5965751713658098,,0.0000016,1.5965751713658098,,0.0000016,1.5965751754436515,,0.0000016,1.5757872825363972,,0.0000016,1.5757872825363972,,0.0000016,1.5790583729422247,,0.0000016,1.62,,0.0000016,1.62,,0.0000016,1.597892709522662
0.0000032,1.6401007746814766,,0.0000032,1.6184259300273036,,0.0000032,1.6184259300273036,,0.0000032,1.6184259300273036,,0.0000032,1.5865416079527008,,0.0000032,1.5865416079527008,,0.0000032,1.5865416079527008,,0.0000032,1.586541613439378,,0.0000032,1.5562837734549777,,0.0000032,1.5562837734549777,,0.0000032,1.559017445710819,,0.0000032,1.62,,0.0000032,1.62,,0.0000032,1.5881408142461146
0.0000064,1.6601690500666972,,0.0000064,1.618448309250397,,0.0000064,1.618448309250397,,0.0000064,1.618448309250397,,0.0000064,1.5665190926075514,,0.0000064,1.5665190926075514,,0.0000064,1.5665190926075514,,0.0000064,1.5665190962816697,,0.0000064,1.5155129520199073,,0.0000064,1.5155129520199073,,0.0000064,1.5188037881764633,,0.0000064,1.62,,0.0000064,1.62,,0.0000064,1.5677555850884304
0.000012479999999999999,1.698093113473714,,0.000012479999999999999,1.6184841258766098,,0.000012479999999999999,1.6184841258766098,,0.000012479999999999999,1.6184841258766098,,0.000012479999999999999,1.5286703425327957,,0.000012479999999999999,1.5286703425327957,,0.000012479999999999999,1.5286703425327957,,0.000012479999999999999,1.528670346684184,,0.000012479999999999999,1.440005698192503,,0.000012479999999999999,1.440005698192503,,0.000012479999999999999,1.4429799662165483,,0.000012479999999999999,1.62,,0.000012479999999999999,1.62,,0.000012479999999999999,1.5300019110144942
0.000024639999999999998,1.7723556843138335,,0.000024639999999999998,1.6185549913595367,,0.000024639999999999998,1.6185549913595367,,0.000024639999999999998,1.6185549913595367,,0.000024639999999999998,1.4545637307066852,,0.000024639999999999998,1.4545637307066852,,0.000024639999999999998,1.4545637307066852,,0.000024639999999999998,1.4545637341218465,,0.000024639999999999998,1.2914963505899955,,0.000024639999999999998,1.2914963505899955,,0.000024639999999999998,1.2943838951574,,0.000024639999999999998,1.62,,0.000024639999999999998,1.62,,0.000024639999999999998,1.4557473119489974
0.000040264999999999995,1.8623345880280056,,0.000040264999999999995,1.6186373247416481,,0.000040264999999999995,1.6186373247416481,,0.000040264999999999995,1.6186373247416481,,0.000040264999999999995,1.3647806469509525,,0.000040264999999999995,1.3647806469509525,,0.000040264999999999995,1.3647806469509525,,0.000040264999999999995,1.3647806495572854,,0.000040264999999999995,1.111604690087478,,0.000040264999999999995,1.111604690087478,,0.000040264999999999995,1.1142652008469272,,0.000040264999999999995,1.62,,0.000040264999999999995,1.62,,0.000040264999999999995,1.3658015639289818
0.000055889999999999995,1.9430007094270643,,0.000055889999999999995,1.618705647342835,,0.000055889999999999995,1.618705647342835,,0.000055889999999999995,1.618705647342835,,0.000055889999999999995,1.2842958379373726,,0.000055889999999999995,1.2842958379373726,,0.000055889999999999995,1.2842958379373726,,0.000055889999999999995,1.2842958398580648,,0.000055889999999999995,0.9503590652572609,,0.000055889999999999995,0.9503590652572609,,0.000055889999999999995,0.9526569539794869,,0.000055889999999999995,1.62,,0.000055889999999999995,1.62,,0.000055889999999999995,1.2851788212865487
0.000071515,2.0112540947037254,,0.000071515,1.6187606234583463,,0.000071515,1.6187606234583463,,0.000071515,1.6187606234583463,,0.000071515,1.2162087852122627,,0.000071515,1.2162087852122627,,0.000071515,1.2162087852122627,,0.000071515,1.2162087865911855,,0.000071515,0.8139667787140493,,0.000071515,0.8139667787140493,,0.000071515,0.8158658595446409,,0.000071515,1.62,,0.000071515,1.62,,0.000071515,1.2169827332142888
0.00008714,2.0644718045387465,,0.00008714,1.6187962196163617,,0.00008714,1.6187962196163617,,0.00008714,1.6187962196163617,,0.00008714,1.1631281920722365,,0.00008714,1.1631281920722365,,0.00008714,1.1631281920722365,,0.00008714,1.1631281930926436,,0.00008714,0.707661050610418,,0.00008714,0.707661050610418,,0.00008714,0.7090395711520039,,0.00008714,1.62,,0.00008714,1.62,,0.00008714,1.1638299058109551
0.000102765,2.1006087121880035,,0.000102765,1.6188149668714287,,0.000102765,1.6188149668714287,,0.000102765,1.6188149668714287,,0.000102765,1.127101711504057,,0.000102765,1.127101711504057,,0.000102765,1.127101711504057,,0.000102765,1.1271017123441986,,0.000102765,0.6355352252977561,,0.000102765,0.6355352252977561,,0.000102765,0.6363858374825074,,0.000102765,1.62,,0.000102765,1.62,,0.000102765,1.127767011721953
0.00011839,2.1182760965563463,,0.00011839,1.6188122674313288,,0.00011839,1.6188122674313288,,0.00011839,1.6188122674313288,,0.00011839,1.1095060638465803,,0.00011839,1.1095060638465803,,0.00011839,1.1095060638465803,,0.00011839,1.1095060647106127,,0.00011839,0.6003531385891854,,0.00011839,0.6003531385891854,,0.00011839,0.6006004784141398,,0.00011839,1.62,,0.00011839,1.62,,0.00011839,1.1101759662425283
0.000134015,2.116795009970483,,0.000134015,1.6187920808753662,,0.000134015,1.6187920808753662,,0.000134015,1.6187920808753662,,0.000134015,1.1110251492251493,,0.000134015,1.1110251492251493,,0.000134015,1.1110251492251493,,0.000134015,1.1110251502971549,,0.000134015,0.6034745710916745,,0.000134015,0.6034745710916745,,0.000134015,0.6031490373397955,,0.000134015,1.62,,0.000134015,1.62,,0.000134015,1.1117366616732494
0.00014963999999999998,2.0962223697573052,,0.00014963999999999998,1.618751348499987,,0.00014963999999999998,1.618751348499987,,0.00014963999999999998,1.618751348499987,,0.00014963999999999998,1.1315929187039315,,0.00014963999999999998,1.1315929187039315,,0.00014963999999999998,1.1315929187039315,,0.00014963999999999998,1.131592920179314,,0.00014963999999999998,0.6447719542079501,,0.00014963999999999998,0.6447719542079501,,0.00014963999999999998,0.6438487554258046,,0.00014963999999999998,1.62,,0.00014963999999999998,1.62,,0.00014963999999999998,1.1323853125843049
0.000165265,2.0573487709429363,,0.000165265,1.6186954488524457,,0.000165265,1.6186954488524457,,0.000165265,1.6186954488524457,,0.000165265,1.1704265884582907,,0.000165265,1.1704265884582907,,0.000165265,1.1704265884582907,,0.000165265,1.1704265904974982,,0.000165265,0.7226657155106172,,0.000165265,0.7226657155106172,,0.000165265,0.721215188276978,,0.000165265,1.62,,0.000165265,1.62,,0.000165265,1.1713321362695093
0.00018089,2.0016681041292466,,0.00018089,1.6186227380136993,,0.00018089,1.6186227380136993,,0.00018089,1.6186227380136993,,0.00018089,1.2260262157026567,,0.00018089,1.2260262157026567,,0.00018089,1.2260262157026567,,0.00018089,1.2260262184640478,,0.00018089,0.834155102956436,,0.00018089,0.834155102956436,,0.00018089,0.832200425457765,,0.00018089,1.62,,0.00018089,1.62,,0.00018089,1.2270767569386232
0.00019651500000000003,1.9313201461158085,,0.00019651500000000003,1.6185397813592626,,0.00019651500000000003,1.6185397813592626,,0.00019651500000000003,1.6185397813592626,,0.00019651500000000003,1.2962626777927724,,0.00019651500000000003,1.2962626777927724,,0.00019651500000000003,1.2962626777927724,,0.00019651500000000003,1.2962626813872662,,0.00019651500000000003,0.9749628433625387,,0.00019651500000000003,0.9749628433625387,,0.00019651500000000003,0.9726095443470509,,0.00019651500000000003,1.62,,0.00019651500000000003,1.62,,0.00019651500000000003,1.2974805427761666
0.00021214000000000004,1.8490083294774893,,0.00021214000000000004,1.618446016579272,,0.00021214000000000004,1.618446016579272,,0.00021214000000000004,1.618446016579272,,0.00021214000000000004,1.3784293238922691,,0.00021214000000000004,1.3784293238922691,,0.00021214000000000004,1.3784293238922691,,0.00021214000000000004,1.3784293284185494,,0.00021214000000000004,1.1396706841380893,,0.00021214000000000004,1.1396706841380893,,0.00021214000000000004,1.136980809632991,,0.00021214000000000004,1.62,,0.00021214000000000004,1.62,,0.00021214000000000004,1.3798343687509742
0.00022776500000000005,1.757895851166701,,0.00022776500000000005,1.6183487765776956,,0.00022776500000000005,1.6183487765776956,,0.00022776500000000005,1.6183487765776956,,0.00022776500000000005,1.4693759925972467,,0.00022776500000000005,1.4693759925972467,,0.00022776500000000005,1.4693759925972467,,0.00022776500000000005,1.4693759980983283,,0.00022776500000000005,1.3219559606470115,,0.00022776500000000005,1.3219559606470115,,0.00022776500000000005,1.3190593733658265,,0.00022776500000000005,1.62,,0.00022776500000000005,1.62,,0.00022776500000000005,1.4709769081591086
0.00024339000000000007,1.6614841126284605,,0.00024339000000000007,1.6182480892491953,,0.00024339000000000007,1.6182480892491953,,0.00024339000000000007,1.6182480892491953,,0.00024339000000000007,1.5656002340532849,,0.00024339000000000007,1.5656002340532849,,0.00024339000000000007,1.5656002340532849,,0.00024339000000000007,1.56560024055465,,0.00024339000000000007,1.51480668645902,,0.00024339000000000007,1.51480668645902,,0.00024339000000000007,1.5117899899112321,,0.00024339000000000007,1.62,,0.00024339000000000007,1.62,,0.00024339000000000007,1.5674021695914053
0.0002590150000000001,1.5634781629064667,,0.0002590150000000001,1.6181515124814132,,0.0002590150000000001,1.6181515124814132,,0.0002590150000000001,1.6181515124814132,,0.0002590150000000001,1.6634115792590076,,0.0002590150000000001,1.6634115792590076,,0.0002590150000000001,1.6634115792590076,,0.0002590150000000001,1.6634115867277142,,0.0002590150000000001,1.7108184678950342,,0.0002590150000000001,1.7108184678950342,,0.0002590150000000001,1.7078206305740615,,0.0002590150000000001,1.62,,0.0002590150000000001,1.62,,0.0002590150000000001,1.6654079621061897
0.0002746400000000001,1.467644315686166,,0.0002746400000000001,1.618059089471426,,0.0002746400000000001,1.618059089471426,,0.0002746400000000001,1.618059089471426,,0.0002746400000000001,1.7590438542725988,,0.0002746400000000001,1.7590438542725988,,0.0002746400000000001,1.7590438542725988,,0.0002746400000000001,1.7590438626585587,,0.0002746400000000001,1.9024520201703568,,0.0002746400000000001,1.9024520201703568,,0.0002746400000000001,1.8995667786893395,,0.0002746400000000001,1.62,,0.0002746400000000001,1.62,,0.0002746400000000001,1.7612246450821065
0.0002902650000000001,1.377665411971994,,0.0002902650000000001,1.6179780199778464,,0.0002902650000000001,1.6179780199778464,,0.0002902650000000001,1.6179780199778464,,0.0002902650000000001,1.848829257960237,,0.0002902650000000001,1.848829257960237,,0.0002902650000000001,1.848829257960237,,0.0002902650000000001,1.8488292671580495,,0.0002902650000000001,2.082349531003292,,0.0002902650000000001,2.082349531003292,,0.0002902650000000001,2.07970775878642,,0.0002902650000000001,1.62,,0.0002902650000000001,1.62,,0.0002902650000000001,1.8511733179649532
0.0003058900000000001,1.2969992905729355,,0.0003058900000000001,1.6179077915452262,,0.0003058900000000001,1.6179077915452262,,0.0003058900000000001,1.6179077915452262,,0.0003058900000000001,1.929310129379171,,0.0003058900000000001,1.929310129379171,,0.0003058900000000001,1.929310129379171,,0.0003058900000000001,1.9293101392723249,,0.0003058900000000001,2.2435911628216036,,0.0003058900000000001,2.2435911628216036,,0.0003058900000000001,2.241275769733434,,0.0003058900000000001,1.62,,0.0003058900000000001,1.62,,0.0003058900000000001,1.9317940631313202
0.00032151500000000014,1.2287459052962744,,0.00032151500000000014,1.6178547109746348,,0.00032151500000000014,1.6178547109746348,,0.00032151500000000014,1.6178547109746348,,0.00032151500000000014,1.9974008472747142,,0.00032151500000000014,1.9974008472747142,,0.00032151500000000014,1.9974008472747142,,0.00032151500000000014,1.9974008576998723,,0.00032151500000000014,2.379986871524635,,0.00032151500000000014,2.379986871524635,,0.00032151500000000014,2.3781041507230456,,0.00032151500000000014,1.62,,0.00032151500000000014,1.62,,0.00032151500000000014,1.9999918632600184
0.00033714000000000015,1.175528195461253,,0.00033714000000000015,1.6178172299950648,,0.00033714000000000015,1.6178172299950648,,0.00033714000000000015,1.6178172299950648,,0.00033714000000000015,2.050477544879206,,0.00033714000000000015,2.050477544879206,,0.00033714000000000015,2.050477544879206,,0.00033714000000000015,2.0504775556726975,,0.00033714000000000015,2.4862887376240725,,0.00033714000000000015,2.4862887376240725,,0.00033714000000000015,2.484894945721815,,0.00033714000000000015,1.62,,0.00033714000000000015,1.62,,0.00033714000000000015,2.0531427586795017
0.00035276500000000016,1.1393912878119965,,0.00035276500000000016,1.6178003574059912,,0.00035276500000000016,1.6178003574059912,,0.00035276500000000016,1.6178003574059912,,0.00035276500000000016,2.0865076488993872,,0.00035276500000000016,2.0865076488993872,,0.00035276500000000016,2.0865076488993872,,0.00035276500000000016,2.086507659863276,,0.00035276500000000016,2.5584178607777917,,0.00035276500000000016,2.5584178607777917,,0.00035276500000000016,2.557581512262897,,0.00035276500000000016,1.62,,0.00035276500000000016,1.62,,0.00035276500000000016,2.089207302675796
0.0003683900000000002,1.121723903443654,,0.0003683900000000002,1.617801192773198,,0.0003683900000000002,1.617801192773198,,0.0003683900000000002,1.617801192773198,,0.0003683900000000002,2.1040994425583497,,0.0003683900000000002,2.1040994425583497,,0.0003683900000000002,2.1040994425583497,,0.0003683900000000002,2.104099453508254,,0.0003683900000000002,2.5935962038103804,,0.0003683900000000002,2.5935962038103804,,0.0003683900000000002,2.5933355606515383,,0.0003683900000000002,1.62,,0.0003683900000000002,1.62,,0.0003683900000000002,2.1067964753267536
0.0003840150000000002,1.1232049900295173,,0.0003840150000000002,1.6178232333757592,,0.0003840150000000002,1.6178232333757592,,0.0003840150000000002,1.6178232333757592,,0.0003840150000000002,2.1025839394328423,,0.0003840150000000002,2.1025839394328423,,0.0003840150000000002,2.1025839394328423,,0.0003840150000000002,2.1025839501648305,,0.0003840150000000002,2.5904779567686167,,0.0003840150000000002,2.5904779567686167,,0.0003840150000000002,2.5908159066784093,,0.0003840150000000002,1.62,,0.0003840150000000002,1.62,,0.0003840150000000002,2.10523737362058
0.0003996400000000002,1.1437776302426954,,0.0003996400000000002,1.6178621221690486,,0.0003996400000000002,1.6178621221690486,,0.0003996400000000002,1.6178621221690486,,0.0003996400000000002,2.0820123569766937,,0.0003996400000000002,2.0820123569766937,,0.0003996400000000002,2.0820123569766937,,0.0003996400000000002,2.082012367315274,,0.0003996400000000002,2.549176937064992,,0.0003996400000000002,2.549176937064992,,0.0003996400000000002,2.55008856684291,,0.0003996400000000002,1.62,,0.0003996400000000002,1.62,,0.0003996400000000002,2.0845869034189826
0.0004152650000000002,1.1826512290570645,,0.0004152650000000002,1.6179198554999885,,0.0004152650000000002,1.6179198554999885,,0.0004152650000000002,1.6179198554999885,,0.0004152650000000002,2.0431822287888277,,0.0004152650000000002,2.0431822287888277,,0.0004152650000000002,2.0431822287888277,,0.0004152650000000002,2.043182238553589,,0.0004152650000000002,2.4712862594267553,,0.0004152650000000002,2.4712862594267553,,0.0004152650000000002,2.4727475747749064,,0.0004152650000000002,1.62,,0.0004152650000000002,1.62,,0.0004152650000000002,2.045641622565354
0.00043089000000000023,1.2383318958707545,,0.00043089000000000023,1.6179907429929064,,0.00043089000000000023,1.6179907429929064,,0.00043089000000000023,1.6179907429929064,,0.00043089000000000023,1.9875788290794807,,0.00043089000000000023,1.9875788290794807,,0.00043089000000000023,1.9875788290794807,,0.00043089000000000023,1.9875788381320671,,0.00043089000000000023,2.359793332513673,,0.00043089000000000023,2.359793332513673,,0.00043089000000000023,2.3617379692323768,,0.00043089000000000023,1.62,,0.00043089000000000023,1.62,,0.00043089000000000023,1.9898952311617841
0.00044651500000000025,1.308679853884193,,0.00044651500000000025,1.618075513220444,,0.00044651500000000025,1.618075513220444,,0.00044651500000000025,1.618075513220444,,0.00044651500000000025,1.917345868374675,,0.00044651500000000025,1.917345868374675,,0.00044651500000000025,1.917345868374675,,0.00044651500000000025,1.9173458765841347,,0.00044651500000000025,2.2189885833655856,,0.00044651500000000025,2.2189885833655856,,0.00044651500000000025,2.221351236007264,,0.00044651500000000025,1.62,,0.00044651500000000025,1.62,,0.00044651500000000025,1.919492941955626
0.00046214000000000026,1.390991670522512,,0.00046214000000000026,1.6181674746395966,,0.00046214000000000026,1.6181674746395966,,0.00046214000000000026,1.6181674746395966,,0.00046214000000000026,1.8351754898192083,,0.00046214000000000026,1.8351754898192083,,0.00046214000000000026,1.8351754898192083,,0.00046214000000000026,1.835175497106911,,0.00046214000000000026,2.0542772913938196,,0.00046214000000000026,2.0542772913938196,,0.00046214000000000026,2.056958471575148,,0.00046214000000000026,1.62,,0.00046214000000000026,1.62,,0.00046214000000000026,1.8371373893798424
0.0004777650000000003,1.4821041488333004,,0.0004777650000000003,1.6182665083536252,,0.0004777650000000003,1.6182665083536252,,0.0004777650000000003,1.6182665083536252,,0.0004777650000000003,1.7442322828179055,,0.0004777650000000003,1.7442322828179055,,0.0004777650000000003,1.7442322828179055,,0.0004777650000000003,1.744232289120771,,0.0004777650000000003,1.8719949220745247,,0.0004777650000000003,1.8719949220745247,,0.0004777650000000003,1.8748995991915949,,0.0004777650000000003,1.62,,0.0004777650000000003,1.62,,0.0004777650000000003,1.7459963045699687
