X--Trace 1::[transient: TIME],Y--Trace 1::[PR1: V(1)],,X--Trace 2::[transient: TIME],Y--Trace 2::[PR2: V(2)],,X--Trace 3::[transient: TIME],Y--Trace 3::[PR3: V(2)],,X--Trace 4::[transient: TIME],Y--Trace 4::[PR4: V(2)],,X--Trace 5::[transient: TIME],Y--Trace 5::[PR5: V(3)],,X--Trace 6::[transient: TIME],Y--Trace 6::[PR6: V(3)],,X--Trace 7::[transient: TIME],Y--Trace 7::[PR7: V(3)],,X--Trace 8::[transient: TIME],Y--Trace 8::[PR8: V(5)],,X--Trace 9::[transient: TIME],Y--Trace 9::[PR9: V(7)],,X--Trace 10::[transient: TIME],Y--Trace 10::[PR14: V(7)],,X--Trace 11::[transient: TIME],Y--Trace 11::[PR10: V(8)],,X--Trace 12::[transient: TIME],Y--Trace 12::[PR11: V(4)],,X--Trace 13::[transient: TIME],Y--Trace 13::[PR12: V(4)],,X--Trace 14::[transient: TIME],Y--Trace 14::[PR13: V(6)]
0,1.62,,0,1.6183075931279718,,0,1.6183075931279718,,0,1.6183075931279718,,0,1.6064053551665793,,0,1.6064053551665793,,0,1.6064053551665793,,0,1.6064053870293569,,0,1.596177336215334,,0,1.596177336215334,,0,1.5961773361339289,,0,1.62,,0,1.62,,0,1.6080875539438828
1e-7,1.6206283183653514,,1e-7,1.6183365518549597,,1e-7,1.6183365518549597,,1e-7,1.6183365518549597,,1e-7,1.6062844740938313,,1e-7,1.6062844740938313,,1e-7,1.6062844740938313,,1e-7,1.6062845040817584,,1e-7,1.5957966206795589,,1e-7,1.5957966206795589,,1e-7,1.5960652620874851,,1e-7,1.62,,1e-7,1.62,,1e-7,1.6078972308978288
2e-7,1.6212566357385019,,2e-7,1.618333955983675,,2e-7,1.618333955983675,,2e-7,1.618333955983675,,2e-7,1.6061241500542374,,2e-7,1.6061241500542374,,2e-7,1.6061241500542374,,2e-7,1.6061241805951905,,2e-7,1.595516955864587,,2e-7,1.595516955864587,,2e-7,1.5959038531077117,,2e-7,1.62,,2e-7,1.62,,2e-7,1.607757388251321
4e-7,1.6225132635394095,,4e-7,1.618332470509607,,4e-7,1.618332470509607,,4e-7,1.618332470509607,,4e-7,1.6058081366219439,,4e-7,1.6058081366219439,,4e-7,1.6058081366219439,,4e-7,1.605808166666406,,4e-7,1.594848126173041,,4e-7,1.594848126173041,,4e-7,1.5954791771169679,,4e-7,1.62,,4e-7,1.62,,4e-7,1.6074229826047524
8e-7,1.6250264635783653,,8e-7,1.6183344705796214,,8e-7,1.6183344705796214,,8e-7,1.6183344705796214,,8e-7,1.6051823378944994,,8e-7,1.6051823378944994,,8e-7,1.6051823378944994,,8e-7,1.605182368898371,,8e-7,1.5936676209924827,,8e-7,1.5936676209924827,,8e-7,1.5943681435799677,,8e-7,1.62,,8e-7,1.62,,8e-7,1.6068327122566648
0.0000016,1.6300524191627288,,0.0000016,1.618334533288832,,0.0000016,1.618334533288832,,0.0000016,1.618334533288832,,0.0000016,1.603925931679378,,0.0000016,1.603925931679378,,0.0000016,1.603925931679378,,0.0000016,1.6039259613601629,,0.0000016,1.5910567253231485,,0.0000016,1.5910567253231485,,0.0000016,1.5918595045261605,,0.0000016,1.62,,0.0000016,1.62,,0.0000016,1.6055272889429408
0.0000032,1.6401007746814766,,0.0000032,1.6183381305179072,,0.0000032,1.6183381305179072,,0.0000032,1.6183381305179072,,0.0000032,1.6014183555334314,,0.0000032,1.6014183555334314,,0.0000032,1.6014183555334314,,0.0000032,1.601418386530647,,0.0000032,1.5861390875861692,,0.0000032,1.5861390875861692,,0.0000032,1.5868402133420754,,0.0000032,1.62,,0.0000032,1.62,,0.0000032,1.6030684457332407
0.0000064,1.6601690500666972,,0.0000064,1.6183420229938312,,0.0000064,1.6183420229938312,,0.0000064,1.6183420229938312,,0.0000064,1.5964062150851994,,0.0000064,1.5964062150851994,,0.0000064,1.5964062150851994,,0.0000064,1.596406244257357,,0.0000064,1.5759794455693659,,0.0000064,1.5759794455693659,,0.0000064,1.5767847532649235,,0.0000064,1.62,,0.0000064,1.62,,0.0000064,1.5979886585980374
0.000012479999999999999,1.698093113473714,,0.000012479999999999999,1.6183518132331638,,0.000012479999999999999,1.6183518132331638,,0.000012479999999999999,1.6183518132331638,,0.000012479999999999999,1.5869376675110873,,0.000012479999999999999,1.5869376675110873,,0.000012479999999999999,1.5869376675110873,,0.000012479999999999999,1.586937697002445,,0.000012479999999999999,1.5570658176876613,,0.000012479999999999999,1.5570658176876613,,0.000012479999999999999,1.5578104795745054,,0.000012479999999999999,1.62,,0.000012479999999999999,1.62,,0.000012479999999999999,1.588531838887995
0.000024639999999999998,1.7723556843138335,,0.000024639999999999998,1.6183695615913933,,0.000024639999999999998,1.6183695615913933,,0.000024639999999999998,1.6183695615913933,,0.000024639999999999998,1.5683951008124533,,0.000024639999999999998,1.5683951008124533,,0.000024639999999999998,1.5683951008124533,,0.000024639999999999998,1.568395129319192,,0.000024639999999999998,1.5199073397079477,,0.000024639999999999998,1.5199073397079477,,0.000024639999999999998,1.5206296675184168,,0.000024639999999999998,1.62,,0.000024639999999999998,1.62,,0.000024639999999999998,1.5699526184102675
0.000040264999999999995,1.8623345880280056,,0.000040264999999999995,1.6183901547321986,,0.000040264999999999995,1.6183901547321986,,0.000040264999999999995,1.6183901547321986,,0.000040264999999999995,1.545928065802693,,0.000040264999999999995,1.545928065802693,,0.000040264999999999995,1.545928065802693,,0.000040264999999999995,1.5459280932123545,,0.000040264999999999995,1.4748915118509491,,0.000040264999999999995,1.4748915118509491,,0.000040264999999999995,1.4755573677579394,,0.000040264999999999995,1.62,,0.000040264999999999995,1.62,,0.000040264999999999995,1.5474447251355778
0.000055889999999999995,1.9430007094270643,,0.000055889999999999995,1.6184072502445115,,0.000055889999999999995,1.6184072502445115,,0.000055889999999999995,1.6184072502445115,,0.000055889999999999995,1.5257856997918895,,0.000055889999999999995,1.5257856997918895,,0.000055889999999999995,1.5257856997918895,,0.000055889999999999995,1.5257857262767416,,0.000055889999999999995,1.4345378358576386,,0.000055889999999999995,1.4345378358576386,,0.000055889999999999995,1.4351128813561882,,0.000055889999999999995,1.62,,0.000055889999999999995,1.62,,0.000055889999999999995,1.5272679045674107
0.000071515,2.0112540947037254,,0.000071515,1.6184210079777106,,0.000071515,1.6184210079777106,,0.000071515,1.6184210079777106,,0.000071515,1.508743078485908,,0.000071515,1.508743078485908,,0.000071515,1.508743078485908,,0.000071515,1.508743104236317,,0.000071515,1.4003978200438632,,0.000071515,1.4003978200438632,,0.000071515,1.4008732995537094,,0.000071515,1.62,,0.000071515,1.62,,0.000071515,1.510197910517239
0.00008714,2.0644718045387465,,0.00008714,1.6184299108160751,,0.00008714,1.6184299108160751,,0.00008714,1.6184299108160751,,0.00008714,1.4954539047081905,,0.00008714,1.4954539047081905,,0.00008714,1.4954539047081905,,0.00008714,1.495453929975733,,0.00008714,1.37378341955368,,0.00008714,1.37378341955368,,0.00008714,1.374128512753013,,0.00008714,1.62,,0.00008714,1.62,,0.00008714,1.4968907194136243
0.000102765,2.1006087121880035,,0.000102765,1.61843461005869,,0.000102765,1.61843461005869,,0.000102765,1.61843461005869,,0.000102765,1.4864301157045567,,0.000102765,1.4864301157045567,,0.000102765,1.4864301157045567,,0.000102765,1.4864301407258471,,0.000102765,1.3557174102782634,,0.000102765,1.3557174102782634,,0.000102765,1.355930656292477,,0.000102765,1.62,,0.000102765,1.62,,0.000102765,1.4878577194716163
0.00011839,2.1182760965563463,,0.00011839,1.6184339267056438,,0.00011839,1.6184339267056438,,0.00011839,1.6184339267056438,,0.00011839,1.4820172425741371,,0.00011839,1.4820172425741371,,0.00011839,1.4820172425741371,,0.00011839,1.4820172676292749,,0.00011839,1.3468940841672357,,0.00011839,1.3468940841672357,,0.00011839,1.346956189029937,,0.00011839,1.62,,0.00011839,1.62,,0.00011839,1.483446055855463
0.000134015,2.116795009970483,,0.000134015,1.618428890373441,,0.000134015,1.618428890373441,,0.000134015,1.618428890373441,,0.000134015,1.4823861237137568,,0.000134015,1.4823861237137568,,0.000134015,1.4823861237137568,,0.000134015,1.4823861490470422,,0.000134015,1.3476524682274589,,0.000134015,1.3476524682274589,,0.000134015,1.3475714849636176,,0.000134015,1.62,,0.000134015,1.62,,0.000134015,1.483825242729048
0.00014963999999999998,2.0962223697573052,,0.00014963999999999998,1.6184186863405756,,0.00014963999999999998,1.6184186863405756,,0.00014963999999999998,1.6184186863405756,,0.00014963999999999998,1.4875213228584967,,0.00014963999999999998,1.4875213228584967,,0.00014963999999999998,1.4875213228584967,,0.00014963999999999998,1.4875213487384908,,0.00014963999999999998,1.3579634876589675,,0.00014963999999999998,1.3579634876589675,,0.00014963999999999998,1.3577327081980488,,0.00014963999999999998,1.62,,0.00014963999999999998,1.62,,0.00014963999999999998,1.4889807422433299
0.000165265,2.0573487709429363,,0.000165265,1.6184047198812876,,0.000165265,1.6184047198812876,,0.000165265,1.6184047198812876,,0.000165265,1.4972267635711776,,0.000165265,1.4972267635711776,,0.000165265,1.4972267635711776,,0.000165265,1.497226790210055,,0.000165265,1.3774308066839835,,0.000165265,1.3774308066839835,,0.000165265,1.3770683379477007,,0.000165265,1.62,,0.000165265,1.62,,0.000165265,1.4987143875566176
0.00018089,2.0016681041292466,,0.00018089,1.618386509741164,,0.00018089,1.618386509741164,,0.00018089,1.618386509741164,,0.00018089,1.5111281986979266,,0.00018089,1.5111281986979266,,0.00018089,1.5111281986979266,,0.00018089,1.5111282263144794,,0.00018089,1.4053064139417994,,0.00018089,1.4053064139417994,,0.00018089,1.4048174940289828,,0.00018089,1.62,,0.00018089,1.62,,0.00018089,1.5126521728715285
0.00019651500000000003,1.9313201461158085,,0.00019651500000000003,1.6183657785069316,,0.00019651500000000003,1.6183657785069316,,0.00019651500000000003,1.6183657785069316,,0.00019651500000000003,1.5286926823220683,,0.00019651500000000003,1.5286926823220683,,0.00019651500000000003,1.5286926823220683,,0.00019651500000000003,1.528692711061353,,0.00019651500000000003,1.4405189421741347,,0.00019651500000000003,1.4405189421741347,,0.00019651500000000003,1.4399305375847098,,0.00019651500000000003,1.62,,0.00019651500000000003,1.62,,0.00019651500000000003,1.5302584159324535
0.00021214000000000004,1.8490083294774893,,0.00021214000000000004,1.6183422953185616,,0.00021214000000000004,1.6183422953185616,,0.00021214000000000004,1.6183422953185616,,0.00021214000000000004,1.5492439367123907,,0.00021214000000000004,1.5492439367123907,,0.00021214000000000004,1.5492439367123907,,0.00021214000000000004,1.5492439667128448,,0.00021214000000000004,1.4817153317747735,,0.00021214000000000004,1.4817153317747735,,0.00021214000000000004,1.4810423597328097,,0.00021214000000000004,1.62,,0.00021214000000000004,1.62,,0.00021214000000000004,1.5508565870690783
0.00022776500000000005,1.757895851166701,,0.00022776500000000005,1.618317994905296,,0.00022776500000000005,1.618317994905296,,0.00022776500000000005,1.618317994905296,,0.00022776500000000005,1.571993479004809,,0.00022776500000000005,1.571993479004809,,0.00022776500000000005,1.571993479004809,,0.00022776500000000005,1.5719935103195333,,0.00022776500000000005,1.5273122767016196,,0.00022776500000000005,1.5273122767016196,,0.00022776500000000005,1.5265878403714326,,0.00022776500000000005,1.62,,0.00022776500000000005,1.62,,0.00022776500000000005,1.5736550348524425
0.00024339000000000007,1.6614841126284605,,0.00024339000000000007,1.618292774136064,,0.00024339000000000007,1.618292774136064,,0.00024339000000000007,1.618292774136064,,0.00024339000000000007,1.5960657607810167,,0.00024339000000000007,1.5960657607810167,,0.00024339000000000007,1.5960657607810167,,0.00024339000000000007,1.596065793449802,,0.00024339000000000007,1.575557676069094,,0.00024339000000000007,1.575557676069094,,0.00024339000000000007,1.5748028001317287,,0.00024339000000000007,1.62,,0.00024339000000000007,1.62,,0.00024339000000000007,1.597777709099373
0.0002590150000000001,1.5634781629064667,,0.0002590150000000001,1.6182686438775737,,0.0002590150000000001,1.6182686438775737,,0.0002590150000000001,1.6182686438775737,,0.0002590150000000001,1.6205369997731238,,0.0002590150000000001,1.6205369997731238,,0.0002590150000000001,1.6205369997731238,,0.0002590150000000001,1.6205370337462193,,0.0002590150000000001,1.6245973107147378,,0.0002590150000000001,1.6245973107147378,,0.0002590150000000001,1.6238474191074077,,0.0002590150000000001,1.62,,0.0002590150000000001,1.62,,0.0002590150000000001,1.622297501900768
0.0002746400000000001,1.467644315686166,,0.0002746400000000001,1.618245485165723,,0.0002746400000000001,1.618245485165723,,0.0002746400000000001,1.618245485165723,,0.0002746400000000001,1.6444654721063587,,0.0002746400000000001,1.6444654721063587,,0.0002746400000000001,1.6444654721063587,,0.0002746400000000001,1.6444655073216883,,0.0002746400000000001,1.6725468004915216,,0.0002746400000000001,1.6725468004915216,,0.0002746400000000001,1.6718246730172135,,0.0002746400000000001,1.62,,0.0002746400000000001,1.62,,0.0002746400000000001,1.646272223425474
0.0002902650000000001,1.377665411971994,,0.0002902650000000001,1.6182252388487146,,0.0002902650000000001,1.6182252388487146,,0.0002902650000000001,1.6182252388487146,,0.0002902650000000001,1.666932933560704,,0.0002902650000000001,1.666932933560704,,0.0002902650000000001,1.666932933560704,,0.0002902650000000001,1.6669329698703768,,0.0002902650000000001,1.7175632786177377,,0.0002902650000000001,1.7175632786177377,,0.0002902650000000001,1.7169023506453067,,0.0002902650000000001,1.62,,0.0002902650000000001,1.62,,0.0002902650000000001,1.6687804418854943
0.0003058900000000001,1.2969992905729355,,0.0003058900000000001,1.6182076275481723,,0.0003058900000000001,1.6182076275481723,,0.0003058900000000001,1.6182076275481723,,0.0003058900000000001,1.6870746528627918,,0.0003058900000000001,1.6870746528627918,,0.0003058900000000001,1.6870746528627918,,0.0003058900000000001,1.6870746901152023,,0.0003058900000000001,1.7579169898702298,,0.0003058900000000001,1.7579169898702298,,0.0003058900000000001,1.7573373084636745,,0.0003058900000000001,1.62,,0.0003058900000000001,1.62,,0.0003058900000000001,1.6889572797511647
0.00032151500000000014,1.2287459052962744,,0.00032151500000000014,1.6181943880166052,,0.00032151500000000014,1.6181943880166052,,0.00032151500000000014,1.6181943880166052,,0.00032151500000000014,1.7041179199480105,,0.00032151500000000014,1.7041179199480105,,0.00032151500000000014,1.7041179199480105,,0.00032151500000000014,1.7041179579167334,,0.00032151500000000014,1.7920569535622966,,0.00032151500000000014,1.7920569535622966,,0.00032151500000000014,1.791585835190243,,0.00032151500000000014,1.62,,0.00032151500000000014,1.62,,0.00032151500000000014,1.7060272480762129
0.00033714000000000015,1.175528195461253,,0.00033714000000000015,1.6181849645887034,,0.00033714000000000015,1.6181849645887034,,0.00033714000000000015,1.6181849645887034,,0.00033714000000000015,1.717406441015554,,0.00033714000000000015,1.717406441015554,,0.00033714000000000015,1.717406441015554,,0.00033714000000000015,1.717406479485465,,0.00033714000000000015,1.818671406487769,,0.00033714000000000015,1.818671406487769,,0.00033714000000000015,1.8183222099207847,,0.00033714000000000015,1.62,,0.00033714000000000015,1.62,,0.00033714000000000015,1.7193344650581854
0.00035276500000000016,1.1393912878119965,,0.00035276500000000016,1.6181807883138613,,0.00035276500000000016,1.6181807883138613,,0.00035276500000000016,1.6181807883138613,,0.00035276500000000016,1.7264308817561465,,0.00035276500000000016,1.7264308817561465,,0.00035276500000000016,1.7264308817561465,,0.00035276500000000016,1.7264309204538066,,0.00035276500000000016,1.8367373479247984,,0.00035276500000000016,1.8367373479247984,,0.00035276500000000016,1.8365279626814828,,0.00035276500000000016,1.62,,0.00035276500000000016,1.62,,0.00035276500000000016,1.7283674314236117
0.0003683900000000002,1.121723903443654,,0.0003683900000000002,1.6181809463462675,,0.0003683900000000002,1.6181809463462675,,0.0003683900000000002,1.6181809463462675,,0.0003683900000000002,1.7308430962626582,,0.0003683900000000002,1.7308430962626582,,0.0003683900000000002,1.7308430962626582,,0.0003683900000000002,1.7308431349451456,,0.0003683900000000002,1.8455607408185883,,0.0003683900000000002,1.8455607408185883,,0.0003683900000000002,1.845495002737925,,0.0003683900000000002,1.62,,0.0003683900000000002,1.62,,0.0003683900000000002,1.7327791280854268
0.0003840150000000002,1.1232049900295173,,0.0003840150000000002,1.6181865103424364,,0.0003840150000000002,1.6181865103424364,,0.0003840150000000002,1.6181865103424364,,0.0003840150000000002,1.7304748727304013,,0.0003840150000000002,1.7304748727304013,,0.0003840150000000002,1.7304748727304013,,0.0003840150000000002,1.7304749111159035,,0.0003840150000000002,1.844802275858211,,0.0003840150000000002,1.844802275858211,,0.0003840150000000002,1.844886678123165,,0.0003840150000000002,1.62,,0.0003840150000000002,1.62,,0.0003840150000000002,1.7323999011105113
0.0003996400000000002,1.1437776302426954,,0.0003996400000000002,1.6181961843932489,,0.0003996400000000002,1.6181961843932489,,0.0003996400000000002,1.6181961843932489,,0.0003996400000000002,1.7253390091351588,,0.0003996400000000002,1.7253390091351588,,0.0003996400000000002,1.7253390091351588,,0.0003996400000000002,1.725339046992944,,0.0003996400000000002,1.8344913350661316,,0.0003996400000000002,1.8344913350661316,,0.0003996400000000002,1.8347188964244843,,0.0003996400000000002,1.62,,0.0003996400000000002,1.62,,0.0003996400000000002,1.72724444056426
0.0004152650000000002,1.1826512290570645,,0.0004152650000000002,1.6182106831432637,,0.0004152650000000002,1.6182106831432637,,0.0004152650000000002,1.6182106831432637,,0.0004152650000000002,1.7156342318132842,,0.0004152650000000002,1.7156342318132842,,0.0004152650000000002,1.7156342318132842,,0.0004152650000000002,1.7156342688930477,,0.0004152650000000002,1.8150239244164286,,0.0004152650000000002,1.8150239244164286,,0.0004152650000000002,1.8153894220722075,,0.0004152650000000002,1.62,,0.0004152650000000002,1.62,,0.0004152650000000002,1.7175107497930244
0.00043089000000000023,1.2383318958707545,,0.00043089000000000023,1.6182283587090978,,0.00043089000000000023,1.6182283587090978,,0.00043089000000000023,1.6182283587090978,,0.00043089000000000023,1.7017321264957659,,0.00043089000000000023,1.7017321264957659,,0.00043089000000000023,1.7017321264957659,,0.00043089000000000023,1.7017321626171313,,0.00043089000000000023,1.787148405460461,,0.00043089000000000023,1.787148405460461,,0.00043089000000000023,1.7876344738405912,,0.00043089000000000023,1.62,,0.00043089000000000023,1.62,,0.00043089000000000023,1.7035730082720557
0.00044651500000000025,1.308679853884193,,0.00044651500000000025,1.6182496267918967,,0.00044651500000000025,1.6182496267918967,,0.00044651500000000025,1.6182496267918967,,0.00044651500000000025,1.6841683119600612,,0.00044651500000000025,1.6841683119600612,,0.00044651500000000025,1.6841683119600612,,0.00044651500000000025,1.6841683469392852,,0.00044651500000000025,1.7519357769381838,,0.00044651500000000025,1.7519357769381838,,0.00044651500000000025,1.7525268659594708,,0.00044651500000000025,1.62,,0.00044651500000000025,1.62,,0.00044651500000000025,1.6859667154256264
0.00046214000000000026,1.390991670522512,,0.00046214000000000026,1.618272570882407,,0.00046214000000000026,1.618272570882407,,0.00046214000000000026,1.618272570882407,,0.00046214000000000026,1.6636163817246823,,0.00046214000000000026,1.6636163817246823,,0.00046214000000000026,1.6636163817246823,,0.00046214000000000026,1.663616415462271,,0.00046214000000000026,1.7107394833704843,,0.00046214000000000026,1.7107394833704843,,0.00046214000000000026,1.711409927627658,,0.00046214000000000026,1.62,,0.00046214000000000026,1.62,,0.00046214000000000026,1.6653685919437553
0.0004777650000000003,1.4821041488333004,,0.0004777650000000003,1.6182974126336662,,0.0004777650000000003,1.6182974126336662,,0.0004777650000000003,1.6182974126336662,,0.0004777650000000003,1.6408675141325297,,0.0004777650000000003,1.6408675141325297,,0.0004777650000000003,1.6408675141325297,,0.0004777650000000003,1.640867546536195,,0.0004777650000000003,1.6651424313002778,,0.0004777650000000003,1.6651424313002778,,0.0004777650000000003,1.66586924779327,,0.0004777650000000003,1.62,,0.0004777650000000003,1.62,,0.0004777650000000003,1.6425700909526801
