X--Trace 1::[transient: TIME],Y--Trace 1::[PR1: V(1)],,X--Trace 2::[transient: TIME],Y--Trace 2::[PR2: V(2)],,X--Trace 3::[transient: TIME],Y--Trace 3::[PR3: V(2)],,X--Trace 4::[transient: TIME],Y--Trace 4::[PR4: V(2)],,X--Trace 5::[transient: TIME],Y--Trace 5::[PR5: V(3)],,X--Trace 6::[transient: TIME],Y--Trace 6::[PR6: V(3)],,X--Trace 7::[transient: TIME],Y--Trace 7::[PR7: V(3)],,X--Trace 8::[transient: TIME],Y--Trace 8::[PR8: V(5)],,X--Trace 9::[transient: TIME],Y--Trace 9::[PR9: V(7)],,X--Trace 10::[transient: TIME],Y--Trace 10::[PR14: V(7)],,X--Trace 11::[transient: TIME],Y--Trace 11::[PR10: V(8)],,X--Trace 12::[transient: TIME],Y--Trace 12::[PR11: V(4)],,X--Trace 13::[transient: TIME],Y--Trace 13::[PR12: V(4)],,X--Trace 14::[transient: TIME],Y--Trace 14::[PR13: V(6)]
0,1.62,,0,1.6183075931279738,,0,1.6183075931279738,,0,1.6183075931279738,,0,1.6064053551669193,,0,1.6064053551669193,,0,1.6064053551669193,,0,1.6064053870941282,,0,1.598563677217693,,0,1.598563677217693,,0,1.5985636771361662,,0,1.62,,0,1.62,,0,1.6080899403592042
1e-7,1.6206283183653514,,1e-7,1.6183904253894146,,1e-7,1.6183904253894146,,1e-7,1.6183904253894146,,1e-7,1.6059427026982656,,1e-7,1.6059427026982656,,1e-7,1.6059427026982656,,1e-7,1.6059427285181098,,1e-7,1.5973235448423886,,1e-7,1.5973235448423886,,1e-7,1.5981986102020225,,1e-7,1.62,,1e-7,1.62,,1e-7,1.607401078469277
2e-7,1.6212566357385019,,2e-7,1.6184051219029303,,2e-7,1.6184051219029303,,2e-7,1.6184051219029303,,2e-7,1.6053437804865482,,2e-7,1.6053437804865482,,2e-7,1.6053437804865482,,2e-7,1.6053438077636415,,2e-7,1.5963426697918042,,2e-7,1.5963426697918042,,2e-7,1.59765226328071,,2e-7,1.62,,2e-7,1.62,,2e-7,1.6068561239054893
4e-7,1.6225132635394095,,4e-7,1.6184117918457757,,4e-7,1.6184117918457757,,4e-7,1.6184117918457757,,4e-7,1.6041004981567883,,4e-7,1.6041004981567883,,4e-7,1.6041004981567883,,4e-7,1.6041005236461452,,4e-7,1.5939855005848307,,4e-7,1.5939855005848307,,4e-7,1.5961873364783334,,4e-7,1.62,,4e-7,1.62,,4e-7,1.605546614902094
8e-7,1.6250264635783653,,8e-7,1.6184106897406223,,8e-7,1.6184106897406223,,8e-7,1.6184106897406223,,8e-7,1.6015851127182672,,8e-7,1.6015851127182672,,8e-7,1.6015851127182672,,8e-7,1.6015851412488529,,8e-7,1.5896606056440514,,8e-7,1.5896606056440514,,8e-7,1.5922170990935738,,8e-7,1.62,,8e-7,1.62,,8e-7,1.603143845461705
0.0000016,1.6300524191627288,,0.0000016,1.618418662858223,,0.0000016,1.618418662858223,,0.0000016,1.618418662858223,,0.0000016,1.5965751713942082,,0.0000016,1.5965751713942082,,0.0000016,1.5965751713942082,,0.0000016,1.596575195921803,,0.0000016,1.5803756290650248,,0.0000016,1.5803756290650248,,0.0000016,1.583214151686966,,0.0000016,1.62,,0.0000016,1.62,,0.0000016,1.5979855911009981
0.0000032,1.6401007746814766,,0.0000032,1.6184259300118071,,0.0000032,1.6184259300118071,,0.0000032,1.6184259300118071,,0.0000032,1.5865416079220431,,0.0000032,1.5865416079220431,,0.0000032,1.5865416079220431,,0.0000032,1.5865416362206117,,0.0000032,1.562566550750181,,0.0000032,1.562566550750181,,0.0000032,1.5651426897504137,,0.0000032,1.62,,0.0000032,1.62,,0.0000032,1.5880915967627591
0.0000064,1.6601690500666972,,0.0000064,1.6184483092668276,,0.0000064,1.6184483092668276,,0.0000064,1.6184483092668276,,0.0000064,1.566519092640812,,0.0000064,1.566519092640812,,0.0000064,1.566519092640812,,0.0000064,1.566519115458592,,0.0000064,1.5261601041918218,,0.0000064,1.5261601041918218,,0.0000064,1.5289987752281542,,0.0000064,1.62,,0.0000064,1.62,,0.0000064,1.567865883606723
0.000012479999999999999,1.698093113473714,,0.000012479999999999999,1.6184841258761988,,0.000012479999999999999,1.6184841258761988,,0.000012479999999999999,1.6184841258761988,,0.000012479999999999999,1.5286703425324641,,0.000012479999999999999,1.5286703425324641,,0.000012479999999999999,1.5286703425324641,,0.000012479999999999999,1.5286703659141319,,0.000012479999999999999,1.458069282073224,,0.000012479999999999999,1.458069282073224,,0.000012479999999999999,1.4607490388608038,,0.000012479999999999999,1.62,,0.000012479999999999999,1.62,,0.000012479999999999999,1.5300376403187443
0.000024639999999999998,1.7723556843138335,,0.000024639999999999998,1.6185549913598045,,0.000024639999999999998,1.6185549913598045,,0.000024639999999999998,1.6185549913598045,,0.000024639999999999998,1.4545637307077979,,0.000024639999999999998,1.4545637307077979,,0.000024639999999999998,1.4545637307077979,,0.000024639999999999998,1.4545637505837687,,0.000024639999999999998,1.3244422217631924,,0.000024639999999999998,1.3244422217631924,,0.000024639999999999998,1.3270390621387316,,0.000024639999999999998,1.62,,0.000024639999999999998,1.62,,0.000024639999999999998,1.4558004432871807
0.000040264999999999995,1.8623345880280056,,0.000040264999999999995,1.6186373247416699,,0.000040264999999999995,1.6186373247416699,,0.000040264999999999995,1.6186373247416699,,0.000040264999999999995,1.364780646951597,,0.000040264999999999995,1.364780646951597,,0.000040264999999999995,1.364780646951597,,0.000040264999999999995,1.3647806628722423,,0.000040264999999999995,1.1625672400668996,,0.000040264999999999995,1.1625672400668996,,0.000040264999999999995,1.1649617240682197,,0.000040264999999999995,1.62,,0.000040264999999999995,1.62,,0.000040264999999999995,1.3658699642069634
0.000055889999999999995,1.9430007094270643,,0.000055889999999999995,1.6187056473429917,,0.000055889999999999995,1.6187056473429917,,0.000055889999999999995,1.6187056473429917,,0.000055889999999999995,1.2842958379381766,,0.000055889999999999995,1.2842958379381766,,0.000055889999999999995,1.2842958379381766,,0.000055889999999999995,1.2842958505420945,,0.000055889999999999995,1.0174719137775834,,0.000055889999999999995,1.0174719137775834,,0.000055889999999999995,1.0195392246238075,,0.000055889999999999995,1.62,,0.000055889999999999995,1.62,,0.000055889999999999995,1.2852615052724383
0.000071515,2.0112540947037254,,0.000071515,1.6187606234583864,,0.000071515,1.6187606234583864,,0.000071515,1.6187606234583864,,0.000071515,1.2162087852127241,,0.000071515,1.2162087852127241,,0.000071515,1.2162087852127241,,0.000071515,1.2162087951726341,,0.000071515,0.894737641383088,,0.000071515,0.894737641383088,,0.000071515,0.8964469969322888,,0.000071515,1.62,,0.000071515,1.62,,0.000071515,1.2170758428180524
0.00008714,2.0644718045387465,,0.00008714,1.6187962196165289,,0.00008714,1.6187962196165289,,0.00008714,1.6187962196165289,,0.00008714,1.1631281920731045,,0.00008714,1.1631281920731045,,0.00008714,1.1631281920731045,,0.00008714,1.1631282003052947,,0.00008714,0.7990763813665525,,0.00008714,0.7990763813665525,,0.00008714,0.8003164642813984,,0.00008714,1.62,,0.00008714,1.62,,0.00008714,1.1639307275125768
0.000102765,2.1006087121880035,,0.000102765,1.6188149668714715,,0.000102765,1.6188149668714715,,0.000102765,1.6188149668714715,,0.000102765,1.1271017115048068,,0.000102765,1.1271017115048068,,0.000102765,1.1271017115048068,,0.000102765,1.127101718848557,,0.000102765,0.7341688097611351,,0.000102765,0.7341688097611351,,0.000102765,0.7349347425999334,,0.000102765,1.62,,0.000102765,1.62,,0.000102765,1.127870980614761
0.00011839,2.1182760965563463,,0.00011839,1.6188122674314922,,0.00011839,1.6188122674314922,,0.00011839,1.6188122674314922,,0.00011839,1.1095060638475533,,0.00011839,1.1095060638475533,,0.00011839,1.1095060638475533,,0.00011839,1.1095060713210285,,0.00011839,0.7025049792372544,,0.00011839,0.7025049792372544,,0.00011839,0.702727224512099,,0.00011839,1.62,,0.00011839,1.62,,0.00011839,1.1102799617561843
0.000134015,2.116795009970483,,0.000134015,1.618792080875395,,0.000134015,1.618792080875395,,0.000134015,1.618792080875395,,0.000134015,1.1110251492260288,,0.000134015,1.1110251492260288,,0.000134015,1.1110251492260288,,0.000134015,1.111025157696422,,0.000134015,0.7053058528464434,,0.000134015,0.7053058528464434,,0.000134015,0.7050134620734421,,0.000134015,1.62,,0.000134015,1.62,,0.000134015,1.111835986219439
0.00014963999999999998,2.0962223697573052,,0.00014963999999999998,1.6187513485001301,,0.00014963999999999998,1.6187513485001301,,0.00014963999999999998,1.6187513485001301,,0.00014963999999999998,1.1315929187052483,,0.00014963999999999998,1.1315929187052483,,0.00014963999999999998,1.1315929187052483,,0.00014963999999999998,1.1315929291485822,,0.00014963999999999998,0.7424597999975284,,0.00014963999999999998,0.7424597999975284,,0.00014963999999999998,0.7416287743321542,,0.00014963999999999998,1.62,,0.00014963999999999998,1.62,,0.00014963999999999998,1.1324770352187454
0.000165265,2.0573487709429363,,0.000165265,1.6186954488524479,,0.000165265,1.6186954488524479,,0.000165265,1.6186954488524479,,0.000165265,1.1704265884593938,,0.000165265,1.1704265884593938,,0.000165265,1.1704265884593938,,0.000165265,1.170426601627661,,0.000165265,0.8125428533525589,,0.000165265,0.8125428533525589,,0.000165265,0.8112381518611436,,0.000165265,1.62,,0.000165265,1.62,,0.000165265,1.1714120194868916
0.00018089,2.0016681041292466,,0.00018089,1.6186227380138107,,0.00018089,1.6186227380138107,,0.00018089,1.6186227380138107,,0.00018089,1.226026215704038,,0.00018089,1.226026215704038,,0.00018089,1.226026215704038,,0.00018089,1.2260262323937159,,0.00018089,0.9128580559129066,,0.00018089,0.9128580559129066,,0.00018089,0.9110988706857925,,0.00018089,1.62,,0.00018089,1.62,,0.00018089,1.2271426288679366
0.00019651500000000003,1.9313201461158085,,0.00019651500000000003,1.6185397813592275,,0.00019651500000000003,1.6185397813592275,,0.00019651500000000003,1.6185397813592275,,0.00019651500000000003,1.2962626777940816,,0.00019651500000000003,1.2962626777940816,,0.00019651500000000003,1.2962626777940816,,0.00019651500000000003,1.2962626985162,,0.00019651500000000003,1.0395539097341795,,0.00019651500000000003,1.0395539097341795,,0.00019651500000000003,1.037436843708815,,0.00019651500000000003,1.62,,0.00019651500000000003,1.62,,0.00019651500000000003,1.2975291470087118
0.00021214000000000004,1.8490083294774893,,0.00021214000000000004,1.6184460165793446,,0.00021214000000000004,1.6184460165793446,,0.00021214000000000004,1.6184460165793446,,0.00021214000000000004,1.3784293238940755,,0.00021214000000000004,1.3784293238940755,,0.00021214000000000004,1.3784293238940755,,0.00021214000000000004,1.3784293491556725,,0.00021214000000000004,1.18775812826371,,0.00021214000000000004,1.18775812826371,,0.00021214000000000004,1.185337369406468,,0.00021214000000000004,1.62,,0.00021214000000000004,1.62,,0.00021214000000000004,1.3798647481485906
0.00022776500000000005,1.757895851166701,,0.00022776500000000005,1.6183487765776194,,0.00022776500000000005,1.6183487765776194,,0.00022776500000000005,1.6183487765776194,,0.00022776500000000005,1.4693759925989611,,0.00022776500000000005,1.4693759925989611,,0.00022776500000000005,1.4693759925989611,,0.00022776500000000005,1.469376022580865,,0.00022776500000000005,1.3517786066431288,,0.00022776500000000005,1.3517786066431288,,0.00022776500000000005,1.349172637218218,,0.00022776500000000005,1.62,,0.00022776500000000005,1.62,,0.00022776500000000005,1.4709871572224105
0.00024339000000000007,1.6614841126284605,,0.00024339000000000007,1.6182480892492273,,0.00024339000000000007,1.6182480892492273,,0.00024339000000000007,1.6182480892492273,,0.00024339000000000007,1.5656002340553707,,0.00024339000000000007,1.5656002340553707,,0.00024339000000000007,1.5656002340553707,,0.00024339000000000007,1.5656002689094988,,0.00024339000000000007,1.525308943687617,,0.00024339000000000007,1.525308943687617,,0.00024339000000000007,1.5225940660550672,,0.00024339000000000007,1.62,,0.00024339000000000007,1.62,,0.00024339000000000007,1.5673928185391621
0.0002590150000000001,1.5634781629064667,,0.0002590150000000001,1.6181515124812977,,0.0002590150000000001,1.6181515124812977,,0.0002590150000000001,1.6181515124812977,,0.0002590150000000001,1.6634115792607989,,0.0002590150000000001,1.6634115792607989,,0.0002590150000000001,1.6634115792607989,,0.0002590150000000001,1.663411618798671,,0.0002590150000000001,1.7016835248231308,,0.0002590150000000001,1.7016835248231308,,0.0002590150000000001,1.698986403161224,,0.0002590150000000001,1.62,,0.0002590150000000001,1.62,,0.0002590150000000001,1.6653786185433461
0.0002746400000000001,1.467644315686166,,0.0002746400000000001,1.6180590894714233,,0.0002746400000000001,1.6180590894714233,,0.0002746400000000001,1.6180590894714233,,0.0002746400000000001,1.7590438542747293,,0.0002746400000000001,1.7590438542747293,,0.0002746400000000001,1.7590438542747293,,0.0002746400000000001,1.759043898281653,,0.0002746400000000001,1.8741214207677317,,0.0002746400000000001,1.8741214207677317,,0.0002746400000000001,1.87152478852322,,0.0002746400000000001,1.62,,0.0002746400000000001,1.62,,0.0002746400000000001,1.7611773747825532
0.0002902650000000001,1.377665411971994,,0.0002902650000000001,1.6179780199776994,,0.0002902650000000001,1.6179780199776994,,0.0002902650000000001,1.6179780199776994,,0.0002902650000000001,1.848829257962121,,0.0002902650000000001,1.848829257962121,,0.0002902650000000001,1.848829257962121,,0.0002902650000000001,1.8488293058973062,,0.0002902650000000001,2.0359987732523637,,0.0002902650000000001,2.0359987732523637,,0.0002902650000000001,2.0336220033900547,,0.0002902650000000001,1.62,,0.0002902650000000001,1.62,,0.0002902650000000001,1.8511091714126744
0.0003058900000000001,1.2969992905729355,,0.0003058900000000001,1.6179077915451998,,0.0003058900000000001,1.6179077915451998,,0.0003058900000000001,1.6179077915451998,,0.0003058900000000001,1.9293101293810877,,0.0003058900000000001,1.9293101293810877,,0.0003058900000000001,1.9293101293810877,,0.0003058900000000001,1.9293101807076662,,0.0003058900000000001,2.1810919918778295,,0.0003058900000000001,2.1810919918778295,,0.0003058900000000001,2.179008083955808,,0.0003058900000000001,1.62,,0.0003058900000000001,1.62,,0.0003058900000000001,1.9317164581939719
0.00032151500000000014,1.2287459052962744,,0.00032151500000000014,1.617854710974469,,0.00032151500000000014,1.617854710974469,,0.00032151500000000014,1.617854710974469,,0.00032151500000000014,1.9974008472762073,,0.00032151500000000014,1.9974008472762073,,0.00032151500000000014,1.9974008472762073,,0.00032151500000000014,1.9974009011716112,,0.00032151500000000014,2.30382784711771,,0.00032151500000000014,2.30382784711771,,0.00032151500000000014,2.302134053077004,,0.00032151500000000014,1.62,,0.00032151500000000014,1.62,,0.00032151500000000014,1.9999030012444623
0.00033714000000000015,1.175528195461253,,0.00033714000000000015,1.6178172299950278,,0.00033714000000000015,1.6178172299950278,,0.00033714000000000015,1.6178172299950278,,0.00033714000000000015,2.0504775448809505,,0.00033714000000000015,2.0504775448809505,,0.00033714000000000015,2.0504775448809505,,0.00033714000000000015,2.0504776005797125,,0.00033714000000000015,2.399487140007762,,0.00033714000000000015,2.399487140007762,,0.00033714000000000015,2.3982324803039434,,0.00033714000000000015,1.62,,0.00033714000000000015,1.62,,0.00033714000000000015,2.0530470224568402
0.00035276500000000016,1.1393912878119965,,0.00035276500000000016,1.6178003574058213,,0.00035276500000000016,1.6178003574058213,,0.00035276500000000016,1.6178003574058213,,0.00035276500000000016,2.08650764890104,,0.00035276500000000016,2.08650764890104,,0.00035276500000000016,2.08650764890104,,0.00035276500000000016,2.086507705412158,,0.00035276500000000016,2.464396159262408,,0.00035276500000000016,2.464396159262408,,0.00035276500000000016,2.463643891950691,,0.00035276500000000016,1.62,,0.00035276500000000016,1.62,,0.00035276500000000016,2.0891075748565986
0.0003683900000000002,1.121723903443654,,0.0003683900000000002,1.6178011927731655,,0.0003683900000000002,1.6178011927731655,,0.0003683900000000002,1.6178011927731655,,0.0003683900000000002,2.104099442560564,,0.0003683900000000002,2.104099442560564,,0.0003683900000000002,2.104099442560564,,0.0003683900000000002,2.1040994990184303,,0.0003683900000000002,2.496058153121624,,0.0003683900000000002,2.496058153121624,,0.0003683900000000002,2.4958231102754556,,0.0003683900000000002,1.62,,0.0003683900000000002,1.62,,0.0003683900000000002,2.1066975720870755
0.0003840150000000002,1.1232049900295173,,0.0003840150000000002,1.617823233375601,,0.0003840150000000002,1.617823233375601,,0.0003840150000000002,1.617823233375601,,0.0003840150000000002,2.102583939435041,,0.0003840150000000002,2.102583939435041,,0.0003840150000000002,2.102583939435041,,0.0003840150000000002,2.102583994819132,,0.0003840150000000002,2.4932586014213487,,0.0003840150000000002,2.4932586014213487,,0.0003840150000000002,2.4935629881752868,,0.0003840150000000002,1.62,,0.0003840150000000002,1.62,,0.0003840150000000002,2.10514228328289
0.0003996400000000002,1.1437776302426954,,0.0003996400000000002,1.6178621221690364,,0.0003996400000000002,1.6178621221690364,,0.0003996400000000002,1.6178621221690364,,0.0003996400000000002,2.0820123569793663,,0.0003996400000000002,2.0820123569793663,,0.0003996400000000002,2.0820123569793663,,0.0003996400000000002,2.082012410467706,,0.0003996400000000002,2.4561029391928053,,0.0003996400000000002,2.4561029391928053,,0.0003996400000000002,2.4569227338145856,,0.0003996400000000002,1.62,,0.0003996400000000002,1.62,,0.0003996400000000002,2.084500280192173
0.0004152650000000002,1.1826512290570645,,0.0004152650000000002,1.617919855499856,,0.0004152650000000002,1.617919855499856,,0.0004152650000000002,1.617919855499856,,0.0004152650000000002,2.0431822287913657,,0.0004152650000000002,2.0431822287913657,,0.0004152650000000002,2.0431822287913657,,0.0004152650000000002,2.0431822794772527,,0.0004152650000000002,2.3860210903334518,,0.0004152650000000002,2.3860210903334518,,0.0004152650000000002,2.3873363180388782,,0.0004152650000000002,1.62,,0.0004152650000000002,1.62,,0.0004152650000000002,2.045565966364256
0.00043089000000000023,1.2383318958707545,,0.00043089000000000023,1.6179907429929266,,0.00043089000000000023,1.6179907429929266,,0.00043089000000000023,1.6179907429929266,,0.00043089000000000023,1.9875788290824368,,0.00043089000000000023,1.9875788290824368,,0.00043089000000000023,1.9875788290824368,,0.00043089000000000023,1.9875788763247142,,0.00043089000000000023,2.2857042864696586,,0.00043089000000000023,2.2857042864696586,,0.00043089000000000023,2.287453619528436,,0.00043089000000000023,1.62,,0.00043089000000000023,1.62,,0.00043089000000000023,1.9898344660896148
0.00044651500000000025,1.308679853884193,,0.00044651500000000025,1.618075513220346,,0.00044651500000000025,1.618075513220346,,0.00044651500000000025,1.618075513220346,,0.00044651500000000025,1.9173458683776812,,0.00044651500000000025,1.9173458683776812,,0.00044651500000000025,1.9173458683776812,,0.00044651500000000025,1.9173459115094327,,0.00044651500000000025,2.159009527060378,,0.00044651500000000025,2.159009527060378,,0.00044651500000000025,2.161135825794937,,0.00044651500000000025,1.62,,0.00044651500000000025,1.62,,0.00044651500000000025,1.9194485572408113
0.00046214000000000026,1.390991670522512,,0.00046214000000000026,1.618167474639656,,0.00046214000000000026,1.618167474639656,,0.00046214000000000026,1.618167474639656,,0.00046214000000000026,1.8351754898228827,,0.00046214000000000026,1.8351754898228827,,0.00046214000000000026,1.8351754898228827,,0.00046214000000000026,1.8351755284934799,,0.00046214000000000026,2.010803814126304,,0.00046214000000000026,2.010803814126304,,0.00046214000000000026,2.013215934127051,,0.00046214000000000026,1.62,,0.00046214000000000026,1.62,,0.00046214000000000026,1.8371121245869106
0.0004777650000000003,1.4821041488333004,,0.0004777650000000003,1.6182665083535663,,0.0004777650000000003,1.6182665083535663,,0.0004777650000000003,1.6182665083535663,,0.0004777650000000003,1.7442322828215233,,0.0004777650000000003,1.7442322828215233,,0.0004777650000000003,1.7442322828215233,,0.0004777650000000003,1.7442323166932454,,0.0004777650000000003,1.8467843265229582,,0.0004777650000000003,1.8467843265229582,,0.0004777650000000003,1.8493983906666525,,0.0004777650000000003,1.62,,0.0004777650000000003,1.62,,0.0004777650000000003,1.745990267237447
