X--Trace 1::[transient: TIME],Y--Trace 1::[PR1: V(1)],,X--Trace 2::[transient: TIME],Y--Trace 2::[PR2: V(2)],,X--Trace 3::[transient: TIME],Y--Trace 3::[PR3: V(2)],,X--Trace 4::[transient: TIME],Y--Trace 4::[PR4: V(2)],,X--Trace 5::[transient: TIME],Y--Trace 5::[PR5: V(3)],,X--Trace 6::[transient: TIME],Y--Trace 6::[PR6: V(3)],,X--Trace 7::[transient: TIME],Y--Trace 7::[PR7: V(3)],,X--Trace 8::[transient: TIME],Y--Trace 8::[PR8: V(5)],,X--Trace 9::[transient: TIME],Y--Trace 9::[PR9: V(7)],,X--Trace 10::[transient: TIME],Y--Trace 10::[PR14: V(7)],,X--Trace 11::[transient: TIME],Y--Trace 11::[PR10: V(8)],,X--Trace 12::[transient: TIME],Y--Trace 12::[PR11: V(4)],,X--Trace 13::[transient: TIME],Y--Trace 13::[PR12: V(4)],,X--Trace 14::[transient: TIME],Y--Trace 14::[PR13: V(6)]
0,1.62,,0,1.6183075931279622,,0,1.6183075931279622,,0,1.6183075931279622,,0,1.606405355166574,,0,1.606405355166574,,0,1.606405355166574,,0,1.606405386771367,,0,1.5866223901549323,,0,1.5866223901549323,,0,1.5866223900740146,,0,1.62,,0,1.62,,0,1.6080779987016027
1e-7,1.6206283183653514,,1e-7,1.6183904253586145,,1e-7,1.6183904253586145,,1e-7,1.6183904253586145,,1e-7,1.6059427026363402,,1e-7,1.6059427026363402,,1e-7,1.6059427026363402,,1e-7,1.6059427211974149,,1e-7,1.5839733621096759,,1e-7,1.5839733621096759,,1e-7,1.5858425761072152,,1e-7,1.62,,1e-7,1.62,,1e-7,1.6071322278366116
2e-7,1.6212566357385019,,2e-7,1.6184051219351303,,2e-7,1.6184051219351303,,2e-7,1.6184051219351303,,2e-7,1.6053437805506219,,2e-7,1.6053437805506219,,2e-7,1.6053437805506219,,2e-7,1.6053438096870347,,2e-7,1.5833937998751069,,2e-7,1.5833937998751069,,2e-7,1.5851217117230674,,2e-7,1.62,,2e-7,1.62,,2e-7,1.6069249895370088
4e-7,1.6225132635394095,,4e-7,1.6184117917345338,,4e-7,1.6184117917345338,,4e-7,1.6184117917345338,,4e-7,1.6041004979339744,,4e-7,1.6041004979339744,,4e-7,1.6041004979339744,,4e-7,1.6041005034842897,,4e-7,1.5774649695044727,,4e-7,1.5774649695044727,,4e-7,1.5823590816883022,,4e-7,1.62,,4e-7,1.62,,4e-7,1.604808111727889
8e-7,1.6250264635783653,,8e-7,1.6184106899334656,,8e-7,1.6184106899334656,,8e-7,1.6184106899334656,,8e-7,1.6015851131036207,,8e-7,1.6015851131036207,,8e-7,1.6015851131036207,,8e-7,1.601585167315736,,8e-7,1.5754716107080147,,8e-7,1.5754716107080147,,8e-7,1.5770001627320844,,8e-7,1.62,,8e-7,1.62,,8e-7,1.604095039283071
0.0000016,1.6300524191627288,,0.0000016,1.6184186626054429,,0.0000016,1.6184186626054429,,0.0000016,1.6184186626054429,,0.0000016,1.5965751708883102,,0.0000016,1.5965751708883102,,0.0000016,1.5965751708883102,,0.0000016,1.5965751544204116,,0.0000016,1.5541089427556614,,0.0000016,1.5541089427556614,,0.0000016,1.5617306475464865,,0.0000016,1.62,,0.0000016,1.62,,0.0000016,1.5964671980021214
0.0000032,1.6401007746814766,,0.0000032,1.618425930300176,,0.0000032,1.618425930300176,,0.0000032,1.618425930300176,,0.0000032,1.5865416084984176,,0.0000032,1.5865416084984176,,0.0000032,1.5865416084984176,,0.0000032,1.586541676226554,,0.0000032,1.5347519761654405,,0.0000032,1.5347519761654405,,0.0000032,1.5351072936330041,,0.0000032,1.62,,0.0000032,1.62,,0.0000032,1.5895519911343907
0.000006064918048064525,1.6580701234498394,,0.000006064918048064525,1.6184462375482795,,0.000006064918048064525,1.6184462375482795,,0.000006064918048064525,1.6184462375482795,,0.000006064918048064525,1.5686137406087266,,0.000006064918048064525,1.5686137406087266,,0.000006064918048064525,1.5686137406087266,,0.000006064918048064525,1.5686137131351527,,0.000006064918048064525,1.4746740596756172,,0.000006064918048064525,1.4746740596756172,,0.000006064918048064525,1.4830326356515928,,0.000006064918048064525,1.62,,0.000006064918048064525,1.62,,0.000006064918048064525,1.5680978594865094
0.000010836415644680653,1.6878769737155075,,0.000010836415644680653,1.6184741839201946,,0.000010836415644680653,1.6184741839201946,,0.000010836415644680653,1.6184741839201946,,0.000010836415644680653,1.5388653751745565,,0.000010836415644680653,1.5388653751745565,,0.000010836415644680653,1.5388653751745565,,0.000010836415644680653,1.5388653960842544,,0.000010836415644680653,1.3963986875086292,,0.000010836415644680653,1.3963986875086292,,0.000010836415644680653,1.4004195947274383,,0.000010836415644680653,1.62,,0.000010836415644680653,1.62,,0.000010836415644680653,1.5401412179948495
0.000016305296919573544,1.721733845120839,,0.000016305296919573544,1.6185067709341427,,0.000016305296919573544,1.6185067709341427,,0.000016305296919573544,1.6185067709341427,,0.000016305296919573544,1.5050784035209028,,0.000016305296919573544,1.5050784035209028,,0.000016305296919573544,1.5050784035209028,,0.000016305296919573544,1.5050784191731466,,0.000016305296919573544,1.3012486363000733,,0.000016305296919573544,1.3012486363000733,,0.000016305296919573544,1.3054576726890725,,0.000016305296919573544,1.62,,0.000016305296919573544,1.62,,0.000016305296919573544,1.5061591826805734
0.00002724305946935932,1.7878491173221722,,0.00002724305946935932,1.6185691612169741,,0.00002724305946935932,1.6185691612169741,,0.00002724305946935932,1.6185691612169741,,0.00002724305946935932,1.439102880086325,,0.00002724305946935932,1.439102880086325,,0.00002724305946935932,1.439102880086325,,0.00002724305946935932,1.4391028927186649,,0.00002724305946935932,1.1162019348022247,,0.00002724305946935932,1.1162019348022247,,0.00002724305946935932,1.1201163713891389,,0.00002724305946935932,1.62,,0.00002724305946935932,1.62,,0.00002724305946935932,1.440071148179071
0.000042868059469359325,1.8765085182345973,,0.000042868059469359325,1.6186494195224326,,0.000042868059469359325,1.6186494195224326,,0.000042868059469359325,1.6186494195224326,,0.000042868059469359325,1.3506375666959323,,0.000042868059469359325,1.3506375666959323,,0.000042868059469359325,1.3506375666959323,,0.000042868059469359325,1.350637571550992,,0.000042868059469359325,0.8676895024853236,,0.000042868059469359325,0.8676895024853236,,0.000042868059469359325,0.8714059009661712,,0.000042868059469359325,1.62,,0.000042868059469359325,1.62,,0.000042868059469359325,1.3513168949490313
0.000058493059469359325,1.9553104406429012,,0.000058493059469359325,1.6187161780479433,,0.000058493059469359325,1.6187161780479433,,0.000058493059469359325,1.6187161780479433,,0.000058493059469359325,1.2720159122627948,,0.000058493059469359325,1.2720159122627948,,0.000058493059469359325,1.2720159122627948,,0.000058493059469359325,1.2720159138242912,,0.000058493059469359325,0.6472048809244128,,0.000058493059469359325,0.6472048809244128,,0.000058493059469359325,0.6502731878176959,,0.000058493059469359325,1.62,,0.000058493059469359325,1.62,,0.000058493059469359325,1.2725724671847338
0.00007411805946935933,2.0212265708615598,,0.00007411805946935933,1.618767565886742,,0.00007411805946935933,1.618767565886742,,0.00007411805946935933,1.618767565886742,,0.00007411805946935933,1.2062606896223378,,0.00007411805946935933,1.2062606896223378,,0.00007411805946935933,1.2062606896223378,,0.00007411805946935933,1.2062606855450886,,0.00007411805946935933,0.462503262313235,,0.00007411805946935933,0.462503262313235,,0.00007411805946935933,0.46511587788354286,,0.00007411805946935933,1.62,,0.00007411805946935933,1.62,,0.00007411805946935933,1.206607738921726
0.00008974305946935933,2.071723788972462,,0.00008974305946935933,1.6188009174448883,,0.00008974305946935933,1.6188009174448883,,0.00008974305946935933,1.6188009174448883,,0.00008974305946935933,1.1558974511066784,,0.00008974305946935933,1.1558974511066784,,0.00008974305946935933,1.1558974511066784,,0.00008974305946935933,1.1558974463108835,,0.00008974305946935933,0.32141021579728407,,0.00008974305946935933,0.32141021579728407,,0.00008974305946935933,0.3231532410257894,,0.00008974305946935933,1.62,,0.00008974305946935933,1.62,,0.00008974305946935933,1.1562173832458746
0.00010536805946935933,2.1048615152027716,,0.00010536805946935933,1.6188156380642285,,0.00010536805946935933,1.6188156380642285,,0.00010536805946935933,1.6188156380642285,,0.00010536805946935933,1.1228629993511026,,0.00010536805946935933,1.1228629993511026,,0.00010536805946935933,1.1228629993511026,,0.00010536805946935933,1.1228629916414505,,0.00010536805946935933,0.22861044396005195,,0.00010536805946935933,0.22861044396005195,,0.00010536805946935933,0.22973368029778185,,0.00010536805946935933,1.62,,0.00010536805946935933,1.62,,0.00010536805946935933,1.1230746776057754
0.00012099305946935933,2.119366285317309,,0.00012099305946935933,1.618810478766953,,0.00012099305946935933,1.618810478766953,,0.00012099305946935933,1.618810478766953,,0.00012099305946935933,1.1084254608441533,,0.00012099305946935933,1.1084254608441533,,0.00012099305946935933,1.1084254608441533,,0.00012099305946935933,1.1084254553761046,,0.00012099305946935933,0.1884175493843567,,0.00012099305946935933,0.1884175493843567,,0.00012099305946935933,0.18855765923318935,,0.00012099305946935933,1.62,,0.00012099305946935933,1.62,,0.00012099305946935933,1.1087200193060291
0.0001366180594693593,2.114680689134942,,0.0001366180594693593,1.6187863173766899,,0.0001366180594693593,1.6187863173766899,,0.0001366180594693593,1.6187863173766899,,0.0001366180594693593,1.1131410187802007,,0.0001366180594693593,1.1131410187802007,,0.0001366180594693593,1.1131410187802007,,0.0001366180594693593,1.113141013287356,,0.0001366180594693593,0.20161867073317524,,0.0001366180594693593,0.20161867073317524,,0.0001366180594693593,0.20109392807827303,,0.0001366180594693593,1.62,,0.0001366180594693593,1.62,,0.0001366180594693593,1.1134347060014789
0.00015224305946935933,2.0909847914892454,,0.00015224305946935933,1.6187434065518913,,0.00015224305946935933,1.6187434065518913,,0.00015224305946935933,1.6187434065518913,,0.00015224305946935933,1.1368271027915235,,0.00015224305946935933,1.1368271027915235,,0.00015224305946935933,1.1368271027915235,,0.00015224305946935933,1.1368271024423453,,0.00015224305946935933,0.26847414504653583,,0.00015224305946935933,0.26847414504653583,,0.00015224305946935933,0.266977475043013,,0.00015224305946935933,1.62,,0.00015224305946935933,1.62,,0.00015224305946935933,1.1373115381859282
0.00016708680946935932,2.0516867553993468,,0.00016708680946935932,1.618687041107945,,0.00016708680946935932,1.618687041107945,,0.00016708680946935932,1.618687041107945,,0.00016708680946935932,1.176079430264162,,0.00016708680946935932,1.176079430264162,,0.00016708680946935932,1.176079430264162,,0.00016708680946935932,1.1760794332266542,,0.00016708680946935932,0.3787254257157619,,0.00016708680946935932,0.3787254257157619,,0.00016708680946935932,0.37658555161621554,,0.00016708680946935932,1.62,,0.00016708680946935932,1.62,,0.00016708680946935932,1.1766869159598672
0.00018271180946935933,1.9941741082542044,,0.00018271180946935933,1.618613754007573,,0.00018271180946935933,1.618613754007573,,0.00018271180946935933,1.618613754007573,,0.00018271180946935933,1.2335084843456787,,0.00018271180946935933,1.2335084843456787,,0.00018271180946935933,1.2335084843456787,,0.00018271180946935933,1.233508492867516,,0.00018271180946935933,0.5401052990931097,,0.00018271180946935933,0.5401052990931097,,0.00018271180946935933,0.5372926422113969,,0.00018271180946935933,1.62,,0.00018271180946935933,1.62,,0.00018271180946935933,1.2343224515476485
0.00019833680946935935,1.9222821599681106,,0.00019833680946935935,1.6185291233704842,,0.00019833680946935935,1.6185291233704842,,0.00019833680946935935,1.6185291233704842,,0.00019833680946935935,1.305284282498142,,0.00019833680946935935,1.305284282498142,,0.00019833680946935935,1.305284282498142,,0.00019833680946935935,1.3052842974151624,,0.00019833680946935935,0.7417431959654952,,0.00019833680946935935,0.7417431959654952,,0.00019833680946935935,0.7383859872082915,,0.00019833680946935935,1.62,,0.00019833680946935935,1.62,,0.00019833680946935935,1.3063358324913474
0.00021396180946935936,1.8387736777962307,,0.00021396180946935936,1.6184350031475967,,0.00021396180946935936,1.6184350031475967,,0.00021396180946935936,1.6184350031475967,,0.00021396180946935936,1.3886453616808432,,0.00021396180946935936,1.3886453616808432,,0.00021396180946935936,1.3886453616808432,,0.00021396180946935936,1.3886453837248172,,0.00021396180946935936,0.9758961428699229,,0.00021396180946935936,0.9758961428699229,,0.00021396180946935936,0.9720831487095749,,0.00021396180946935936,1.62,,0.00021396180946935936,1.62,,0.00021396180946935936,1.3899617136567746
0.00022958680946935937,1.7468578458763335,,0.00022958680946935937,1.618336927023996,,0.00022958680946935937,1.618336927023996,,0.00022958680946935937,1.618336927023996,,0.00022958680946935937,1.4803920333467424,,0.00022958680946935937,1.4803920333467424,,0.00022958680946935937,1.4803920333467424,,0.00022958680946935937,1.480392062795654,,0.00022958680946935937,1.2335578312606,,0.00022958680946935937,1.2335578312606,,0.00022958680946935937,1.229473672222456,,0.00022958680946935937,1.62,,0.00022958680946935937,1.62,,0.00022958680946935937,1.4819835671438901
0.0002452118094693594,1.6500669380821087,,0.0002452118094693594,1.618236757957768,,0.0002452118094693594,1.618236757957768,,0.0002452118094693594,1.618236757957768,,0.0002452118094693594,1.5769947098404347,,0.0002452118094693594,1.5769947098404347,,0.0002452118094693594,1.5769947098404347,,0.0002452118094693594,1.5769947468701238,,0.0002452118094693594,1.5048347168468303,,0.0002452118094693594,1.5048347168468303,,0.0002452118094693594,1.5006002776875045,,0.0002452118094693594,1.62,,0.0002452118094693594,1.62,,0.0002452118094693594,1.578867986777582
0.0002608368094693594,1.5521205747191213,,0.0002608368094693594,1.6181402408730199,,0.0002608368094693594,1.6181402408730199,,0.0002608368094693594,1.6181402408730199,,0.0002608368094693594,1.6747447930279404,,0.0002608368094693594,1.6747447930279404,,0.0002608368094693594,1.6747447930279404,,0.0002608368094693594,1.6747448373380267,,0.0002608368094693594,1.7792932019682806,,0.0002608368094693594,1.7792932019682806,,0.0002608368094693594,1.77510538505824,,0.0002608368094693594,1.62,,0.0002608368094693594,1.62,,0.0002608368094693594,1.676888699089554
0.0002764618094693594,1.4567827796024577,,0.0002764618094693594,1.6180491998970146,,0.0002764618094693594,1.6180491998970146,,0.0002764618094693594,1.6180491998970146,,0.0002764618094693594,1.769882029680481,,0.0002764618094693594,1.769882029680481,,0.0002764618094693594,1.769882029680481,,0.0002764618094693594,1.7698820808781224,,0.0002764618094693594,2.046394877014989,,0.0002764618094693594,2.046394877014989,,0.0002764618094693594,2.0423822130059768,,0.0002764618094693594,1.62,,0.0002764618094693594,1.62,,0.0002764618094693594,1.772281988635832
0.00029208680946935943,1.3677173307324004,,0.00029208680946935943,1.6179690082159186,,0.00029208680946935943,1.6179690082159186,,0.00029208680946935943,1.6179690082159186,,0.00029208680946935943,1.8587540957949231,,0.00029208680946935943,1.8587540957949231,,0.00029208680946935943,1.8587540957949231,,0.00029208680946935943,1.8587541530328893,,0.00029208680946935943,2.2958659789845544,,0.00029208680946935943,2.2958659789845544,,0.00029208680946935943,2.292213421564008,,0.00029208680946935943,1.62,,0.00029208680946935943,1.62,,0.00029208680946935943,1.861378665233719
0.00030771180946935944,1.2883469633605458,,0.00030771180946935944,1.6179008834006725,,0.00030771180946935944,1.6179008834006725,,0.00030771180946935944,1.6179008834006725,,0.00030771180946935944,1.9379419570003567,,0.00030771180946935944,1.9379419570003567,,0.00030771180946935944,1.9379419570003567,,0.00030771180946935944,1.9379420193913401,,0.00030771180946935944,2.5181289568633645,,0.00030771180946935944,2.5181289568633645,,0.00030771180946935944,2.5149476708944873,,0.00030771180946935944,1.62,,0.00030771180946935944,1.62,,0.00030771180946935944,1.9407581759699133
0.00032333680946935946,1.2217218361935795,,0.00032333680946935946,1.6178492972923733,,0.00032333680946935946,1.6178492972923733,,0.00032333680946935946,1.6178492972923733,,0.00032333680946935946,2.0044061734687793,,0.00032333680946935946,2.0044061734687793,,0.00032333680946935946,2.0044061734687793,,0.00032333680946935946,2.0044062397330813,,0.00032333680946935946,2.7046325741462227,,0.00032333680946935946,2.7046325741462227,,0.00032333680946935946,2.70207256858796,,0.00032333680946935946,1.62,,0.00032333680946935946,1.62,,0.00032333680946935946,2.007366517208254
0.00033896180946935947,1.1704023155047267,,0.00033896180946935947,1.6178143887266185,,0.00033896180946935947,1.6178143887266185,,0.00033896180946935947,1.6178143887266185,,0.00033896180946935947,2.0555888730468097,,0.00033896180946935947,2.0555888730468097,,0.00033896180946935947,2.0555888730468097,,0.00033896180946935947,2.0555889419525313,,0.00033896180946935947,2.8482196772983794,,0.00033896180946935947,2.8482196772983794,,0.00033896180946935947,2.8463529302299193,,0.00033896180946935947,1.62,,0.00033896180946935947,1.62,,0.00033896180946935947,2.058647561597553
0.0003545868094693595,1.136360581693741,,0.0003545868094693595,1.617799332630136,,0.0003545868094693595,1.617799332630136,,0.0003545868094693595,1.617799332630136,,0.0003545868094693595,2.0895267976979603,,0.0003545868094693595,2.0895267976979603,,0.0003545868094693595,2.0895267976979603,,0.0003545868094693595,2.089526867712785,,0.0003545868094693595,2.9433619135508757,,0.0003545868094693595,2.9433619135508757,,0.0003545868094693595,2.9422853016763453,,0.0003545868094693595,1.62,,0.0003545868094693595,1.62,,0.0003545868094693595,2.0926269046254857
0.0003702118094693595,1.1209048395001544,,0.0003702118094693595,1.6178028843157601,,0.0003702118094693595,1.6178028843157601,,0.0003702118094693595,1.6178028843157601,,0.0003702118094693595,2.1049120830335486,,0.0003702118094693595,2.1049120830335486,,0.0003702118094693595,2.1049120830335486,,0.0003702118094693595,2.1049121527836836,,0.0003702118094693595,2.9864136764244282,,0.0003702118094693595,2.9864136764244282,,0.0003702118094693595,2.9861446141160584,,0.0003702118094693595,1.62,,0.0003702118094693595,1.62,,0.0003702118094693595,2.1080025402287386
0.0003858368094693595,1.1246290444287863,,0.0003858368094693595,1.6178267205258232,,0.0003858368094693595,1.6178267205258232,,0.0003858368094693595,1.6178267205258232,,0.0003858368094693595,2.101157105214737,,0.0003858368094693595,2.101157105214737,,0.0003858368094693595,2.101157105214737,,0.0003858368094693595,2.1011571731331964,,0.0003858368094693595,2.9757095543658183,,0.0003858368094693595,2.9757095543658183,,0.0003858368094693595,2.976281240455411,,0.0003858368094693595,1.62,,0.0003858368094693595,1.62,,0.0003858368094693595,2.104179683178144
0.0004014618094693595,1.1473900773727874,,0.0004014618094693595,1.6178681220163476,,0.0004014618094693595,1.6178681220163476,,0.0004014618094693595,1.6178681220163476,,0.0004014618094693595,2.078402557062255,,0.0004014618094693595,2.078402557062255,,0.0004014618094693595,2.078402557062255,,0.0004014618094693595,2.0784026218580114,,0.0004014618094693595,2.911672128408652,,0.0004014618094693595,2.911672128408652,,0.0004014618094693595,2.913040761109795,,0.0004014618094693595,1.62,,0.0004014618094693595,1.62,,0.0004014618094693595,2.0813092486981346
0.00041708680946935954,1.1883132446006544,,0.00041708680946935954,1.6179272910551439,,0.00041708680946935954,1.6179272910551439,,0.00041708680946935954,1.6179272910551439,,0.00041708680946935954,2.037526467294632,,0.00041708680946935954,2.037526467294632,,0.00041708680946935954,2.037526467294632,,0.00041708680946935954,2.037526527588901,,0.00041708680946935954,2.7967507967274865,,0.00041708680946935954,2.7967507967274865,,0.00041708680946935954,2.7988846556988136,,0.00041708680946935954,1.62,,0.00041708680946935954,1.62,,0.00041708680946935954,2.0402660239235435
