X--Trace 1::[transient: TIME],Y--Trace 1::[PR1: V(1)],,X--Trace 2::[transient: TIME],Y--Trace 2::[PR2: V(2)],,X--Trace 3::[transient: TIME],Y--Trace 3::[PR3: V(2)],,X--Trace 4::[transient: TIME],Y--Trace 4::[PR4: V(2)],,X--Trace 5::[transient: TIME],Y--Trace 5::[PR5: V(3)],,X--Trace 6::[transient: TIME],Y--Trace 6::[PR6: V(3)],,X--Trace 7::[transient: TIME],Y--Trace 7::[PR7: V(3)],,X--Trace 8::[transient: TIME],Y--Trace 8::[PR8: V(5)],,X--Trace 9::[transient: TIME],Y--Trace 9::[PR9: V(7)],,X--Trace 10::[transient: TIME],Y--Trace 10::[PR14: V(7)],,X--Trace 11::[transient: TIME],Y--Trace 11::[PR10: V(8)],,X--Trace 12::[transient: TIME],Y--Trace 12::[PR11: V(4)],,X--Trace 13::[transient: TIME],Y--Trace 13::[PR12: V(4)],,X--Trace 14::[transient: TIME],Y--Trace 14::[PR13: V(6)]
0,1.62,,0,1.6183075931279718,,0,1.6183075931279718,,0,1.6183075931279718,,0,1.6064053551665793,,0,1.6064053551665793,,0,1.6064053551665793,,0,1.6064053870293569,,0,1.596177336215334,,0,1.596177336215334,,0,1.5961773361339289,,0,1.62,,0,1.62,,0,1.6080875539438828
1e-7,1.6206283183653514,,1e-7,1.6185042410514487,,1e-7,1.6185042410514487,,1e-7,1.6185042410514487,,1e-7,1.6053069950259389,,1e-7,1.6053069950259389,,1e-7,1.6053069950259389,,1e-7,1.6053070098532902,,1e-7,1.5927180455234495,,1e-7,1.5927180455234495,,1e-7,1.5951589991625328,,1e-7,1.62,,1e-7,1.62,,1e-7,1.6063582240914531
1.5870436618382507e-7,1.6209971682807711,,1.5870436618382507e-7,1.6185588933158168,,1.5870436618382507e-7,1.6185588933158168,,1.5870436618382507e-7,1.6185588933158168,,1.5870436618382507e-7,1.604419057125975,,1.5870436618382507e-7,1.604419057125975,,1.5870436618382507e-7,1.604419057125975,,1.5870436618382507e-7,1.6044190787532133,,1.5870436618382507e-7,1.5914461126867356,,1.5870436618382507e-7,1.5914461126867356,,1.5870436618382507e-7,1.5944285720081477,,1.5870436618382507e-7,1.62,,1.5870436618382507e-7,1.62,,1.5870436618382507e-7,1.6057221317600732
2.7611309855147516e-7,1.6217348662828979,,2.7611309855147516e-7,1.6186123617420678,,2.7611309855147516e-7,1.6186123617420678,,2.7611309855147516e-7,1.6186123617420678,,2.7611309855147516e-7,1.602419843921146,,2.7611309855147516e-7,1.602419843921146,,2.7611309855147516e-7,1.602419843921146,,2.7611309855147516e-7,1.6024198326819419,,2.7611309855147516e-7,1.5850118119297691,,2.7611309855147516e-7,1.5850118119297691,,2.7611309855147516e-7,1.591989303659338,,2.7611309855147516e-7,1.62,,2.7611309855147516e-7,1.62,,2.7611309855147516e-7,1.6025055900615688
5.109305632867754e-7,1.6232102493519103,,5.109305632867754e-7,1.618614298590802,,5.109305632867754e-7,1.618614298590802,,5.109305632867754e-7,1.618614298590802,,5.109305632867754e-7,1.5980014645525196,,5.109305632867754e-7,1.5980014645525196,,5.109305632867754e-7,1.5980014645525196,,5.109305632867754e-7,1.598001528549064,,5.109305632867754e-7,1.581750920109695,,5.109305632867754e-7,1.581750920109695,,5.109305632867754e-7,1.5863291393201415,,5.109305632867754e-7,1.62,,5.109305632867754e-7,1.62,,5.109305632867754e-7,1.600873750935346
9.80565492757376e-7,1.6261609187864994,,9.80565492757376e-7,1.6186242227119942,,9.80565492757376e-7,1.6186242227119942,,9.80565492757376e-7,1.6186242227119942,,9.80565492757376e-7,1.5891892289946363,,9.80565492757376e-7,1.5891892289946363,,9.80565492757376e-7,1.5891892289946363,,9.80565492757376e-7,1.5891891758362695,,9.80565492757376e-7,1.5554435574706278,,9.80565492757376e-7,1.5554435574706278,,9.80565492757376e-7,1.5687796906455673,,9.80565492757376e-7,1.62,,9.80565492757376e-7,1.62,,9.80565492757376e-7,1.5877222393267756
0.0000019080395378974203,1.6319874173129125,,0.0000019080395378974203,1.6186407746552176,,0.0000019080395378974203,1.6186407746552176,,0.0000019080395378974203,1.6186407746552176,,0.0000019080395378974203,1.5717762147618488,,0.0000019080395378974203,1.5717762147618488,,0.0000019080395378974203,1.5717762147618488,,0.0000019080395378974203,1.5717763082180738,,0.0000019080395378974203,1.5314832438399684,,0.0000019080395378974203,1.5314832438399684,,0.0000019080395378974203,1.5354004381961532,,0.0000019080395378974203,1.62,,0.0000019080395378974203,1.62,,0.0000019080395378974203,1.5757393676333096
0.0000034745353665165513,1.6418242137546297,,0.0000034745353665165513,1.6186706488656455,,0.0000034745353665165513,1.6186706488656455,,0.0000034745353665165513,1.6186706488656455,,0.0000034745353665165513,1.542386154925926,,0.0000034745353665165513,1.542386154925926,,0.0000034745353665165513,1.542386154925926,,0.0000034745353665165513,1.5423860794108637,,0.0000034745353665165513,1.4601795476228376,,0.0000034745353665165513,1.4601795476228376,,0.0000034745353665165513,1.4748062092851288,,0.0000034745353665165513,1.62,,0.0000034745353665165513,1.62,,0.0000034745353665165513,1.5400906491260893
0.000005982967438809125,1.6575566872147538,,0.000005982967438809125,1.6187168677960897,,0.000005982967438809125,1.6187168677960897,,0.000005982967438809125,1.6187168677960897,,0.000005982967438809125,1.4953759121014247,,0.000005982967438809125,1.4953759121014247,,0.000005982967438809125,1.4953759121014247,,0.000005982967438809125,1.4953759264469382,,0.000005982967438809125,1.3728179672288916,,0.000005982967438809125,1.3728179672288916,,0.000005982967438809125,1.3815130553240675,,0.000005982967438809125,1.62,,0.000005982967438809125,1.62,,0.000005982967438809125,1.4964081955162702
0.000008711019790549789,1.6746237081755362,,0.000008711019790549789,1.6187668843048642,,0.000008711019790549789,1.6187668843048642,,0.000008711019790549789,1.6187668843048642,,0.000008711019790549789,1.4443787697215578,,0.000008711019790549789,1.4443787697215578,,0.000008711019790549789,1.4443787697215578,,0.000008711019790549789,1.4443787746374965,,0.000008711019790549789,1.2701238058657986,,0.000008711019790549789,1.2701238058657986,,0.000008711019790549789,1.2792254878592533,,0.000008711019790549789,1.62,,0.000008711019790549789,1.62,,0.000008711019790549789,1.4450612902249027
0.000014167124494031117,1.7085452013093578,,0.000014167124494031117,1.6188654032951222,,0.000014167124494031117,1.6188654032951222,,0.000014167124494031117,1.6188654032951222,,0.000014167124494031117,1.3430202769544106,,0.000014167124494031117,1.3430202769544106,,0.000014167124494031117,1.3430202769544106,,0.000014167124494031117,1.3430202807399785,,0.000014167124494031117,1.0673210148233214,,0.000014167124494031117,1.0673210148233214,,0.000014167124494031117,1.0760696008961288,,0.000014167124494031117,1.62,,0.000014167124494031117,1.62,,0.000014167124494031117,1.343659917157265
0.000025079333900993777,1.774982493089185,,0.000025079333900993777,1.6190544876219508,,0.000025079333900993777,1.6190544876219508,,0.000025079333900993777,1.6190544876219508,,0.000025079333900993777,1.1445050943034356,,0.000025079333900993777,1.1445050943034356,,0.000025079333900993777,1.1445050943034356,,0.000025079333900993777,1.1445050836498718,,0.000025079333900993777,0.6692165442943996,,0.000025079333900993777,0.6692165442943996,,0.000025079333900993777,0.6779579738466225,,0.000025079333900993777,1.62,,0.000025079333900993777,1.62,,0.000025079333900993777,1.144607952267246
0.00004070433390099378,1.86474541200437,,0.00004070433390099378,1.6192994328818822,,0.00004070433390099378,1.6192994328818822,,0.00004070433390099378,1.6192994328818822,,0.00004070433390099378,0.8762907389982311,,0.00004070433390099378,0.8762907389982311,,0.00004070433390099378,0.8762907389982311,,0.00004070433390099378,0.8762907194755587,,0.00004070433390099378,0.13212514408958057,,0.00004070433390099378,0.13212514408958057,,0.00004070433390099378,0.13989242639629917,,0.00004070433390099378,1.62,,0.00004070433390099378,1.62,,0.00004070433390099378,0.8760624204341337
0.00004265745890099378,1.8753717785590125,,0.00004265745890099378,1.6193256158077063,,0.00004265745890099378,1.6193256158077063,,0.00004265745890099378,1.6193256158077063,,0.00004265745890099378,0.8445311571460427,,0.00004265745890099378,0.8445311571460427,,0.00004265745890099378,0.8445311571460427,,0.00004265745890099378,0.844531131719168,,0.00004265745890099378,0.06816776547072173,,0.00004265745890099378,0.06816776547072173,,0.00004265745890099378,0.07606668908749875,,0.00004265745890099378,1.62,,0.00004265745890099378,1.62,,0.00004265745890099378,0.8440838409403387
0.00004314574015099378,1.8780045828506615,,0.00004314574015099378,1.6193339948076753,,0.00004314574015099378,1.6193339948076753,,0.00004314574015099378,1.6193339948076753,,0.00004314574015099378,0.8366700544564531,,0.00004314574015099378,0.8366700544564531,,0.00004314574015099378,0.8366700544564531,,0.00004314574015099378,0.8366700340694826,,0.00004314574015099378,0.0528189255930028,,0.00004314574015099378,0.0528189255930028,,0.00004314574015099378,0.06035041544940942,,0.00004314574015099378,1.62,,0.00004314574015099378,1.62,,0.00004314574015099378,0.8364093277859794
0.00004412230265099378,1.8832409514959236,,0.00004412230265099378,1.61934670495591,,0.00004412230265099378,1.61934670495591,,0.00004412230265099378,1.61934670495591,,0.00004412230265099378,0.8210194934203225,,0.00004412230265099378,0.8210194934203225,,0.00004412230265099378,0.8210194934203225,,0.00004412230265099378,0.8210194655081817,,0.00004412230265099378,0.020959776258662927,,0.00004412230265099378,0.020959776258662927,,0.00004412230265099378,0.028878182028525,,0.00004412230265099378,1.62,,0.00004412230265099378,1.62,,0.00004412230265099378,0.8204798927113639
0.00004607542765099378,1.8935939768216419,,0.00004607542765099378,1.6193745847978624,,0.00004607542765099378,1.6193745847978624,,0.00004607542765099378,1.6193745847978624,,0.00004607542765099378,0.7900878046894841,,0.00004607542765099378,0.7900878046894841,,0.00004607542765099378,0.7900878046894841,,0.00004607542765099378,0.7900877781367058,,0.00004607542765099378,-0.04080347418928138,,0.00004607542765099378,-0.04080347418928138,,0.00004607542765099378,-0.03342852440582272,,0.00004607542765099378,1.62,,0.00004607542765099378,1.62,,0.00004607542765099378,0.7895982427774864
0.000046121253698517565,1.8938349346344914,,0.000046121253698517565,1.619374934414145,,0.000046121253698517565,1.619374934414145,,0.000046121253698517565,1.619374934414145,,0.000046121253698517565,0.789366709346851,,0.000046121253698517565,0.789366709346851,,0.000046121253698517565,0.789366709346851,,0.000046121253698517565,0.7893666957378467,,0.000046121253698517565,-0.04128637594470587,,0.000046121253698517565,-0.04128637594470587,,0.000046121253698517565,-0.03475758849251396,,0.000046121253698517565,1.62,,0.000046121253698517565,1.62,,0.000046121253698517565,0.7893565522062775
0.00004613271021039851,1.893895159901772,,0.00004613271021039851,1.6193750682428822,,0.00004613271021039851,1.6193750682428822,,0.00004613271021039851,1.6193750682428822,,0.00004613271021039851,0.7891866638195796,,0.00004613271021039851,0.7891866638195796,,0.00004613271021039851,0.7891866638195796,,0.00004613271021039851,0.7891866564246042,,0.00004613271021039851,-0.04118592958575977,,0.00004613271021039851,-0.04118592958575977,,0.00004613271021039851,-0.03506000578451265,,0.00004613271021039851,1.62,,0.00004613271021039851,1.62,,0.00004613271021039851,0.7894066603115399
0.00004615562323416041,1.8940155934044767,,0.00004615562323416041,1.6193753369316053,,0.00004615562323416041,1.6193753369316053,,0.00004615562323416041,1.6193753369316053,,0.00004615562323416041,0.7888266280479818,,0.00004615562323416041,0.7888266280479818,,0.00004615562323416041,0.7888266280479818,,0.00004615562323416041,0.7888266405088763,,0.00004615562323416041,-0.04043442802849847,,0.00004615562323416041,-0.04043442802849847,,0.00004615562323416041,-0.035584594416812894,,0.00004615562323416041,1.62,,0.00004615562323416041,1.62,,0.00004615562323416041,0.7897820433869214
0.00004620144928168419,1.8942563922475169,,0.00004620144928168419,1.6193759101177445,,0.00004620144928168419,1.6193759101177445,,0.00004620144928168419,1.6193759101177445,,0.00004620144928168419,0.7881069044761917,,0.00004620144928168419,0.7881069044761917,,0.00004620144928168419,0.7881069044761917,,0.00004620144928168419,0.7881070437624466,,0.00004620144928168419,-0.03247446747213961,,0.00004620144928168419,-0.03247446747213961,,0.00004620144928168419,-0.03573638407120861,,0.00004620144928168419,1.62,,0.00004620144928168419,1.62,,0.00004620144928168419,0.7937596750111391
0.00004625406051201258,1.8945327325526249,,0.00004625406051201258,1.6193766081207834,,0.00004625406051201258,1.6193766081207834,,0.00004625406051201258,1.6193766081207834,,0.00004625406051201258,0.7872811124918128,,0.00004625406051201258,0.7872811124918128,,0.00004625406051201258,0.7872811124918128,,0.00004625406051201258,0.7872820384016995,,0.00004625406051201258,0.024173057252667773,,0.00004625406051201258,0.024173057252667773,,0.00004625406051201258,-0.029489292520219097,,0.00004625406051201258,1.62,,0.00004625406051201258,1.62,,0.00004625406051201258,0.822068869990281
0.000046305667968707505,1.894803683956153,,0.000046305667968707505,1.6193773249908325,,0.000046305667968707505,1.6193773249908325,,0.000046305667968707505,1.6193773249908325,,0.000046305667968707505,0.7864715547702048,,0.000046305667968707505,0.7864715547702048,,0.000046305667968707505,0.7864715547702048,,0.000046305667968707505,0.7864767334131884,,0.000046305667968707505,0.3377372093558248,,0.000046305667968707505,0.3377372093558248,,0.000046305667968707505,0.011415977097072056,,0.000046305667968707505,1.62,,0.000046305667968707505,1.62,,0.000046305667968707505,0.9787721901622461
0.0000463629671303881,1.8951043827588334,,0.0000463629671303881,1.6193782783437392,,0.0000463629671303881,1.6193782783437392,,0.0000463629671303881,1.6193782783437392,,0.0000463629671303881,0.7855737485916886,,0.0000463629671303881,0.7855737485916886,,0.0000463629671303881,0.7855737485916886,,0.0000463629671303881,0.7856129551230334,,0.0000463629671303881,2.8578542758965013,,0.0000463629671303881,2.8578542758965013,,0.0000463629671303881,0.35014663725576645,,0.0000463629671303881,1.62,,0.0000463629671303881,1.62,,0.0000463629671303881,2.238200564761856
0.000046397668906519065,1.8952864239831948,,0.000046397668906519065,1.6193787381225535,,0.000046397668906519065,1.6193787381225535,,0.000046397668906519065,1.6193787381225535,,0.000046397668906519065,0.7850297530593251,,0.000046397668906519065,0.7850297530593251,,0.000046397668906519065,0.7850297530593251,,0.000046397668906519065,0.7850699374994413,,0.000046397668906519065,2.929242136110476,,0.000046397668906519065,2.929242136110476,,0.000046397668906519065,0.6935049213416011,,0.000046397668906519065,1.62,,0.000046397668906519065,1.62,,0.000046397668906519065,2.2738763850931067
0.00004643257405890864,1.8954694792841358,,0.00004643257405890864,1.6193791006236438,,0.00004643257405890864,1.6193791006236438,,0.00004643257405890864,1.6193791006236438,,0.00004643257405890864,0.7844823280722741,,0.00004643257405890864,0.7844823280722741,,0.00004643257405890864,0.7844823280722741,,0.00004643257405890864,0.7845231017951905,,0.00004643257405890864,2.971820857260445,,0.00004643257405890864,2.971820857260445,,0.00004643257405890864,0.9998672285911229,,0.00004643257405890864,1.62,,0.00004643257405890864,1.62,,0.00004643257405890864,2.295154832813595
0.00004647611844749333,1.8956977675749487,,0.00004647611844749333,1.619379662524629,,0.00004647611844749333,1.619379662524629,,0.00004647611844749333,1.619379662524629,,0.00004647611844749333,0.783800073987461,,0.00004647611844749333,0.783800073987461,,0.00004647611844749333,0.783800073987461,,0.00004647611844749333,0.7838417069474629,,0.00004647611844749333,3.034137069676669,,0.00004647611844749333,3.034137069676669,,0.00004647611844749333,1.3334563354386966,,0.00004647611844749333,1.62,,0.00004647611844749333,1.62,,0.00004647611844749333,2.3262970269158103
0.0000465632072246627,1.896154096438083,,0.0000465632072246627,1.6193808066508943,,0.0000465632072246627,1.6193808066508943,,0.0000465632072246627,1.6193808066508943,,0.0000465632072246627,0.7824363911695524,,0.0000465632072246627,0.7824363911695524,,0.0000465632072246627,0.7824363911695524,,0.0000465632072246627,0.7824791613583819,,0.0000465632072246627,3.115693244046113,,0.0000465632072246627,3.115693244046113,,0.0000465632072246627,1.8689003737097813,,0.0000465632072246627,1.62,,0.0000465632072246627,1.62,,0.0000465632072246627,2.367054053906672
0.00004658497941895504,1.8962681269960304,,0.00004658497941895504,1.6193811034701617,,0.00004658497941895504,1.6193811034701617,,0.00004658497941895504,1.6193811034701617,,0.00004658497941895504,0.7820956687766578,,0.00004658497941895504,0.7820956687766578,,0.00004658497941895504,0.7820956687766578,,0.00004658497941895504,0.782138773853972,,0.00004658497941895504,3.1398314201604984,,0.00004658497941895504,3.1398314201604984,,0.00004658497941895504,1.9782767016680722,,0.00004658497941895504,1.62,,0.00004658497941895504,1.62,,0.00004658497941895504,2.3791169402063335
0.00004662852380753973,1.896496126062766,,0.00004662852380753973,1.6193816913503933,,0.00004662852380753973,1.6193816913503933,,0.00004662852380753973,1.6193816913503933,,0.00004662852380753973,0.781414387329764,,0.00004662852380753973,0.781414387329764,,0.00004662852380753973,0.781414387329764,,0.00004662852380753973,0.7814578659905128,,0.00004662852380753973,3.166156274516098,,0.00004662852380753973,3.166156274516098,,0.00004662852380753973,2.173908745840066,,0.00004662852380753973,1.62,,0.00004662852380753973,1.62,,0.00004662852380753973,2.3922724490442278
0.0000467156125847091,1.8969518757606934,,0.0000467156125847091,1.6193828694964139,,0.0000467156125847091,1.6193828694964139,,0.0000467156125847091,1.6193828694964139,,0.0000467156125847091,0.7800525801829461,,0.0000467156125847091,0.7800525801829461,,0.0000467156125847091,0.7800525801829461,,0.0000467156125847091,0.7800968672745574,,0.0000467156125847091,3.223347959886845,,0.0000467156125847091,3.223347959886845,,0.0000467156125847091,2.4877861056960104,,0.0000467156125847091,1.62,,0.0000467156125847091,1.62,,0.0000467156125847091,2.420853320508703
0.00004688979013904785,1.8978623795044332,,0.00004688979013904785,1.6193852244816784,,0.00004688979013904785,1.6193852244816784,,0.00004688979013904785,1.6193852244816784,,0.00004688979013904785,0.7773319512077426,,0.00004688979013904785,0.7773319512077426,,0.00004688979013904785,0.7773319512077426,,0.00004688979013904785,0.7773771453104945,,0.00004688979013904785,3.2851280655818687,,0.00004688979013904785,3.2851280655818687,,0.00004688979013904785,2.896302945896744,,0.00004688979013904785,1.62,,0.00004688979013904785,1.62,,0.00004688979013904785,2.451726576558474
0.000047238145247725344,1.8996793891248174,,0.000047238145247725344,1.6193899224387944,,0.000047238145247725344,1.6193899224387944,,0.000047238145247725344,1.6193899224387944,,0.000047238145247725344,0.77190265313544,,0.000047238145247725344,0.77190265313544,,0.000047238145247725344,0.77190265313544,,0.000047238145247725344,0.7719488464589918,,0.000047238145247725344,3.348324723620676,,0.000047238145247725344,3.348324723620676,,0.000047238145247725344,3.250167644704648,,0.000047238145247725344,1.62,,0.000047238145247725344,1.62,,0.000047238145247725344,2.483306401200333
0.000047696596626707917,1.9020624840229807,,0.000047696596626707917,1.6193960750271659,,0.000047696596626707917,1.6193960750271659,,0.000047696596626707917,1.6193960750271659,,0.000047696596626707917,0.7647818756433524,,0.000047696596626707917,0.7647818756433524,,0.000047696596626707917,0.7647818756433524,,0.000047696596626707917,0.7648284206942894,,0.000047696596626707917,3.360150637049673,,0.000047696596626707917,3.360150637049673,,0.000047696596626707917,3.3519130861202333,,0.000047696596626707917,1.62,,0.000047696596626707917,1.62,,0.000047696596626707917,2.4892128444212753
