X--Trace 1::[transient: TIME],Y--Trace 1::[PR1: V(1)],,X--Trace 2::[transient: TIME],Y--Trace 2::[PR2: V(2)],,X--Trace 3::[transient: TIME],Y--Trace 3::[PR3: V(2)],,X--Trace 4::[transient: TIME],Y--Trace 4::[PR4: V(2)],,X--Trace 5::[transient: TIME],Y--Trace 5::[PR5: V(3)],,X--Trace 6::[transient: TIME],Y--Trace 6::[PR6: V(3)],,X--Trace 7::[transient: TIME],Y--Trace 7::[PR7: V(3)],,X--Trace 8::[transient: TIME],Y--Trace 8::[PR8: V(5)],,X--Trace 9::[transient: TIME],Y--Trace 9::[PR9: V(7)],,X--Trace 10::[transient: TIME],Y--Trace 10::[PR14: V(7)],,X--Trace 11::[transient: TIME],Y--Trace 11::[PR10: V(8)],,X--Trace 12::[transient: TIME],Y--Trace 12::[PR11: V(4)],,X--Trace 13::[transient: TIME],Y--Trace 13::[PR12: V(4)],,X--Trace 14::[transient: TIME],Y--Trace 14::[PR13: V(6)]
0,1.62,,0,1.6183075931279718,,0,1.6183075931279718,,0,1.6183075931279718,,0,1.6064053551665793,,0,1.6064053551665793,,0,1.6064053551665793,,0,1.6064053870293569,,0,1.596177336215334,,0,1.596177336215334,,0,1.5961773361339289,,0,1.62,,0,1.62,,0,1.6080875539438828
1e-7,1.6206283183653514,,1e-7,1.618326112758281,,1e-7,1.618326112758281,,1e-7,1.618326112758281,,1e-7,1.6063019153570384,,1e-7,1.6063019153570384,,1e-7,1.6063019153570384,,1e-7,1.6063019456154772,,1e-7,1.5958515520242431,,1e-7,1.5958515520242431,,1e-7,1.5960814326334618,,1e-7,1.62,,1e-7,1.62,,1e-7,1.6079246915603322
2e-7,1.6212566357385019,,2e-7,1.6183276025510307,,2e-7,1.6183276025510307,,2e-7,1.6183276025510307,,2e-7,1.6061780400811283,,2e-7,1.6061780400811283,,2e-7,1.6061780400811283,,2e-7,1.6061780710193372,,2e-7,1.5956541788612697,,2e-7,1.5956541788612697,,2e-7,1.5959556587583994,,2e-7,1.62,,2e-7,1.62,,2e-7,1.6078259923921174
4e-7,1.6225132635394095,,4e-7,1.618328205888013,,4e-7,1.618328205888013,,4e-7,1.618328205888013,,4e-7,1.6059274396774061,,4e-7,1.6059274396774061,,4e-7,1.6059274396774061,,4e-7,1.6059274698284187,,4e-7,1.59509463146848,,4e-7,1.59509463146848,,4e-7,1.595613442876792,,4e-7,1.62,,4e-7,1.62,,4e-7,1.6075462332774828
8e-7,1.6250264635783653,,8e-7,1.6183284370945705,,8e-7,1.6183284370945705,,8e-7,1.6183284370945705,,8e-7,1.6054250809459225,,8e-7,1.6054250809459225,,8e-7,1.6054250809459225,,8e-7,1.6054251124855248,,8e-7,1.5941928166185166,,8e-7,1.5941928166185166,,8e-7,1.5947312787515724,,8e-7,1.62,,8e-7,1.62,,8e-7,1.6070953001449053
0.0000016,1.6300524191627288,,0.0000016,1.6183296754186562,,0.0000016,1.6183296754186562,,0.0000016,1.6183296754186562,,0.0000016,1.6044213895636859,,0.0000016,1.6044213895636859,,0.0000016,1.6044213895636859,,0.0000016,1.6044214192458337,,0.0000016,1.592047752024366,,0.0000016,1.592047752024366,,0.0000016,1.5927165912275325,,0.0000016,1.62,,0.0000016,1.62,,0.0000016,1.606022802260877
0.0000032,1.6401007746814766,,0.0000032,1.61833144839392,,0.0000032,1.61833144839392,,0.0000032,1.61833144839392,,0.0000032,1.6024138978761993,,0.0000032,1.6024138978761993,,0.0000032,1.6024138978761993,,0.0000032,1.6024139295221522,,0.0000032,1.5881782721325082,,0.0000032,1.5881782721325082,,0.0000032,1.5887099289515356,,0.0000032,1.62,,0.0000032,1.62,,0.0000032,1.604088025977583
0.0000064,1.6601690500666972,,0.0000064,1.6183356270470326,,0.0000064,1.6183356270470326,,0.0000064,1.6183356270470326,,0.0000064,1.5984054581771814,,0.0000064,1.5984054581771814,,0.0000064,1.5984054581771814,,0.0000064,1.5984054873898002,,0.0000064,1.579980970495249,,0.0000064,1.579980970495249,,0.0000064,1.5806559067201273,,0.0000064,1.62,,0.0000064,1.62,,0.0000064,1.5999894202817098
0.000012479999999999999,1.698093113473714,,0.000012479999999999999,1.6183429401465135,,0.000012479999999999999,1.6183429401465135,,0.000012479999999999999,1.6183429401465135,,0.000012479999999999999,1.590830158791167,,0.000012479999999999999,1.590830158791167,,0.000012479999999999999,1.590830158791167,,0.000012479999999999999,1.590830188768978,,0.000012479999999999999,1.5648869307677746,,0.000012479999999999999,1.5648869307677746,,0.000012479999999999999,1.5654818373837411,,0.000012479999999999999,1.62,,0.000012479999999999999,1.62,,0.000012479999999999999,1.5924423863610933
0.000024639999999999998,1.7723556843138335,,0.000024639999999999998,1.6183571278908992,,0.000024639999999999998,1.6183571278908992,,0.000024639999999999998,1.6183571278908992,,0.000024639999999999998,1.575997519702774,,0.000024639999999999998,1.575997519702774,,0.000024639999999999998,1.575997519702774,,0.000024639999999999998,1.5759975488757336,,0.000024639999999999998,1.5351617054746842,,0.000024639999999999998,1.5351617054746842,,0.000024639999999999998,1.5357398212796955,,0.000024639999999999998,1.62,,0.000024639999999999998,1.62,,0.000024639999999999998,1.5775797888419756
0.000040264999999999995,1.8623345880280056,,0.000040264999999999995,1.6183736043028774,,0.000040264999999999995,1.6183736043028774,,0.000040264999999999995,1.6183736043028774,,0.000040264999999999995,1.558027748575238,,0.000040264999999999995,1.558027748575238,,0.000040264999999999995,1.558027748575238,,0.000040264999999999995,1.558027776877624,,0.000040264999999999995,1.499157282328592,,0.000040264999999999995,1.499157282328592,,0.000040264999999999995,1.4996897105842661,,0.000040264999999999995,1.62,,0.000040264999999999995,1.62,,0.000040264999999999995,1.5595775936606218
0.000055889999999999995,1.9430007094270643,,0.000055889999999999995,1.6183872776015,,0.000055889999999999995,1.6183872776015,,0.000055889999999999995,1.6183872776015,,0.000055889999999999995,1.541919874890794,,0.000055889999999999995,1.541919874890794,,0.000055889999999999995,1.541919874890794,,0.000055889999999999995,1.5419199024505623,,0.000055889999999999995,1.4668861746105735,,0.000055889999999999995,1.4668861746105735,,0.000055889999999999995,1.4673460999282832,,0.000055889999999999995,1.62,,0.000055889999999999995,1.62,,0.000055889999999999995,1.5434420537955704
0.000071515,2.0112540947037254,,0.000071515,1.6183982793851819,,0.000071515,1.6183982793851819,,0.000071515,1.6183982793851819,,0.000071515,1.5282936867919685,,0.000071515,1.5282936867919685,,0.000071515,1.5282936867919685,,0.000071515,1.528293713767943,,0.000071515,1.4395902587036389,,0.000071515,1.4395902587036389,,0.000071515,1.439970267575569,,0.000071515,1.62,,0.000071515,1.62,,0.000071515,1.5297941068577656
0.00008714,2.0644718045387465,,0.00008714,1.618405400201658,,0.00008714,1.618405400201658,,0.00008714,1.618405400201658,,0.00008714,1.517671886569084,,0.00008714,1.517671886569084,,0.00008714,1.517671886569084,,0.00008714,1.5176719131560938,,0.00008714,1.418317618130229,,0.00008714,1.418317618130229,,0.00008714,1.4185934830641769,,0.00008714,1.62,,0.00008714,1.62,,0.00008714,1.5191577939335565
0.000102765,2.1006087121880035,,0.000102765,1.618409151241561,,0.000102765,1.618409151241561,,0.000102765,1.618409151241561,,0.000102765,1.5104636053695886,,0.000102765,1.5104636053695886,,0.000102765,1.5104636053695886,,0.000102765,1.510463631763526,,0.000102765,1.4038866021540597,,0.000102765,1.4038866021540597,,0.000102765,1.404056747385554,,0.000102765,1.62,,0.000102765,1.62,,0.000102765,1.511942289629096
0.00011839,2.1182760965563463,,0.00011839,1.6184086053298812,,0.00011839,1.6184086053298812,,0.00011839,1.6184086053298812,,0.00011839,1.5069449132836514,,0.00011839,1.5069449132836514,,0.00011839,1.5069449132836514,,0.00011839,1.5069449397020047,,0.00011839,1.3968509570391208,,0.00011839,1.3968509570391208,,0.00011839,1.396900380452472,,0.00011839,1.62,,0.00011839,1.62,,0.00011839,1.5084244666722793
0.000134015,2.116795009970483,,0.000134015,1.6184045646645302,,0.000134015,1.6184045646645302,,0.000134015,1.6184045646645302,,0.000134015,1.507251968651657,,0.000134015,1.507251968651657,,0.000134015,1.507251968651657,,0.000134015,1.5072519952965293,,0.000134015,1.3974818619416347,,0.000134015,1.3974818619416347,,0.000134015,1.397416599945768,,0.000134015,1.62,,0.000134015,1.62,,0.000134015,1.5087399149240242
0.00014963999999999998,2.0962223697573052,,0.00014963999999999998,1.6183964051077568,,0.00014963999999999998,1.6183964051077568,,0.00014963999999999998,1.6183964051077568,,0.00014963999999999998,1.5113720357216491,,0.00014963999999999998,1.5113720357216491,,0.00014963999999999998,1.5113720357216491,,0.00014963999999999998,1.5113720628011356,,0.00014963999999999998,1.4057542892325063,,0.00014963999999999998,1.4057542892325063,,0.00014963999999999998,1.4055694098335674,,0.00014963999999999998,1.62,,0.00014963999999999998,1.62,,0.00014963999999999998,1.5128761204591226
0.000165265,2.0573487709429363,,0.000165265,1.6183852178535132,,0.000165265,1.6183852178535132,,0.000165265,1.6183852178535132,,0.000165265,1.5191477152934012,,0.000165265,1.5191477152934012,,0.000165265,1.5191477152934012,,0.000165265,1.5191477429839662,,0.000165265,1.4213510930427498,,0.000165265,1.4213510930427498,,0.000165265,1.4210606754814294,,0.000165265,1.62,,0.000165265,1.62,,0.000165265,1.5206745109310786
0.00018089,2.0016681041292466,,0.00018089,1.6183706569812581,,0.00018089,1.6183706569812581,,0.00018089,1.6183706569812581,,0.00018089,1.530279260869107,,0.00018089,1.530279260869107,,0.00018089,1.530279260869107,,0.00018089,1.5302792893388748,,0.00018089,1.4436721563127233,,0.00018089,1.4436721563127233,,0.00018089,1.4432808240186041,,0.00018089,1.62,,0.00018089,1.62,,0.00018089,1.5318350279691415
0.00019651500000000003,1.9313201461158085,,0.00019651500000000003,1.6183540561203038,,0.00019651500000000003,1.6183540561203038,,0.00019651500000000003,1.6183540561203038,,0.00019651500000000003,1.5443398217851352,,0.00019651500000000003,1.5443398217851352,,0.00019651500000000003,1.5443398217851352,,0.00019651500000000003,1.5443398511569442,,0.00019651500000000003,1.4718604128548824,,0.00019651500000000003,1.4718604128548824,,0.00019651500000000003,1.471389331031584,,0.00019651500000000003,1.62,,0.00019651500000000003,1.62,,0.00019651500000000003,1.5459291393245083
0.00021214000000000004,1.8490083294774893,,0.00021214000000000004,1.6183352809414424,,0.00021214000000000004,1.6183352809414424,,0.00021214000000000004,1.6183352809414424,,0.00021214000000000004,1.5607881313373908,,0.00021214000000000004,1.5607881313373908,,0.00021214000000000004,1.5607881313373908,,0.00021214000000000004,1.5607881617149388,,0.00021214000000000004,1.504831899856935,,0.00021214000000000004,1.504831899856935,,0.00021214000000000004,1.5042934310920584,,0.00021214000000000004,1.62,,0.00021214000000000004,1.62,,0.00021214000000000004,1.5624148639536362
0.00022776500000000005,1.757895851166701,,0.00022776500000000005,1.6183158234920396,,0.00022776500000000005,1.6183158234920396,,0.00022776500000000005,1.6183158234920396,,0.00022776500000000005,1.5789930143623483,,0.00022776500000000005,1.5789930143623483,,0.00022776500000000005,1.5789930143623483,,0.00022776500000000005,1.5789930457949906,,0.00022776500000000005,1.5413202268637594,,0.00022776500000000005,1.5413202268637594,,0.00022776500000000005,1.5407404428377625,,0.00022776500000000005,1.62,,0.00022776500000000005,1.62,,0.00022776500000000005,1.5806590076447942
0.00024339000000000007,1.6614841126284605,,0.00024339000000000007,1.6182956627413474,,0.00024339000000000007,1.6182956627413474,,0.00024339000000000007,1.6182956627413474,,0.00024339000000000007,1.5982539444075963,,0.00024339000000000007,1.5982539444075963,,0.00024339000000000007,1.5982539444075963,,0.00024339000000000007,1.598253976919988,,0.00024339000000000007,1.5799224963460505,,0.00024339000000000007,1.5799224963460505,,0.00024339000000000007,1.5793186394167662,,0.00024339000000000007,1.62,,0.00024339000000000007,1.62,,0.00024339000000000007,1.5999601221012179
0.0002590150000000001,1.5634781629064667,,0.0002590150000000001,1.6182763404760692,,0.0002590150000000001,1.6182763404760692,,0.0002590150000000001,1.6182763404760692,,0.0002590150000000001,1.6178316546723857,,0.0002590150000000001,1.6178316546723857,,0.0002590150000000001,1.6178316546723857,,0.0002590150000000001,1.6178316882316996,,0.0002590150000000001,1.6191558996954454,,0.0002590150000000001,1.6191558996954454,,0.0002590150000000001,1.6185558946902399,,0.0002590150000000001,1.62,,0.0002590150000000001,1.62,,0.0002590150000000001,1.6195768040944603
0.0002746400000000001,1.467644315686166,,0.0002746400000000001,1.618257833963922,,0.0002746400000000001,1.618257833963922,,0.0002746400000000001,1.618257833963922,,0.0002746400000000001,1.6369728659153786,,0.0002746400000000001,1.6369728659153786,,0.0002746400000000001,1.6369728659153786,,0.0002746400000000001,1.636972900464673,,0.0002746400000000001,1.6575120761017224,,0.0002746400000000001,1.6575120761017224,,0.0002746400000000001,1.6569345620203233,,0.0002746400000000001,1.62,,0.0002746400000000001,1.62,,0.0002746400000000001,1.6387548736771957
0.0002902650000000001,1.377665411971994,,0.0002902650000000001,1.6182416179404695,,0.0002902650000000001,1.6182416179404695,,0.0002902650000000001,1.6182416179404695,,0.0002902650000000001,1.6549429078868263,,0.0002902650000000001,1.6549429078868263,,0.0002902650000000001,1.6549429078868263,,0.0002902650000000001,1.6549429433148788,,0.0002902650000000001,1.6935176474766056,,0.0002902650000000001,1.6935176474766056,,0.0002902650000000001,1.6929889549257902,,0.0002902650000000001,1.62,,0.0002902650000000001,1.62,,0.0002902650000000001,1.6567576428213915
0.0003058900000000001,1.2969992905729355,,0.0003058900000000001,1.6182275537682014,,0.0003058900000000001,1.6182275537682014,,0.0003058900000000001,1.6182275537682014,,0.0003058900000000001,1.6710502872957755,,0.0003058900000000001,1.6710502872957755,,0.0003058900000000001,1.6710502872957755,,0.0003058900000000001,1.6710503234739367,,0.0003058900000000001,1.7257883218234493,,0.0003058900000000001,1.7257883218234493,,0.0003058900000000001,1.725324895796512,,0.0003058900000000001,1.62,,0.0003058900000000001,1.62,,0.0003058900000000001,1.6728929658619909
0.00032151500000000014,1.2287459052962744,,0.00032151500000000014,1.618216942013862,,0.00032151500000000014,1.618216942013862,,0.00032151500000000014,1.618216942013862,,0.00032151500000000014,1.6846769182062853,,0.00032151500000000014,1.6846769182062853,,0.00032151500000000014,1.6846769182062853,,0.00032151500000000014,1.684676954960639,,0.00032151500000000014,1.753084560005381,,0.00032151500000000014,1.753084560005381,,0.00032151500000000014,1.752707833513094,,0.00032151500000000014,1.62,,0.00032151500000000014,1.62,,0.00032151500000000014,1.6865410740781637
0.00033714000000000015,1.175528195461253,,0.00033714000000000015,1.6182094321095548,,0.00033714000000000015,1.6182094321095548,,0.00033714000000000015,1.6182094321095548,,0.00033714000000000015,1.695298226304847,,0.00033714000000000015,1.695298226304847,,0.00033714000000000015,1.695298226304847,,0.00033714000000000015,1.695298263455863,,0.00033714000000000015,1.774356786829716,,0.00033714000000000015,1.774356786829716,,0.00033714000000000015,1.7740778469382323,,0.00033714000000000015,1.62,,0.00033714000000000015,1.62,,0.00033714000000000015,1.6971771799852096
0.00035276500000000016,1.1393912878119965,,0.00035276500000000016,1.6182060693202451,,0.00035276500000000016,1.6182060693202451,,0.00035276500000000016,1.6182060693202451,,0.00035276500000000016,1.7025069481893012,,0.00035276500000000016,1.7025069481893012,,0.00035276500000000016,1.7025069481893012,,0.00035276500000000016,1.7025069855255976,,0.00035276500000000016,1.788788106696784,,0.00035276500000000016,1.788788106696784,,0.00035276500000000016,1.7886208439882794,,0.00035276500000000016,1.62,,0.00035276500000000016,1.62,,0.00035276500000000016,1.7043928363794334
0.0003683900000000002,1.121723903443654,,0.0003683900000000002,1.6182062279157758,,0.0003683900000000002,1.6182062279157758,,0.0003683900000000002,1.6182062279157758,,0.0003683900000000002,1.7060251502848027,,0.0003683900000000002,1.7060251502848027,,0.0003683900000000002,1.7060251502848027,,0.0003683900000000002,1.7060251876045567,,0.0003683900000000002,1.795823355344254,,0.0003683900000000002,1.795823355344254,,0.0003683900000000002,1.7957712325095019,,0.0003683900000000002,1.62,,0.0003683900000000002,1.62,,0.0003683900000000002,1.7079104609567595
0.0003840150000000002,1.1232049900295173,,0.0003840150000000002,1.6182106550670428,,0.0003840150000000002,1.6182106550670428,,0.0003840150000000002,1.6182106550670428,,0.0003840150000000002,1.70571853349208,,0.0003840150000000002,1.70571853349208,,0.0003840150000000002,1.70571853349208,,0.0003840150000000002,1.7057185705773616,,0.0003840150000000002,1.7951927381483237,,0.0003840150000000002,1.7951927381483237,,0.0003840150000000002,1.7952605299709403,,0.0003840150000000002,1.62,,0.0003840150000000002,1.62,,0.0003840150000000002,1.7075951567055916
0.0003996400000000002,1.1437776302426954,,0.0003996400000000002,1.6182184290653405,,0.0003996400000000002,1.6182184290653405,,0.0003996400000000002,1.6182184290653405,,0.0003996400000000002,1.7015979785486117,,0.0003996400000000002,1.7015979785486117,,0.0003996400000000002,1.7015979785486117,,0.0003996400000000002,1.7015980152073007,,0.0003996400000000002,1.7869199296036242,,0.0003996400000000002,1.7869199296036242,,0.0003996400000000002,1.7871024408262102,,0.0003996400000000002,1.62,,0.0003996400000000002,1.62,,0.0003996400000000002,1.703458760395078
0.0004152650000000002,1.1826512290570645,,0.0004152650000000002,1.6182300010547686,,0.0004152650000000002,1.6182300010547686,,0.0004152650000000002,1.6182300010547686,,0.0004152650000000002,1.6938227354591602,,0.0004152650000000002,1.6938227354591602,,0.0004152650000000002,1.6938227354591602,,0.0004152650000000002,1.6938227714986815,,0.0004152650000000002,1.771323399259916,,0.0004152650000000002,1.771323399259916,,0.0004152650000000002,1.7716160355480188,,0.0004152650000000002,1.62,,0.0004152650000000002,1.62,,0.0004152650000000002,1.6956605068061803
0.00043089000000000023,1.2383318958707545,,0.00043089000000000023,1.6182441781123345,,0.00043089000000000023,1.6182441781123345,,0.00043089000000000023,1.6182441781123345,,0.00043089000000000023,1.6826907041108186,,0.00043089000000000023,1.6826907041108186,,0.00043089000000000023,1.6826907041108186,,0.00043089000000000023,1.6826907393792827,,0.00043089000000000023,1.7490019681227995,,0.00043089000000000023,1.7490019681227995,,0.00043089000000000023,1.7493912244202239,,0.00043089000000000023,1.62,,0.00043089000000000023,1.62,,0.00043089000000000023,1.6844998056836202
0.00044651500000000025,1.308679853884193,,0.00044651500000000025,1.6182611619715688,,0.00044651500000000025,1.6182611619715688,,0.00044651500000000025,1.6182611619715688,,0.00044651500000000025,1.6686305776011299,,0.00044651500000000025,1.6686305776011299,,0.00044651500000000025,1.6686305776011299,,0.00044651500000000025,1.6686306119593508,,0.00044651500000000025,1.7208139725271259,,0.00044651500000000025,1.7208139725271259,,0.00044651500000000025,1.7212869986656099,,0.00044651500000000025,1.62,,0.00044651500000000025,1.62,,0.00044651500000000025,1.6704058249534566
0.00046214000000000026,1.390991670522512,,0.00046214000000000026,1.6182795550657614,,0.00046214000000000026,1.6182795550657614,,0.00046214000000000026,1.6182795550657614,,0.00046214000000000026,1.6521817843600666,,0.00046214000000000026,1.6521817843600666,,0.00046214000000000026,1.6521817843600666,,0.00046214000000000026,1.6521818177207965,,0.00046214000000000026,1.6878421294263832,,0.00046214000000000026,1.6878421294263832,,0.00046214000000000026,1.6883787799183232,,0.00046214000000000026,1.62,,0.00046214000000000026,1.62,,0.00046214000000000026,1.6539199221221688
0.0004777650000000003,1.4821041488333004,,0.0004777650000000003,1.618299393790247,,0.0004777650000000003,1.618299393790247,,0.0004777650000000003,1.618299393790247,,0.0004777650000000003,1.6339773336811287,,0.0004777650000000003,1.6339773336811287,,0.0004777650000000003,1.6339773336811287,,0.0004777650000000003,1.6339773659784698,,0.0004777650000000003,1.651354052365428,,0.0004777650000000003,1.651354052365428,,0.0004777650000000003,1.6519355386542982,,0.0004777650000000003,1.62,,0.0004777650000000003,1.62,,0.0004777650000000003,1.6356759035576045
