X--Trace 1::[transient: TIME],Y--Trace 1::[PR1: V(1)],,X--Trace 2::[transient: TIME],Y--Trace 2::[PR2: V(2)],,X--Trace 3::[transient: TIME],Y--Trace 3::[PR3: V(2)],,X--Trace 4::[transient: TIME],Y--Trace 4::[PR4: V(2)],,X--Trace 5::[transient: TIME],Y--Trace 5::[PR5: V(3)],,X--Trace 6::[transient: TIME],Y--Trace 6::[PR6: V(3)],,X--Trace 7::[transient: TIME],Y--Trace 7::[PR7: V(3)],,X--Trace 8::[transient: TIME],Y--Trace 8::[PR8: V(5)],,X--Trace 9::[transient: TIME],Y--Trace 9::[PR9: V(7)],,X--Trace 10::[transient: TIME],Y--Trace 10::[PR14: V(7)],,X--Trace 11::[transient: TIME],Y--Trace 11::[PR10: V(8)],,X--Trace 12::[transient: TIME],Y--Trace 12::[PR11: V(4)],,X--Trace 13::[transient: TIME],Y--Trace 13::[PR12: V(4)],,X--Trace 14::[transient: TIME],Y--Trace 14::[PR13: V(6)]
0,1.62,,0,1.6183075931279718,,0,1.6183075931279718,,0,1.6183075931279718,,0,1.6064053551665793,,0,1.6064053551665793,,0,1.6064053551665793,,0,1.6064053870293569,,0,1.596177336215334,,0,1.596177336215334,,0,1.5961773361339289,,0,1.62,,0,1.62,,0,1.6080875539438828
1e-7,1.6206283183653514,,1e-7,1.6183325794115162,,1e-7,1.6183325794115162,,1e-7,1.6183325794115162,,1e-7,1.6063096751078683,,1e-7,1.6063096751078683,,1e-7,1.6063096751078683,,1e-7,1.6063097054866597,,1e-7,1.5958759913978402,,1e-7,1.5958759913978402,,1e-7,1.596088627032519,,1e-7,1.62,,1e-7,1.62,,1e-7,1.6079369090182145
2e-7,1.6212566357385019,,2e-7,1.6183290166753148,,2e-7,1.6183290166753148,,2e-7,1.6183290166753148,,2e-7,1.6061797364420523,,2e-7,1.6061797364420523,,2e-7,1.6061797364420523,,2e-7,1.6061797672114475,,2e-7,1.595645060321548,,2e-7,1.595645060321548,,2e-7,1.595958050997086,,2e-7,1.62,,2e-7,1.62,,2e-7,1.607821436248471
4e-7,1.6225132635394095,,4e-7,1.6183272514764806,,4e-7,1.6183272514764806,,4e-7,1.6183272514764806,,4e-7,1.6059262928745874,,4e-7,1.6059262928745874,,4e-7,1.6059262928745874,,4e-7,1.605926323352448,,4e-7,1.5951165615581762,,4e-7,1.5951165615581762,,4e-7,1.5956181981041746,,4e-7,1.62,,4e-7,1.62,,4e-7,1.6075571922694873
8e-7,1.6250264635783653,,8e-7,1.6183293382306898,,8e-7,1.6183293382306898,,8e-7,1.6183293382306898,,8e-7,1.60542615773733,,8e-7,1.60542615773733,,8e-7,1.60542615773733,,8e-7,1.6054261888145853,,8e-7,1.5941607042379486,,8e-7,1.5941607042379486,,8e-7,1.5947270766236503,,8e-7,1.62,,8e-7,1.62,,8e-7,1.6070792525167608
0.0000016,1.6300524191627288,,0.0000016,1.6183289456925702,,0.0000016,1.6183289456925702,,0.0000016,1.6183289456925702,,0.0000016,1.6044204983252193,,0.0000016,1.6044204983252193,,0.0000016,1.6044204983252193,,0.0000016,1.6044205285594921,,0.0000016,1.5920868892391293,,0.0000016,1.5920868892391293,,0.0000016,1.5927220368032462,,0.0000016,1.62,,0.0000016,1.62,,0.0000016,1.6060423606435268
0.0000032,1.6401007746814766,,0.0000032,1.6183322448151731,,0.0000032,1.6183322448151731,,0.0000032,1.6183322448151731,,0.0000032,1.6024147965389333,,0.0000032,1.6024147965389333,,0.0000032,1.6024147965389333,,0.0000032,1.602414827581069,,0.0000032,1.5881353187069793,,0.0000032,1.5881353187069793,,0.0000032,1.5887040579073064,,0.0000032,1.62,,0.0000032,1.62,,0.0000032,1.604066560446835
0.0000064,1.6601690500666972,,0.0000064,1.6183349482021956,,0.0000064,1.6183349482021956,,0.0000064,1.6183349482021956,,0.0000064,1.598404425729739,,0.0000064,1.598404425729739,,0.0000064,1.598404425729739,,0.0000064,1.5984044555737926,,0.0000064,1.5800257031917633,,0.0000064,1.5800257031917633,,0.0000064,1.5806617952970916,,0.0000064,1.62,,0.0000064,1.62,,0.0000064,1.6000117749364908
0.000012479999999999999,1.698093113473714,,0.000012479999999999999,1.618342982295026,,0.000012479999999999999,1.618342982295026,,0.000012479999999999999,1.618342982295026,,0.000012479999999999999,1.5908294014873614,,0.000012479999999999999,1.5908294014873614,,0.000012479999999999999,1.5908294014873614,,0.000012479999999999999,1.5908294314496028,,0.000012479999999999999,1.5648842622554269,,0.000012479999999999999,1.5648842622554269,,0.000012479999999999999,1.5654802348200616,,0.000012479999999999999,1.62,,0.000012479999999999999,1.62,,0.000012479999999999999,1.5924410523932617
0.000024639999999999998,1.7723556843138335,,0.000024639999999999998,1.6183571837954485,,0.000024639999999999998,1.6183571837954485,,0.000024639999999999998,1.6183571837954485,,0.000024639999999999998,1.575994499138846,,0.000024639999999999998,1.575994499138846,,0.000024639999999999998,1.575994499138846,,0.000024639999999999998,1.5759945283179617,,0.000024639999999999998,1.5351561205322908,,0.000024639999999999998,1.5351561205322908,,0.000024639999999999998,1.535733928148797,,0.000024639999999999998,1.62,,0.000024639999999999998,1.62,,0.000024639999999999998,1.5775769962568267
0.000040264999999999995,1.8623345880280056,,0.000040264999999999995,1.6183736570377454,,0.000040264999999999995,1.6183736570377454,,0.000040264999999999995,1.6183736570377454,,0.000040264999999999995,1.5580197340679987,,0.000040264999999999995,1.5580197340679987,,0.000040264999999999995,1.5580197340679987,,0.000040264999999999995,1.5580197623675898,,0.000040264999999999995,1.4991410460263932,,0.000040264999999999995,1.4991410460263932,,0.000040264999999999995,1.499673793876979,,0.000040264999999999995,1.62,,0.000040264999999999995,1.62,,0.000040264999999999995,1.559569475561428
0.000055889999999999995,1.9430007094270643,,0.000055889999999999995,1.6183873327472973,,0.000055889999999999995,1.6183873327472973,,0.000055889999999999995,1.6183873327472973,,0.000055889999999999995,1.5419047095475253,,0.000055889999999999995,1.5419047095475253,,0.000055889999999999995,1.5419047095475253,,0.000055889999999999995,1.5419047371080654,,0.000055889999999999995,1.4668559008328204,,0.000055889999999999995,1.4668559008328204,,0.000055889999999999995,1.4673159434544423,,0.000055889999999999995,1.62,,0.000055889999999999995,1.62,,0.000055889999999999995,1.5434269168926886
0.000071515,2.0112540947037254,,0.000071515,1.6183983384254084,,0.000071515,1.6183983384254084,,0.000071515,1.6183983384254084,,0.000071515,1.5282694973034674,,0.000071515,1.5282694973034674,,0.000071515,1.5282694973034674,,0.000071515,1.528269524275529,,0.000071515,1.4395415892669006,,0.000071515,1.4395415892669006,,0.000071515,1.4399220354255877,,0.000071515,1.62,,0.000071515,1.62,,0.000071515,1.5297697722121868
0.00008714,2.0644718045387465,,0.00008714,1.618405458169956,,0.00008714,1.618405458169956,,0.00008714,1.618405458169956,,0.00008714,1.5176371393235943,,0.00008714,1.5176371393235943,,0.00008714,1.5176371393235943,,0.00008714,1.5176371659101913,,0.00008714,1.4182480923282674,,0.00008714,1.4182480923282674,,0.00008714,1.418524166867744,,0.00008714,1.62,,0.00008714,1.62,,0.00008714,1.5191230310407497
0.000102765,2.1006087121880035,,0.000102765,1.6184092175058078,,0.000102765,1.6184092175058078,,0.000102765,1.6184092175058078,,0.000102765,1.5104171901025572,,0.000102765,1.5104171901025572,,0.000102765,1.5104171901025572,,0.000102765,1.5104172164912222,,0.000102765,1.4037933799304196,,0.000102765,1.4037933799304196,,0.000102765,1.403964033436869,,0.000102765,1.62,,0.000102765,1.62,,0.000102765,1.5118956786156534
0.00011839,2.1182760965563463,,0.00011839,1.618408666697032,,0.00011839,1.618408666697032,,0.00011839,1.618408666697032,,0.00011839,1.5068861419000337,,0.00011839,1.5068861419000337,,0.00011839,1.5068861419000337,,0.00011839,1.5068861683166441,,0.00011839,1.3967332839190043,,0.00011839,1.3967332839190043,,0.00011839,1.3967829571790296,,0.00011839,1.62,,0.00011839,1.62,,0.00011839,1.5083656301453472
0.000134015,2.116795009970483,,0.000134015,1.61840463827358,,0.000134015,1.61840463827358,,0.000134015,1.61840463827358,,0.000134015,1.5071806645343941,,0.000134015,1.5071806645343941,,0.000134015,1.5071806645343941,,0.000134015,1.5071806911725933,,0.000134015,1.3973387577230318,,0.000134015,1.3973387577230318,,0.000134015,1.3972740177951115,,0.000134015,1.62,,0.000134015,1.62,,0.000134015,1.5086683629393423
0.00014963999999999998,2.0962223697573052,,0.00014963999999999998,1.6183964696251323,,0.00014963999999999998,1.6183964696251323,,0.00014963999999999998,1.6183964696251323,,0.00014963999999999998,1.5112884587415447,,0.00014963999999999998,1.5112884587415447,,0.00014963999999999998,1.5112884587415447,,0.00014963999999999998,1.511288485818022,,0.00014963999999999998,1.405586910579814,,0.00014963999999999998,1.405586910579814,,0.00014963999999999998,1.405402262802771,,0.00014963999999999998,1.62,,0.00014963999999999998,1.62,,0.00014963999999999998,1.5127924311897485
0.000165265,2.0573487709429363,,0.000165265,1.618385298108393,,0.000165265,1.618385298108393,,0.000165265,1.618385298108393,,0.000165265,1.519052652403114,,0.000165265,1.519052652403114,,0.000165265,1.519052652403114,,0.000165265,1.5190526800857724,,0.000165265,1.4211603793816474,,0.000165265,1.4211603793816474,,0.000165265,1.4208704386310576,,0.000165265,1.62,,0.000165265,1.62,,0.000165265,1.5205791542484037
0.00018089,2.0016681041292466,,0.00018089,1.6183707236165836,,0.00018089,1.6183707236165836,,0.00018089,1.6183707236165836,,0.00018089,1.5301738765848003,,0.00018089,1.5301738765848003,,0.00018089,1.5301738765848003,,0.00018089,1.5301739050505552,,0.00018089,1.4434610882190468,,0.00018089,1.4434610882190468,,0.00018089,1.443069913417954,,0.00018089,1.62,,0.00018089,1.62,,0.00018089,1.5317294939981858
0.00019651500000000003,1.9313201461158085,,0.00019651500000000003,1.6183541416052314,,0.00019651500000000003,1.6183541416052314,,0.00019651500000000003,1.6183541416052314,,0.00019651500000000003,1.544225751298151,,0.00019651500000000003,1.544225751298151,,0.00019651500000000003,1.544225751298151,,0.00019651500000000003,1.5442257806611692,,0.00019651500000000003,1.4716316180821354,,0.00019651500000000003,1.4716316180821354,,0.00019651500000000003,1.471160915834848,,0.00019651500000000003,1.62,,0.00019651500000000003,1.62,,0.00019651500000000003,1.5458147421026815
0.00021214000000000004,1.8490083294774893,,0.00021214000000000004,1.6183353480394045,,0.00021214000000000004,1.6183353480394045,,0.00021214000000000004,1.6183353480394045,,0.00021214000000000004,1.5606672613318002,,0.00021214000000000004,1.5606672613318002,,0.00021214000000000004,1.5606672613318002,,0.00021214000000000004,1.5606672917047524,,0.00021214000000000004,1.5045898168256893,,0.00021214000000000004,1.5045898168256893,,0.00021214000000000004,1.5040513866518226,,0.00021214000000000004,1.62,,0.00021214000000000004,1.62,,0.00021214000000000004,1.5622938225249037
0.00022776500000000005,1.757895851166701,,0.00022776500000000005,1.6183159122865223,,0.00022776500000000005,1.6183159122865223,,0.00022776500000000005,1.6183159122865223,,0.00022776500000000005,1.5788675852262315,,0.00022776500000000005,1.5788675852262315,,0.00022776500000000005,1.5788675852262315,,0.00022776500000000005,1.578867616649677,,0.00022776500000000005,1.5410686844818693,,0.00022776500000000005,1.5410686844818693,,0.00022776500000000005,1.5404891457508905,,0.00022776500000000005,1.62,,0.00022776500000000005,1.62,,0.00022776500000000005,1.5805332366260207
0.00024339000000000007,1.6614841126284605,,0.00024339000000000007,1.618295728279036,,0.00024339000000000007,1.618295728279036,,0.00024339000000000007,1.618295728279036,,0.00024339000000000007,1.59812627115371,,0.00024339000000000007,1.59812627115371,,0.00024339000000000007,1.59812627115371,,0.00024339000000000007,1.5981263036614393,,0.00024339000000000007,1.5796668017160531,,0.00024339000000000007,1.5796668017160531,,0.00024339000000000007,1.5790628377009983,,0.00024339000000000007,1.62,,0.00024339000000000007,1.62,,0.00024339000000000007,1.599832274874514
0.0002590150000000001,1.5634781629064667,,0.0002590150000000001,1.6182764304438646,,0.0002590150000000001,1.6182764304438646,,0.0002590150000000001,1.6182764304438646,,0.0002590150000000001,1.617704249115826,,0.0002590150000000001,1.617704249115826,,0.0002590150000000001,1.617704249115826,,0.0002590150000000001,1.6177042826660721,,0.0002590150000000001,1.6189004139815626,,0.0002590150000000001,1.6189004139815626,,0.0002590150000000001,1.6183005034675682,,0.0002590150000000001,1.62,,0.0002590150000000001,1.62,,0.0002590150000000001,1.6194490614072823
0.0002746400000000001,1.467644315686166,,0.0002746400000000001,1.6182578958622045,,0.0002746400000000001,1.6182578958622045,,0.0002746400000000001,1.6182578958622045,,0.0002746400000000001,1.6368481109506228,,0.0002746400000000001,1.6368481109506228,,0.0002746400000000001,1.6368481109506228,,0.0002746400000000001,1.636848145495719,,0.0002746400000000001,1.6572622525472855,,0.0002746400000000001,1.6572622525472855,,0.0002746400000000001,1.6566844810477321,,0.0002746400000000001,1.62,,0.0002746400000000001,1.62,,0.0002746400000000001,1.6386299619794915
0.0002902650000000001,1.377665411971994,,0.0002902650000000001,1.6182417070514115,,0.0002902650000000001,1.6182417070514115,,0.0002902650000000001,1.6182417070514115,,0.0002902650000000001,1.654823213057236,,0.0002902650000000001,1.654823213057236,,0.0002902650000000001,1.654823213057236,,0.0002902650000000001,1.6548232484768592,,0.0002902650000000001,1.6932776306997617,,0.0002902650000000001,1.6932776306997617,,0.0002902650000000001,1.692748888310617,,0.0002902650000000001,1.62,,0.0002902650000000001,1.62,,0.0002902650000000001,1.6566376345909215
0.0003058900000000001,1.2969992905729355,,0.0003058900000000001,1.61822761021164,,0.0003058900000000001,1.61822761021164,,0.0003058900000000001,1.61822761021164,,0.0003058900000000001,1.6709377312104587,,0.0003058900000000001,1.6709377312104587,,0.0003058900000000001,1.6709377312104587,,0.0003058900000000001,1.6709377673853534,,0.0003058900000000001,1.7255629652967186,,0.0003058900000000001,1.7255629652967186,,0.0003058900000000001,1.7250991497307648,,0.0003058900000000001,1.62,,0.0003058900000000001,1.62,,0.0003058900000000001,1.672780287660866
0.00032151500000000014,1.2287459052962744,,0.00032151500000000014,1.618217028649566,,0.00032151500000000014,1.618217028649566,,0.00032151500000000014,1.618217028649566,,0.00032151500000000014,1.6845734513832888,,0.00032151500000000014,1.6845734513832888,,0.00032151500000000014,1.6845734513832888,,0.00032151500000000014,1.6845734881302592,,0.00032151500000000014,1.7528770770778233,,0.00032151500000000014,1.7528770770778233,,0.00032151500000000014,1.7525001848667903,,0.00032151500000000014,1.62,,0.00032151500000000014,1.62,,0.00032151500000000014,1.6864373327526252
0.00033714000000000015,1.175528195461253,,0.00033714000000000015,1.6182094818261525,,0.00033714000000000015,1.6182094818261525,,0.00033714000000000015,1.6182094818261525,,0.00033714000000000015,1.695205295857447,,0.00033714000000000015,1.695205295857447,,0.00033714000000000015,1.695205295857447,,0.00033714000000000015,1.6952053330064583,,0.00033714000000000015,1.7741707754950349,,0.00033714000000000015,1.7741707754950349,,0.00033714000000000015,1.7738913522839943,,0.00033714000000000015,1.62,,0.00033714000000000015,1.62,,0.00033714000000000015,1.697084174356341
0.00035276500000000016,1.1393912878119965,,0.00035276500000000016,1.618206152517145,,0.00035276500000000016,1.618206152517145,,0.00035276500000000016,1.618206152517145,,0.00035276500000000016,1.7024257601000732,,0.00035276500000000016,1.7024257601000732,,0.00035276500000000016,1.7024257601000732,,0.00035276500000000016,1.7024257974302748,,0.00035276500000000016,1.7886252771865625,,0.00035276500000000016,1.7886252771865625,,0.00035276500000000016,1.7884577789398393,,0.00035276500000000016,1.62,,0.00035276500000000016,1.62,,0.00035276500000000016,1.7043114217384767
0.0003683900000000002,1.121723903443654,,0.0003683900000000002,1.6182062703739646,,0.0003683900000000002,1.6182062703739646,,0.0003683900000000002,1.6182062703739646,,0.0003683900000000002,1.7059562877493866,,0.0003683900000000002,1.7059562877493866,,0.0003683900000000002,1.7059562877493866,,0.0003683900000000002,1.705956325068542,,0.0003683900000000002,1.7956855845143394,,0.0003683900000000002,1.7956855845143394,,0.0003683900000000002,1.7956329372413309,,0.0003683900000000002,1.62,,0.0003683900000000002,1.62,,0.0003683900000000002,1.707841575553901
0.0003840150000000002,1.1232049900295173,,0.0003840150000000002,1.6182107346597565,,0.0003840150000000002,1.6182107346597565,,0.0003840150000000002,1.6182107346597565,,0.0003840150000000002,1.7056622871394513,,0.0003840150000000002,1.7056622871394513,,0.0003840150000000002,1.7056622871394513,,0.0003840150000000002,1.7056623242199684,,0.0003840150000000002,1.7950798911840262,,0.0003840150000000002,1.7950798911840262,,0.0003840150000000002,1.7951474342815168,,0.0003840150000000002,1.62,,0.0003840150000000002,1.62,,0.0003840150000000002,1.707538733312524
0.0003996400000000002,1.1437776302426954,,0.0003996400000000002,1.6182184645582234,,0.0003996400000000002,1.6182184645582234,,0.0003996400000000002,1.6182184645582234,,0.0003996400000000002,1.7015539654215006,,0.0003996400000000002,1.7015539654215006,,0.0003996400000000002,1.7015539654215006,,0.0003996400000000002,1.701554002080932,,0.0003996400000000002,1.7868319575105267,,0.0003996400000000002,1.7868319575105267,,0.0003996400000000002,1.7870139621683339,,0.0003996400000000002,1.62,,0.0003996400000000002,1.62,,0.0003996400000000002,1.703414774335413
0.0004152650000000002,1.1826512290570645,,0.0004152650000000002,1.6182300776979779,,0.0004152650000000002,1.6182300776979779,,0.0004152650000000002,1.6182300776979779,,0.0004152650000000002,1.6937903006972521,,0.0004152650000000002,1.6937903006972521,,0.0004152650000000002,1.6937903006972521,,0.0004152650000000002,1.6937903367331726,,0.0004152650000000002,1.771258262210034,,0.0004152650000000002,1.771258262210034,,0.0004152650000000002,1.7715506951442657,,0.0004152650000000002,1.62,,0.0004152650000000002,1.62,,0.0004152650000000002,1.6956279383483208
0.00043089000000000023,1.2383318958707545,,0.00043089000000000023,1.6182442077163572,,0.00043089000000000023,1.6182442077163572,,0.00043089000000000023,1.6182442077163572,,0.00043089000000000023,1.6826685421369219,,0.00043089000000000023,1.6826685421369219,,0.00043089000000000023,1.6826685421369219,,0.00043089000000000023,1.6826685774072068,,0.00043089000000000023,1.7489577786901285,,0.00043089000000000023,1.7489577786901285,,0.00043089000000000023,1.7493466026602875,,0.00043089000000000023,1.62,,0.00043089000000000023,1.62,,0.00043089000000000023,1.6844777109340001
0.00044651500000000025,1.308679853884193,,0.00044651500000000025,1.6182612370370684,,0.00044651500000000025,1.6182612370370684,,0.00044651500000000025,1.6182612370370684,,0.00044651500000000025,1.6686172031846875,,0.00044651500000000025,1.6686172031846875,,0.00044651500000000025,1.6686172031846875,,0.00044651500000000025,1.668617237540123,,0.00044651500000000025,1.7207870169819768,,0.00044651500000000025,1.7207870169819768,,0.00044651500000000025,1.7212599366855865,,0.00044651500000000025,1.62,,0.00044651500000000025,1.62,,0.00044651500000000025,1.670392347232614
0.00046214000000000026,1.390991670522512,,0.00046214000000000026,1.6182795804801051,,0.00046214000000000026,1.6182795804801051,,0.00046214000000000026,1.6182795804801051,,0.00046214000000000026,1.65217515199301,,0.00046214000000000026,1.65217515199301,,0.00046214000000000026,1.65217515199301,,0.00046214000000000026,1.6521751853562172,,0.00046214000000000026,1.6878290481646807,,0.00046214000000000026,1.6878290481646807,,0.00046214000000000026,1.6883653857414287,,0.00046214000000000026,1.62,,0.00046214000000000026,1.62,,0.00046214000000000026,1.6539133814455529
0.0004777650000000003,1.4821041488333004,,0.0004777650000000003,1.6182994691548442,,0.0004777650000000003,1.6182994691548442,,0.0004777650000000003,1.6182994691548442,,0.0004777650000000003,1.6339753705947635,,0.0004777650000000003,1.6339753705947635,,0.0004777650000000003,1.6339753705947635,,0.0004777650000000003,1.6339754028896567,,0.0004777650000000003,1.6513499447466058,,0.0004777650000000003,1.6513499447466058,,0.0004777650000000003,1.6519314581910332,,0.0004777650000000003,1.62,,0.0004777650000000003,1.62,,0.0004777650000000003,1.6356738497935879
