X--Trace 1::[transient: TIME],Y--Trace 1::[PR1: V(1)],,X--Trace 2::[transient: TIME],Y--Trace 2::[PR2: V(2)],,X--Trace 3::[transient: TIME],Y--Trace 3::[PR3: V(2)],,X--Trace 4::[transient: TIME],Y--Trace 4::[PR4: V(2)],,X--Trace 5::[transient: TIME],Y--Trace 5::[PR5: V(3)],,X--Trace 6::[transient: TIME],Y--Trace 6::[PR6: V(3)],,X--Trace 7::[transient: TIME],Y--Trace 7::[PR7: V(3)],,X--Trace 8::[transient: TIME],Y--Trace 8::[PR8: V(5)],,X--Trace 9::[transient: TIME],Y--Trace 9::[PR9: V(7)],,X--Trace 10::[transient: TIME],Y--Trace 10::[PR14: V(7)],,X--Trace 11::[transient: TIME],Y--Trace 11::[PR10: V(8)],,X--Trace 12::[transient: TIME],Y--Trace 12::[PR11: V(4)],,X--Trace 13::[transient: TIME],Y--Trace 13::[PR12: V(4)],,X--Trace 14::[transient: TIME],Y--Trace 14::[PR13: V(6)]
0,1.62,,0,1.6183075931279718,,0,1.6183075931279718,,0,1.6183075931279718,,0,1.6064053551665798,,0,1.6064053551665798,,0,1.6064053551665798,,0,1.606405425972756,,0,1.5961774142582517,,0,1.5961774142582517,,0,1.5961774141768466,,0,1.62,,0,1.62,,0,1.6080875929653644
1e-7,1.6206283183653514,,1e-7,1.61839042538467,,1e-7,1.61839042538467,,1e-7,1.61839042538467,,1e-7,1.6059427026884414,,1e-7,1.6059427026884414,,1e-7,1.6059427026884414,,1e-7,1.6059427575483578,,1e-7,1.5947202603694322,,1e-7,1.5947202603694322,,1e-7,1.595748461015587,,1e-7,1.62,,1e-7,1.62,,1e-7,1.6073591489158703
2e-7,1.6212566357385019,,2e-7,1.6184051219055953,,2e-7,1.6184051219055953,,2e-7,1.6184051219055953,,2e-7,1.6053437804915427,,2e-7,1.6053437804915427,,2e-7,1.6053437804915427,,2e-7,1.6053438405620113,,2e-7,1.5936961863271164,,2e-7,1.5936961863271164,,2e-7,1.5951443177215558,,2e-7,1.62,,2e-7,1.62,,2e-7,1.6068470684815568
4e-7,1.6225132635394095,,4e-7,1.6184117918385004,,4e-7,1.6184117918385004,,4e-7,1.6184117918385004,,4e-7,1.6041004981419005,,4e-7,1.6041004981419005,,4e-7,1.6041004981419005,,4e-7,1.604100551181932,,4e-7,1.5909751175748257,,4e-7,1.5909751175748257,,4e-7,1.5934907022656268,,4e-7,1.62,,4e-7,1.62,,4e-7,1.6054865927122117
8e-7,1.6250264635783653,,8e-7,1.6184106897518857,,8e-7,1.6184106897518857,,8e-7,1.6184106897518857,,8e-7,1.6015851127404532,,8e-7,1.6015851127404532,,8e-7,1.6015851127404532,,8e-7,1.6015851780612926,,8e-7,1.5863538859007995,,8e-7,1.5863538859007995,,8e-7,1.58910025367889,,8e-7,1.62,,8e-7,1.62,,8e-7,1.603175874570816
0.0000016,1.6300524191627288,,0.0000016,1.6184186628441861,,0.0000016,1.6184186628441861,,0.0000016,1.6184186628441861,,0.0000016,1.5965751713657987,,0.0000016,1.5965751713657987,,0.0000016,1.5965751713657987,,0.0000016,1.596575220297408,,0.0000016,1.575787289189393,,0.0000016,1.575787289189393,,0.0000016,1.5790584638216676,,0.0000016,1.62,,0.0000016,1.62,,0.0000016,1.5978927128699083
0.0000032,1.6401007746814766,,0.0000032,1.6184259300273123,,0.0000032,1.6184259300273123,,0.0000032,1.6184259300273123,,0.0000032,1.586541607952731,,0.0000032,1.586541607952731,,0.0000032,1.586541607952731,,0.0000032,1.5865416737956468,,0.0000032,1.5562839873038967,,0.0000032,1.5562839873038967,,0.0000032,1.5590175664011912,,0.0000032,1.62,,0.0000032,1.62,,0.0000032,1.5881409211473045
0.0000064,1.6601690500666972,,0.0000064,1.6184483092503872,,0.0000064,1.6184483092503872,,0.0000064,1.6184483092503872,,0.0000064,1.5665190926075618,,0.0000064,1.5665190926075618,,0.0000064,1.5665190926075618,,0.0000064,1.5665191366940372,,0.0000064,1.5155129347469802,,0.0000064,1.5155129347469802,,0.0000064,1.5188038698998279,,0.0000064,1.62,,0.0000064,1.62,,0.0000064,1.567755576476461
0.000012479999999999999,1.698093113473714,,0.000012479999999999999,1.6184841258766103,,0.000012479999999999999,1.6184841258766103,,0.000012479999999999999,1.6184841258766103,,0.000012479999999999999,1.528670342532854,,0.000012479999999999999,1.528670342532854,,0.000012479999999999999,1.528670342532854,,0.000012479999999999999,1.528670392349604,,0.000012479999999999999,1.4400057926082872,,0.000012479999999999999,1.4400057926082872,,0.000012479999999999999,1.442980058059616,,0.000012479999999999999,1.62,,0.000012479999999999999,1.62,,0.000012479999999999999,1.5300019582216022
0.000024639999999999998,1.7723556843138335,,0.000024639999999999998,1.618554991359536,,0.000024639999999999998,1.618554991359536,,0.000024639999999999998,1.618554991359536,,0.000024639999999999998,1.454563730706855,,0.000024639999999999998,1.454563730706855,,0.000024639999999999998,1.454563730706855,,0.000024639999999999998,1.454563771688752,,0.000024639999999999998,1.2914964245828255,,0.000024639999999999998,1.2914964245828255,,0.000024639999999999998,1.2943839706767,,0.000024639999999999998,1.62,,0.000024639999999999998,1.62,,0.000024639999999999998,1.4557473489456776
0.000040264999999999995,1.8623345880280056,,0.000040264999999999995,1.618637324741648,,0.000040264999999999995,1.618637324741648,,0.000040264999999999995,1.618637324741648,,0.000040264999999999995,1.3647806469510666,,0.000040264999999999995,1.3647806469510666,,0.000040264999999999995,1.3647806469510666,,0.000040264999999999995,1.3647806782270746,,0.000040264999999999995,1.1116047478964426,,0.000040264999999999995,1.1116047478964426,,0.000040264999999999995,1.114265258534584,,0.000040264999999999995,1.62,,0.000040264999999999995,1.62,,0.000040264999999999995,1.3658015928333853
0.000055889999999999995,1.9430007094270643,,0.000055889999999999995,1.6187056473428354,,0.000055889999999999995,1.6187056473428354,,0.000055889999999999995,1.6187056473428354,,0.000055889999999999995,1.2842958379372589,,0.000055889999999999995,1.2842958379372589,,0.000055889999999999995,1.2842958379372589,,0.000055889999999999995,1.284295860985557,,0.000055889999999999995,0.9503591071768037,,0.000055889999999999995,0.9503591071768037,,0.000055889999999999995,0.9526569964861157,,0.000055889999999999995,1.62,,0.000055889999999999995,1.62,,0.000055889999999999995,1.2851788422464452
0.000071515,2.0112540947037254,,0.000071515,1.6187606234583467,,0.000071515,1.6187606234583467,,0.000071515,1.6187606234583467,,0.000071515,1.216208785211922,,0.000071515,1.216208785211922,,0.000071515,1.216208785211922,,0.000071515,1.2162088017590074,,0.000071515,0.8139668094855804,,0.000071515,0.8139668094855804,,0.000071515,0.815865890095896,,0.000071515,1.62,,0.000071515,1.62,,0.000071515,1.2169827485999627
0.00008714,2.0644718045387465,,0.00008714,1.618796219616362,,0.00008714,1.618796219616362,,0.00008714,1.618796219616362,,0.00008714,1.1631281920717813,,0.00008714,1.1631281920717813,,0.00008714,1.1631281920717813,,0.00008714,1.1631282043166564,,0.00008714,0.707661072692191,,0.00008714,0.707661072692191,,0.00008714,0.7090395936996173,,0.00008714,1.62,,0.00008714,1.62,,0.00008714,1.1638299168519621
0.000102765,2.1006087121880035,,0.000102765,1.6188149668714298,,0.000102765,1.6188149668714298,,0.000102765,1.6188149668714298,,0.000102765,1.127101711503489,,0.000102765,1.127101711503489,,0.000102765,1.127101711503489,,0.000102765,1.1271017215852037,,0.000102765,0.6355352442157709,,0.000102765,0.6355352442157709,,0.000102765,0.636385856056596,,0.000102765,1.62,,0.000102765,1.62,,0.000102765,1.1277670211808355
0.00011839,2.1182760965563463,,0.00011839,1.6188122674313299,,0.00011839,1.6188122674313299,,0.00011839,1.6188122674313299,,0.00011839,1.1095060638457845,,0.00011839,1.1095060638457845,,0.00011839,1.1095060638457845,,0.00011839,1.1095060742141618,,0.00011839,0.6003531572339849,,0.00011839,0.6003531572339849,,0.00011839,0.6006004973905225,,0.00011839,1.62,,0.00011839,1.62,,0.00011839,1.110175975564957
0.000134015,2.116795009970483,,0.000134015,1.6187920808753673,,0.000134015,1.6187920808753673,,0.000134015,1.6187920808753673,,0.000134015,1.1110251492241265,,0.000134015,1.1110251492241265,,0.000134015,1.1110251492241265,,0.000134015,1.1110251620882081,,0.000134015,0.60347459514448,,0.000134015,0.60347459514448,,0.000134015,0.6031490609197723,,0.000134015,1.62,,0.000134015,1.62,,0.000134015,1.1117366736995133
0.00014963999999999998,2.0962223697573052,,0.00014963999999999998,1.618751348499989,,0.00014963999999999998,1.618751348499989,,0.00014963999999999998,1.618751348499989,,0.00014963999999999998,1.1315929187025673,,0.00014963999999999998,1.1315929187025673,,0.00014963999999999998,1.1315929187025673,,0.00014963999999999998,1.1315929364071458,,0.00014963999999999998,0.6447719863378338,,0.00014963999999999998,0.6447719863378338,,0.00014963999999999998,0.6438487877599259,,0.00014963999999999998,1.62,,0.00014963999999999998,1.62,,0.00014963999999999998,1.1323853286493815
0.000165265,2.0573487709429363,,0.000165265,1.6186954488524476,,0.000165265,1.6186954488524476,,0.000165265,1.6186954488524476,,0.000165265,1.1704265884565859,,0.000165265,1.1704265884565859,,0.000165265,1.1704265884565859,,0.000165265,1.1704266129270922,,0.000165265,0.7226657609055457,,0.000165265,0.7226657609055457,,0.000165265,0.7212152330849511,,0.000165265,1.62,,0.000165265,1.62,,0.000165265,1.1713321589668502
0.00018089,2.0016681041292466,,0.00018089,1.6186227380137013,,0.00018089,1.6186227380137013,,0.00018089,1.6186227380137013,,0.00018089,1.2260262157007242,,0.00018089,1.2260262157007242,,0.00018089,1.2260262157007242,,0.00018089,1.226026248837409,,0.00018089,0.8341551634405444,,0.00018089,0.8341551634405444,,0.00018089,0.8322004860447049,,0.00018089,1.62,,0.00018089,1.62,,0.00018089,1.2270767871807444
0.00019651500000000003,1.9313201461158085,,0.00019651500000000003,1.6185397813592648,,0.00019651500000000003,1.6185397813592648,,0.00019651500000000003,1.6185397813592648,,0.00019651500000000003,1.2962626777907265,,0.00019651500000000003,1.2962626777907265,,0.00019651500000000003,1.2962626777907265,,0.00019651500000000003,1.2962627209246709,,0.00019651500000000003,0.9749629230597122,,0.00019651500000000003,0.9749629230597122,,0.00019651500000000003,0.9726096233755755,,0.00019651500000000003,1.62,,0.00019651500000000003,1.62,,0.00019651500000000003,1.2974805826246427
0.00021214000000000004,1.8490083294774893,,0.00021214000000000004,1.618446016579274,,0.00021214000000000004,1.618446016579274,,0.00021214000000000004,1.618446016579274,,0.00021214000000000004,1.3784293238902228,,0.00021214000000000004,1.3784293238902228,,0.00021214000000000004,1.3784293238902228,,0.00021214000000000004,1.3784293782055794,,0.00021214000000000004,1.139670783528281,,0.00021214000000000004,1.139670783528281,,0.00021214000000000004,1.1369809090657956,,0.00021214000000000004,1.62,,0.00021214000000000004,1.62,,0.00021214000000000004,1.3798344184460876
0.00022776500000000005,1.757895851166701,,0.00022776500000000005,1.6183487765776985,,0.00022776500000000005,1.6183487765776985,,0.00022776500000000005,1.6183487765776985,,0.00022776500000000005,1.469375992595087,,0.00022776500000000005,1.469375992595087,,0.00022776500000000005,1.469375992595087,,0.00022776500000000005,1.4693760586080866,,0.00022776500000000005,1.3219560823851035,,0.00022776500000000005,1.3219560823851035,,0.00022776500000000005,1.3190594943985847,,0.00022776500000000005,1.62,,0.00022776500000000005,1.62,,0.00022776500000000005,1.4709769690280012
0.00024339000000000007,1.6614841126284605,,0.00024339000000000007,1.6182480892491973,,0.00024339000000000007,1.6182480892491973,,0.00024339000000000007,1.6182480892491973,,0.00024339000000000007,1.5656002340508977,,0.00024339000000000007,1.5656002340508977,,0.00024339000000000007,1.5656002340508977,,0.00024339000000000007,1.5656003120672766,,0.00024339000000000007,1.5148068293815475,,0.00024339000000000007,1.5148068293815475,,0.00024339000000000007,1.511790132866477,,0.00024339000000000007,1.62,,0.00024339000000000007,1.62,,0.00024339000000000007,1.5674022410527066
0.0002590150000000001,1.5634781629064667,,0.0002590150000000001,1.6181515124814163,,0.0002590150000000001,1.6181515124814163,,0.0002590150000000001,1.6181515124814163,,0.0002590150000000001,1.6634115792563935,,0.0002590150000000001,1.6634115792563935,,0.0002590150000000001,1.6634115792563935,,0.0002590150000000001,1.6634116688808933,,0.0002590150000000001,1.7108186330121173,,0.0002590150000000001,1.7108186330121173,,0.0002590150000000001,1.707820794999682,,0.0002590150000000001,1.62,,0.0002590150000000001,1.62,,0.0002590150000000001,1.6654080446645445
0.0002746400000000001,1.467644315686166,,0.0002746400000000001,1.618059089471429,,0.0002746400000000001,1.618059089471429,,0.0002746400000000001,1.618059089471429,,0.0002746400000000001,1.7590438542697568,,0.0002746400000000001,1.7590438542697568,,0.0002746400000000001,1.7590438542697568,,0.0002746400000000001,1.7590439549012746,,0.0002746400000000001,1.9024522046233405,,0.0002746400000000001,1.9024522046233405,,0.0002746400000000001,1.8995669632170222,,0.0002746400000000001,1.62,,0.0002746400000000001,1.62,,0.0002746400000000001,1.7612247373086183
0.0002902650000000001,1.377665411971994,,0.0002902650000000001,1.6179780199778495,,0.0002902650000000001,1.6179780199778495,,0.0002902650000000001,1.6179780199778495,,0.0002902650000000001,1.8488292579571681,,0.0002902650000000001,1.8488292579571681,,0.0002902650000000001,1.8488292579571681,,0.0002902650000000001,1.8488293683309454,,0.0002902650000000001,2.08234973423521,,0.0002902650000000001,2.08234973423521,,0.0002902650000000001,2.0797079613890705,,0.0002902650000000001,1.62,,0.0002902650000000001,1.62,,0.0002902650000000001,1.8511734195805982
0.0003058900000000001,1.2969992905729355,,0.0003058900000000001,1.6179077915452305,,0.0003058900000000001,1.6179077915452305,,0.0003058900000000001,1.6179077915452305,,0.0003058900000000001,1.9293101293757609,,0.0003058900000000001,1.9293101293757609,,0.0003058900000000001,1.9293101293757609,,0.0003058900000000001,1.9293102480936066,,0.0003058900000000001,2.2435913804791228,,0.0003058900000000001,2.2435913804791228,,0.0003058900000000001,2.2412759875533315,,0.0003058900000000001,1.62,,0.0003058900000000001,1.62,,0.0003058900000000001,1.931794171960132
0.00032151500000000014,1.2287459052962744,,0.00032151500000000014,1.6178547109746386,,0.00032151500000000014,1.6178547109746386,,0.00032151500000000014,1.6178547109746386,,0.00032151500000000014,1.9974008472709632,,0.00032151500000000014,1.9974008472709632,,0.00032151500000000014,1.9974008472709632,,0.00032151500000000014,1.997400972372884,,0.00032151500000000014,2.379987101804574,,0.00032151500000000014,2.379987101804574,,0.00032151500000000014,2.378104380474526,,0.00032151500000000014,1.62,,0.00032151500000000014,1.62,,0.00032151500000000014,1.999991978399738
0.00033714000000000015,1.175528195461253,,0.00033714000000000015,1.6178172299950688,,0.00033714000000000015,1.6178172299950688,,0.00033714000000000015,1.6178172299950688,,0.00033714000000000015,2.0504775448752275,,0.00033714000000000015,2.0504775448752275,,0.00033714000000000015,2.0504775448752275,,0.00033714000000000015,2.050477674397122,,0.00033714000000000015,2.4862889751041735,,0.00033714000000000015,2.4862889751041735,,0.00033714000000000015,2.4848951834845754,,0.00033714000000000015,1.62,,0.00033714000000000015,1.62,,0.00033714000000000015,2.053142877419614
0.00035276500000000016,1.1393912878119965,,0.00035276500000000016,1.6178003574059954,,0.00035276500000000016,1.6178003574059954,,0.00035276500000000016,1.6178003574059954,,0.00035276500000000016,2.086507648895295,,0.00035276500000000016,2.086507648895295,,0.00035276500000000016,2.086507648895295,,0.00035276500000000016,2.086507780461987,,0.00035276500000000016,2.5584181029235937,,0.00035276500000000016,2.5584181029235937,,0.00035276500000000016,2.557581754003978,,0.00035276500000000016,1.62,,0.00035276500000000016,1.62,,0.00035276500000000016,2.089207423748496
0.0003683900000000002,1.121723903443654,,0.0003683900000000002,1.617801192773202,,0.0003683900000000002,1.617801192773202,,0.0003683900000000002,1.617801192773202,,0.0003683900000000002,2.1040994425541433,,0.0003683900000000002,2.1040994425541433,,0.0003683900000000002,2.1040994425541433,,0.0003683900000000002,2.104099573952993,,0.0003683900000000002,2.5935964447128814,,0.0003683900000000002,2.5935964447128814,,0.0003683900000000002,2.593335801971675,,0.0003683900000000002,1.62,,0.0003683900000000002,1.62,,0.0003683900000000002,2.10679659577793
0.0003840150000000002,1.1232049900295173,,0.0003840150000000002,1.6178232333757638,,0.0003840150000000002,1.6178232333757638,,0.0003840150000000002,1.6178232333757638,,0.0003840150000000002,2.1025839394285226,,0.0003840150000000002,2.1025839394285226,,0.0003840150000000002,2.1025839394285226,,0.0003840150000000002,2.102584068212407,,0.0003840150000000002,2.59047819379229,,0.0003840150000000002,2.59047819379229,,0.0003840150000000002,2.590816143424777,,0.0003840150000000002,1.62,,0.0003840150000000002,1.62,,0.0003840150000000002,2.10523749213223
0.0003996400000000002,1.1437776302426954,,0.0003996400000000002,1.617862122169053,,0.0003996400000000002,1.617862122169053,,0.0003996400000000002,1.617862122169053,,0.0003996400000000002,2.0820123569722604,,0.0003996400000000002,2.0820123569722604,,0.0003996400000000002,2.0820123569722604,,0.0003996400000000002,2.082012481035218,,0.0003996400000000002,2.5491771644659225,,0.0003996400000000002,2.5491771644659225,,0.0003996400000000002,2.5500887947910886,,0.0003996400000000002,1.62,,0.0003996400000000002,1.62,,0.0003996400000000002,2.084587017119516
0.0004152650000000002,1.1826512290570645,,0.0004152650000000002,1.6179198554999936,,0.0004152650000000002,1.6179198554999936,,0.0004152650000000002,1.6179198554999936,,0.0004152650000000002,2.0431822287840538,,0.0004152650000000002,2.0431822287840538,,0.0004152650000000002,2.0431822287840538,,0.0004152650000000002,2.043182345961211,,0.0004152650000000002,2.4712864751205608,,0.0004152650000000002,2.4712864751205608,,0.0004152650000000002,2.4727477903025457,,0.0004152650000000002,1.62,,0.0004152650000000002,1.62,,0.0004152650000000002,2.0456417304120533
0.00043089000000000023,1.2383318958707545,,0.00043089000000000023,1.6179907429929117,,0.00043089000000000023,1.6179907429929117,,0.00043089000000000023,1.6179907429929117,,0.00043089000000000023,1.9875788290743648,,0.00043089000000000023,1.9875788290743648,,0.00043089000000000023,1.9875788290743648,,0.00043089000000000023,1.9875789377053954,,0.00043089000000000023,2.3597935315431466,,0.00043089000000000023,2.3597935315431466,,0.00043089000000000023,2.361738168914192,,0.00043089000000000023,1.62,,0.00043089000000000023,1.62,,0.00043089000000000023,1.98989533067658
0.00044651500000000025,1.308679853884193,,0.00044651500000000025,1.6180755132204492,,0.00044651500000000025,1.6180755132204492,,0.00044651500000000025,1.6180755132204492,,0.00044651500000000025,1.9173458683694458,,0.00044651500000000025,1.9173458683694458,,0.00044651500000000025,1.9173458683694458,,0.00044651500000000025,1.9173459668829846,,0.00044651500000000025,2.2189887647705477,,0.00044651500000000025,2.2189887647705477,,0.00044651500000000025,2.221351417323374,,0.00044651500000000025,1.62,,0.00044651500000000025,1.62,,0.00044651500000000025,1.9194930326578976
0.00046214000000000026,1.390991670522512,,0.00046214000000000026,1.618167474639602,,0.00046214000000000026,1.618167474639602,,0.00046214000000000026,1.618167474639602,,0.00046214000000000026,1.8351754898139787,,0.00046214000000000026,1.8351754898139787,,0.00046214000000000026,1.8351754898139787,,0.00046214000000000026,1.8351755772664033,,0.00046214000000000026,2.05427745150154,,0.00046214000000000026,2.05427745150154,,0.00046214000000000026,2.0569586324004128,,0.00046214000000000026,1.62,,0.00046214000000000026,1.62,,0.00046214000000000026,1.8371374694337441
0.0004777650000000003,1.4821041488333004,,0.0004777650000000003,1.6182665083536305,,0.0004777650000000003,1.6182665083536305,,0.0004777650000000003,1.6182665083536305,,0.0004777650000000003,1.744232282812563,,0.0004777650000000003,1.744232282812563,,0.0004777650000000003,1.744232282812563,,0.0004777650000000003,1.744232358446972,,0.0004777650000000003,1.8719950614534935,,0.0004777650000000003,1.8719950614534935,,0.0004777650000000003,1.8748997385127986,,0.0004777650000000003,1.62,,0.0004777650000000003,1.62,,0.0004777650000000003,1.745996374259329
