X--Trace 1::[transient: TIME],Y--Trace 1::[PR1: V(1)],,X--Trace 2::[transient: TIME],Y--Trace 2::[PR2: V(2)],,X--Trace 3::[transient: TIME],Y--Trace 3::[PR3: V(2)],,X--Trace 4::[transient: TIME],Y--Trace 4::[PR4: V(2)],,X--Trace 5::[transient: TIME],Y--Trace 5::[PR5: V(3)],,X--Trace 6::[transient: TIME],Y--Trace 6::[PR6: V(3)],,X--Trace 7::[transient: TIME],Y--Trace 7::[PR7: V(3)],,X--Trace 8::[transient: TIME],Y--Trace 8::[PR8: V(5)],,X--Trace 9::[transient: TIME],Y--Trace 9::[PR9: V(7)],,X--Trace 10::[transient: TIME],Y--Trace 10::[PR14: V(7)],,X--Trace 11::[transient: TIME],Y--Trace 11::[PR10: V(8)],,X--Trace 12::[transient: TIME],Y--Trace 12::[PR11: V(4)],,X--Trace 13::[transient: TIME],Y--Trace 13::[PR12: V(4)],,X--Trace 14::[transient: TIME],Y--Trace 14::[PR13: V(6)]
0,1.62,,0,1.6183075931279718,,0,1.6183075931279718,,0,1.6183075931279718,,0,1.6064053551665793,,0,1.6064053551665793,,0,1.6064053551665793,,0,1.6064053870293569,,0,1.596177336215334,,0,1.596177336215334,,0,1.5961773361339289,,0,1.62,,0,1.62,,0,1.6080875539438828
1e-7,1.6206283183653514,,1e-7,1.618448803506082,,1e-7,1.618448803506082,,1e-7,1.618448803506082,,1e-7,1.6055723543428646,,1e-7,1.6055723543428646,,1e-7,1.6055723543428646,,1e-7,1.605572373285905,,1e-7,1.5935537960038046,,1e-7,1.5935537960038046,,1e-7,1.5954050252091452,,1e-7,1.62,,1e-7,1.62,,1e-7,1.6067760231096604
1.782310238268195e-7,1.6211198576139287,,1.782310238268195e-7,1.6184875600950555,,1.782310238268195e-7,1.6184875600950555,,1.782310238268195e-7,1.6184875600950555,,1.782310238268195e-7,1.6047055513695885,,1.782310238268195e-7,1.6047055513695885,,1.782310238268195e-7,1.6047055513695885,,1.782310238268195e-7,1.604705574732703,,1.782310238268195e-7,1.5921477581090542,,1.782310238268195e-7,1.5921477581090542,,1.782310238268195e-7,1.5946035326608163,,1.782310238268195e-7,1.62,,1.782310238268195e-7,1.62,,1.782310238268195e-7,1.6060729223204344
3.346930714804585e-7,1.6221029323891918,,3.346930714804585e-7,1.6185165744513235,,3.346930714804585e-7,1.6185165744513235,,3.346930714804585e-7,1.6185165744513235,,3.346930714804585e-7,1.6028264598412123,,3.346930714804585e-7,1.6028264598412123,,3.346930714804585e-7,1.6028264598412123,,3.346930714804585e-7,1.6028264723461583,,3.346930714804585e-7,1.5875848047460492,,3.346930714804585e-7,1.5875848047460492,,3.346930714804585e-7,1.5922722092435548,,3.346930714804585e-7,1.62,,3.346930714804585e-7,1.62,,3.346930714804585e-7,1.6037916467483369
6.476171667877366e-7,1.624069053750946,,6.476171667877366e-7,1.6185112400939496,,6.476171667877366e-7,1.6185112400939496,,6.476171667877366e-7,1.6185112400939496,,6.476171667877366e-7,1.598878263002367,,6.476171667877366e-7,1.598878263002367,,6.476171667877366e-7,1.598878263002367,,6.476171667877366e-7,1.5988782959089627,,6.476171667877366e-7,1.5812003617556185,,6.476171667877366e-7,1.5812003617556185,,6.476171667877366e-7,1.5860481782564944,,6.476171667877366e-7,1.62,,6.476171667877366e-7,1.62,,6.476171667877366e-7,1.6005990474964544
0.0000012734653574022926,1.6280010773122304,,0.0000012734653574022926,1.6185248955059284,,0.0000012734653574022926,1.6185248955059284,,0.0000012734653574022926,1.6185248955059284,,0.0000012734653574022926,1.5910553542714048,,0.0000012734653574022926,1.5910553542714048,,0.0000012734653574022926,1.5910553542714048,,0.0000012734653574022926,1.5910553587597318,,0.0000012734653574022926,1.5634482212532934,,0.0000012734653574022926,1.5634482212532934,,0.0000012734653574022926,1.5705058415844704,,0.0000012734653574022926,1.62,,0.0000012734653574022926,1.62,,0.0000012734653574022926,1.5917235036374007
0.0000025251617386314045,1.6358633966070466,,0.0000025251617386314045,1.6185358116482444,,0.0000025251617386314045,1.6185358116482444,,0.0000025251617386314045,1.6185358116482444,,0.0000025251617386314045,1.575364106129123,,0.0000025251617386314045,1.575364106129123,,0.0000025251617386314045,1.575364106129123,,0.0000025251617386314045,1.575364143156643,,0.0000025251617386314045,1.5344769915599188,,0.0000025251617386314045,1.5344769915599188,,0.0000025251617386314045,1.5393514935033823,,0.0000025251617386314045,1.62,,0.0000025251617386314045,1.62,,0.0000025251617386314045,1.57723728643638
0.000005028554501089628,1.651574316930334,,0.000005028554501089628,1.6185710647484195,,0.000005028554501089628,1.6185710647484195,,0.000005028554501089628,1.6185710647484195,,0.000005028554501089628,1.5440504982539185,,0.000005028554501089628,1.5440504982539185,,0.000005028554501089628,1.5440504982539185,,0.000005028554501089628,1.5440504971726914,,0.000005028554501089628,1.469024790736947,,0.000005028554501089628,1.469024790736947,,0.000005028554501089628,1.4762367661400373,,0.000005028554501089628,1.62,,0.000005028554501089628,1.62,,0.000005028554501089628,1.5445118922262648
0.000009785000749760255,1.6813261616581943,,0.000009785000749760255,1.618627462686236,,0.000009785000749760255,1.618627462686236,,0.000009785000749760255,1.618627462686236,,0.000009785000749760255,1.4847250585146685,,0.000009785000749760255,1.4847250585146685,,0.000009785000749760255,1.4847250585146685,,0.000009785000749760255,1.4847250736529023,,0.000009785000749760255,1.3515747976955241,,0.000009785000749760255,1.3515747976955241,,0.000009785000749760255,1.3575180067844943,,0.000009785000749760255,1.62,,0.000009785000749760255,1.62,,0.000009785000749760255,1.4857865962290266
0.00001818738793147372,1.7332824697317066,,0.00001818738793147372,1.6187275101255552,,0.00001818738793147372,1.6187275101255552,,0.00001818738793147372,1.6187275101255552,,0.00001818738793147372,1.3811424039211384,,0.00001818738793147372,1.3811424039211384,,0.00001818738793147372,1.3811424039211384,,0.00001818738793147372,1.3811424128087024,,0.00001818738793147372,1.1439441571549527,,0.00001818738793147372,1.1439441571549527,,0.00001818738793147372,1.149837221145935,,0.00001818738793147372,1.62,,0.00001818738793147372,1.62,,0.00001818738793147372,1.3819713932679856
0.00003381238793147372,1.8261143815002707,,0.00003381238793147372,1.6189010869983917,,0.00003381238793147372,1.6189010869983917,,0.00003381238793147372,1.6189010869983917,,0.00003381238793147372,1.1961001844514922,,0.00003381238793147372,1.1961001844514922,,0.00003381238793147372,1.1961001844514922,,0.00003381238793147372,1.1961001843338643,,0.00003381238793147372,0.7731886090130323,,0.00003381238793147372,0.7731886090130323,,0.00003381238793147372,0.7787166496725078,,0.00003381238793147372,1.62,,0.00003381238793147372,1.62,,0.00003381238793147372,1.1965937887388096
0.00004943738793147372,1.911025433178056,,0.00004943738793147372,1.619048765861507,,0.00004943738793147372,1.619048765861507,,0.00004943738793147372,1.619048765861507,,0.00004943738793147372,1.0268780729850675,,0.00004943738793147372,1.0268780729850675,,0.00004943738793147372,1.0268780729850675,,0.00004943738793147372,1.0268780647662177,,0.00004943738793147372,0.4341405897916806,,0.00004943738793147372,0.4341405897916806,,0.00004943738793147372,0.4390345396955683,,0.00004943738793147372,1.62,,0.00004943738793147372,1.62,,0.00004943738793147372,1.027069931692095
0.00006506238793147372,1.984752540667752,,0.00006506238793147372,1.6191716553896205,,0.00006506238793147372,1.6191716553896205,,0.00006506238793147372,1.6191716553896205,,0.00006506238793147372,0.8799993376909314,,0.00006506238793147372,0.8799993376909314,,0.00006506238793147372,0.8799993376909314,,0.00006506238793147372,0.8799993230256511,,0.00006506238793147372,0.1399024122035301,,0.00006506238793147372,0.1399024122035301,,0.00006506238793147372,0.14405879022486492,,0.00006506238793147372,1.62,,0.00006506238793147372,1.62,,0.00006506238793147372,0.8799509644819342
0.00006701551293147372,1.993035482216565,,0.00006701551293147372,1.6191819125145328,,0.00006701551293147372,1.6191819125145328,,0.00006701551293147372,1.6191819125145328,,0.00006701551293147372,0.863493297070551,,0.00006701551293147372,0.863493297070551,,0.00006701551293147372,0.863493297070551,,0.00006701551293147372,0.8634932817002046,,0.00006701551293147372,0.10683774572875615,,0.00006701551293147372,0.10683774572875615,,0.00006701551293147372,0.11083599564730792,,0.00006701551293147372,1.62,,0.00006701551293147372,1.62,,0.00006701551293147372,0.8634186445491948
0.00007092176293147373,2.008922403455004,,0.00007092176293147373,1.6192085803128415,,0.00007092176293147373,1.6192085803128415,,0.00007092176293147373,1.6192085803128415,,0.00007092176293147373,0.8318594965224704,,0.00007092176293147373,0.8318594965224704,,0.00007092176293147373,0.8318594965224704,,0.00007092176293147373,0.8318594798709171,,0.00007092176293147373,0.04347455677919,,0.00007092176293147373,0.04347455677919,,0.00007092176293147373,0.04727670925773571,,0.00007092176293147373,1.62,,0.00007092176293147373,1.62,,0.00007092176293147373,0.8317370742754469
0.00007189832543147372,2.0127491817472283,,0.00007189832543147372,1.6192119953099242,,0.00007189832543147372,1.6192119953099242,,0.00007189832543147372,1.6192119953099242,,0.00007189832543147372,0.8242315812095095,,0.00007189832543147372,0.8242315812095095,,0.00007189832543147372,0.8242315812095095,,0.00007189832543147372,0.8242315642232483,,0.00007189832543147372,0.02819376710356793,,0.00007189832543147372,0.02819376710356793,,0.00007189832543147372,0.03192691471893134,,0.00007189832543147372,1.62,,0.00007189832543147372,1.62,,0.00007189832543147372,0.8240966857504837
0.00007385145043147372,2.0202247311938213,,0.00007385145043147372,1.619225011593506,,0.00007385145043147372,1.619225011593506,,0.00007385145043147372,1.619225011593506,,0.00007385145043147372,0.8093507668813467,,0.00007385145043147372,0.8093507668813467,,0.00007385145043147372,0.8093507668813467,,0.00007385145043147372,0.8093507493519233,,0.00007385145043147372,-0.0016084150477619712,,0.00007385145043147372,-0.0016084150477619712,,0.00007385145043147372,0.002003277802472404,,0.00007385145043147372,1.62,,0.00007385145043147372,1.62,,0.00007385145043147372,0.8091956049567944
0.00007433973168147372,2.022056122468765,,0.00007433973168147372,1.619226019275581,,0.00007433973168147372,1.619226019275581,,0.00007433973168147372,1.619226019275581,,0.00007433973168147372,0.8056989075510714,,0.00007433973168147372,0.8056989075510714,,0.00007433973168147372,0.8056989075510714,,0.00007433973168147372,0.8056988897919032,,0.00007433973168147372,-0.00892923396183602,,0.00007433973168147372,-0.00892923396183602,,0.00007433973168147372,-0.0053355668939209025,,0.00007433973168147372,1.62,,0.00007433973168147372,1.62,,0.00007433973168147372,0.805535199809152
0.00007531629418147372,2.0256734250804085,,0.00007531629418147372,1.6192325127281726,,0.00007531629418147372,1.6192325127281726,,0.00007531629418147372,1.6192325127281726,,0.00007531629418147372,0.798499689805686,,0.00007531629418147372,0.798499689805686,,0.00007531629418147372,0.798499689805686,,0.00007531629418147372,0.7984996719000722,,0.00007531629418147372,-0.02333866719187034,,0.00007531629418147372,-0.02333866719187034,,0.00007531629418147372,-0.019821237458564005,,0.00007531629418147372,1.62,,0.00007531629418147372,1.62,,0.00007531629418147372,0.7983304860141327
0.00007556043480647372,2.0265682260415514,,0.00007556043480647372,1.6192329188268184,,0.00007556043480647372,1.6192329188268184,,0.00007556043480647372,1.6192329188268184,,0.00007556043480647372,0.7967153050772852,,0.00007556043480647372,0.7967153050772852,,0.00007556043480647372,0.7967153050772852,,0.00007556043480647372,0.7967152868285646,,0.00007556043480647372,-0.026932901088954807,,0.00007556043480647372,-0.026932901088954807,,0.00007556043480647372,-0.02340775825199992,,0.00007556043480647372,1.62,,0.00007556043480647372,1.62,,0.00007556043480647372,0.79653337544631
0.00007604871605647372,2.028346339252696,,0.00007604871605647372,1.6192359747265868,,0.00007604871605647372,1.6192359747265868,,0.00007604871605647372,1.6192359747265868,,0.00007604871605647372,0.7931762703294002,,0.00007604871605647372,0.7931762703294002,,0.00007604871605647372,0.7931762703294002,,0.00007604871605647372,0.7931762521149721,,0.00007604871605647372,-0.034008499959029576,,0.00007604871605647372,-0.034008499959029576,,0.00007604871605647372,-0.030535523268785295,,0.00007604871605647372,1.62,,0.00007604871605647372,1.62,,0.00007604871605647372,0.7929955754293028
0.00007617078636897372,2.028788467968934,,0.00007617078636897372,1.6192363209971756,,0.00007617078636897372,1.6192363209971756,,0.00007617078636897372,1.6192363209971756,,0.00007617078636897372,0.7922950631439527,,0.00007617078636897372,0.7922950631439527,,0.00007617078636897372,0.7922950631439527,,0.00007617078636897372,0.7922950430427208,,0.00007617078636897372,-0.03591076888388139,,0.00007617078636897372,-0.03591076888388139,,0.00007617078636897372,-0.03233129812091648,,0.00007617078636897372,1.62,,0.00007617078636897372,1.62,,0.00007617078636897372,0.792044475921605
0.00007641492699397372,2.0296698386070444,,0.00007641492699397372,1.6192376895842613,,0.00007641492699397372,1.6192376895842613,,0.00007641492699397372,1.6192376895842613,,0.00007641492699397372,0.7905404569806608,,0.00007641492699397372,0.7905404569806608,,0.00007641492699397372,0.7905404569806608,,0.00007641492699397372,0.7905404387905131,,0.00007641492699397372,-0.03927837994688557,,0.00007641492699397372,-0.03927837994688557,,0.00007641492699397372,-0.03588321910297379,,0.00007641492699397372,1.62,,0.00007641492699397372,1.62,,0.00007641492699397372,0.790360635025263
0.00007647596215022371,2.0298895790947444,,0.00007647596215022371,1.6192379274351345,,0.00007647596215022371,1.6192379274351345,,0.00007647596215022371,1.6192379274351345,,0.00007647596215022371,0.7901026982446977,,0.00007647596215022371,0.7901026982446977,,0.00007647596215022371,0.7901026982446977,,0.00007647596215022371,0.7901026961788912,,0.00007647596215022371,-0.03895888109637655,,0.00007647596215022371,-0.03895888109637655,,0.00007647596215022371,-0.03661401479261096,,0.00007647596215022371,1.62,,0.00007647596215022371,1.62,,0.00007647596215022371,0.7905200858522043
0.00007649122093928622,2.0299444765455474,,0.00007649122093928622,1.6192380425876156,,0.00007649122093928622,1.6192380425876156,,0.00007649122093928622,1.6192380425876156,,0.00007649122093928622,0.7899935010562897,,0.00007649122093928622,0.7899935010562897,,0.00007649122093928622,0.7899935010562897,,0.00007649122093928622,0.7899935080314661,,0.00007649122093928622,-0.03850722229605575,,0.00007649122093928622,-0.03850722229605575,,0.00007649122093928622,-0.03674474707843773,,0.00007649122093928622,1.62,,0.00007649122093928622,1.62,,0.00007649122093928622,0.7907457478250479
0.00007652173851741121,2.030054226227676,,0.00007652173851741121,1.6192381815313566,,0.00007652173851741121,1.6192381815313566,,0.00007652173851741121,1.6192381815313566,,0.00007652173851741121,0.7897749231356482,,0.00007652173851741121,0.7897749231356482,,0.00007652173851741121,0.7897749231356482,,0.00007652173851741121,0.7897749661951944,,0.00007652173851741121,-0.03627005757096847,,0.00007652173851741121,-0.03627005757096847,,0.00007652173851741121,-0.03682181855545512,,0.00007652173851741121,1.62,,0.00007652173851741121,1.62,,0.00007652173851741121,0.7918636619484324
0.00007656647579098972,2.0302150048751426,,0.00007656647579098972,1.619238420892797,,0.00007656647579098972,1.619238420892797,,0.00007656647579098972,1.619238420892797,,0.00007656647579098972,0.7894548239049214,,0.00007656647579098972,0.7894548239049214,,0.00007656647579098972,0.7894548239049214,,0.00007656647579098972,0.7894550508880339,,0.00007656647579098972,-0.023279114593576778,,0.00007656647579098972,-0.023279114593576778,,0.00007656647579098972,-0.03561879796104404,,0.00007656647579098972,1.62,,0.00007656647579098972,1.62,,0.00007656647579098972,0.7983557273818376
0.00007661923664455725,2.0304044523761626,,0.00007661923664455725,1.6192386892431643,,0.00007661923664455725,1.6192386892431643,,0.00007661923664455725,1.6192386892431643,,0.00007661923664455725,0.7890776070192864,,0.00007661923664455725,0.7890776070192864,,0.00007661923664455725,0.7890776070192864,,0.00007661923664455725,0.7890790135419251,,0.00007661923664455725,0.06338578894118073,,0.00007661923664455725,0.06338578894118073,,0.00007661923664455725,-0.02457961929906088,,0.00007661923664455725,1.62,,0.00007661923664455725,1.62,,0.00007661923664455725,0.8416663353934313
0.00007667172980477888,2.0305927596382163,,0.00007667172980477888,1.6192390064514999,,0.00007667172980477888,1.6192390064514999,,0.00007667172980477888,1.6192390064514999,,0.00007667172980477888,0.7887028131539435,,0.00007667172980477888,0.7887028131539435,,0.00007667172980477888,0.7887028131539435,,0.00007667172980477888,0.7887109536340086,,0.00007667172980477888,0.561710733783093,,0.00007667172980477888,0.561710733783093,,0.00007667172980477888,0.04196347310441518,,0.00007667172980477888,1.62,,0.00007667172980477888,1.62,,0.00007667172980477888,1.090704102410547
0.00007672950041120014,2.03079979202407,,0.00007672950041120014,1.6192394872617255,,0.00007672950041120014,1.6192394872617255,,0.00007672950041120014,1.6192394872617255,,0.00007672950041120014,0.7882911476751627,,0.00007672950041120014,0.7882911476751627,,0.00007672950041120014,0.7882911476751627,,0.00007672950041120014,0.7883305317092792,,0.00007672950041120014,2.8764444112728484,,0.00007672950041120014,2.8764444112728484,,0.00007672950041120014,0.40269765104527255,,0.00007672950041120014,1.62,,0.00007672950041120014,1.62,,0.00007672950041120014,2.2474923452551585
0.00007676870472830923,2.030940165135147,,0.00007676870472830923,1.6192395910812867,,0.00007676870472830923,1.6192395910812867,,0.00007676870472830923,1.6192395910812867,,0.00007676870472830923,0.7880113625316183,,0.00007676870472830923,0.7880113625316183,,0.00007676870472830923,0.7880113625316183,,0.00007676870472830923,0.7880516591297198,,0.00007676870472830923,2.943517792081277,,0.00007676870472830923,2.943517792081277,,0.00007676870472830923,0.7817779333988784,,0.00007676870472830923,1.62,,0.00007676870472830923,1.62,,0.00007676870472830923,2.2810121359925155
0.00007680535154698154,2.0310712907980473,,0.00007680535154698154,1.6192396639158773,,0.00007680535154698154,1.6192396639158773,,0.00007680535154698154,1.6192396639158773,,0.00007680535154698154,0.7877499371505293,,0.00007680535154698154,0.7877499371505293,,0.00007680535154698154,0.7877499371505293,,0.00007680535154698154,0.7877908665219943,,0.00007680535154698154,2.9898917391563646,,0.00007680535154698154,2.9898917391563646,,0.00007680535154698154,1.0921010069405,,0.00007680535154698154,1.62,,0.00007680535154698154,1.62,,0.00007680535154698154,2.3041873912743625
0.00007685189014687464,2.031237684502209,,0.00007685189014687464,1.6192399027137245,,0.00007685189014687464,1.6192399027137245,,0.00007685189014687464,1.6192399027137245,,0.00007685189014687464,0.7874186378157784,,0.00007685189014687464,0.7874186378157784,,0.00007685189014687464,0.7874186378157784,,0.00007685189014687464,0.7874603914556788,,0.00007685189014687464,3.0503182326371854,,0.00007685189014687464,3.0503182326371854,,0.00007685189014687464,1.4333066373474606,,0.00007685189014687464,1.62,,0.00007685189014687464,1.62,,0.00007685189014687464,2.334385373484155
0.00007694496734666082,2.0315700499041465,,0.00007694496734666082,1.6192403287018435,,0.00007694496734666082,1.6192403287018435,,0.00007694496734666082,1.6192403287018435,,0.00007694496734666082,0.7867567292675751,,0.00007694496734666082,0.7867567292675751,,0.00007694496734666082,0.7867567292675751,,0.00007694496734666082,0.7867996388969885,,0.00007694496734666082,3.1346683823674053,,0.00007694496734666082,3.1346683823674053,,0.00007694496734666082,1.9728301300915199,,0.00007694496734666082,1.62,,0.00007694496734666082,1.62,,0.00007694496734666082,2.3765390407178315
