X--Trace 1::[transient: TIME],Y--Trace 1::[PR1: V(1)],,X--Trace 2::[transient: TIME],Y--Trace 2::[PR2: V(2)],,X--Trace 3::[transient: TIME],Y--Trace 3::[PR3: V(2)],,X--Trace 4::[transient: TIME],Y--Trace 4::[PR4: V(2)],,X--Trace 5::[transient: TIME],Y--Trace 5::[PR5: V(3)],,X--Trace 6::[transient: TIME],Y--Trace 6::[PR6: V(3)],,X--Trace 7::[transient: TIME],Y--Trace 7::[PR7: V(3)],,X--Trace 8::[transient: TIME],Y--Trace 8::[PR8: V(5)],,X--Trace 9::[transient: TIME],Y--Trace 9::[PR9: V(7)],,X--Trace 10::[transient: TIME],Y--Trace 10::[PR14: V(7)],,X--Trace 11::[transient: TIME],Y--Trace 11::[PR10: V(8)],,X--Trace 12::[transient: TIME],Y--Trace 12::[PR11: V(4)],,X--Trace 13::[transient: TIME],Y--Trace 13::[PR12: V(4)],,X--Trace 14::[transient: TIME],Y--Trace 14::[PR13: V(6)]
0,1.62,,0,1.6183075931279642,,0,1.6183075931279642,,0,1.6183075931279642,,0,1.6064053551669177,,0,1.6064053551669177,,0,1.6064053551669177,,0,1.6064053868362456,,0,1.589012565132916,,0,1.589012565132916,,0,1.5890125650518765,,0,1.62,,0,1.62,,0,1.6080803889510225
1e-7,1.6206283183653514,,1e-7,1.6183904253664847,,1e-7,1.6183904253664847,,1e-7,1.6183904253664847,,1e-7,1.6059427026524247,,1e-7,1.6059427026524247,,1e-7,1.6059427026524247,,1e-7,1.6059427230507186,,1e-7,1.5867236005127645,,1e-7,1.5867236005127645,,1e-7,1.5883387456170461,,1e-7,1.62,,1e-7,1.62,,1e-7,1.6072002748464853
2e-7,1.6212566357385019,,2e-7,1.6184051219235487,,2e-7,1.6184051219235487,,2e-7,1.6184051219235487,,2e-7,1.6053437805278046,,2e-7,1.6053437805278046,,2e-7,1.6053437805278046,,2e-7,1.605343808416127,,2e-7,1.5858881127359499,,2e-7,1.5858881127359499,,2e-7,1.5876173346773745,,2e-7,1.62,,2e-7,1.62,,2e-7,1.6068787626886036
4e-7,1.6225132635394095,,4e-7,1.6184117917796244,,4e-7,1.6184117917796244,,4e-7,1.6184117917796244,,4e-7,1.6041004980245046,,4e-7,1.6041004980245046,,4e-7,1.6041004980245046,,4e-7,1.6041005113015092,,4e-7,1.5812476261952189,,4e-7,1.5812476261952189,,4e-7,1.585233192615144,,4e-7,1.62,,4e-7,1.62,,4e-7,1.6050942932240388
8e-7,1.6250264635783653,,8e-7,1.6184106898516695,,8e-7,1.6184106898516695,,8e-7,1.6184106898516695,,8e-7,1.6015851129403862,,8e-7,1.6015851129403862,,8e-7,1.6015851129403862,,8e-7,1.601585155019851,,8e-7,1.5774829114067275,,8e-7,1.5774829114067275,,8e-7,1.5798950767225974,,8e-7,1.62,,8e-7,1.62,,8e-7,1.6036456695646806
0.0000016,1.6300524191627288,,0.0000016,1.6184186627147914,,0.0000016,1.6184186627147914,,0.0000016,1.6184186627147914,,0.0000016,1.5965751711073926,,0.0000016,1.5965751711073926,,0.0000016,1.5965751711073926,,0.0000016,1.5965751723104749,,0.0000016,1.5605181592464465,,0.0000016,1.5605181592464465,,0.0000016,1.566270513363226,,0.0000016,1.62,,0.0000016,1.62,,0.0000016,1.5971216966542243
0.0000032,1.6401007746814766,,0.0000032,1.6184259301740547,,0.0000032,1.6184259301740547,,0.0000032,1.6184259301740547,,0.0000032,1.5865416082465864,,0.0000032,1.5865416082465864,,0.0000032,1.5865416082465864,,0.0000032,1.5865416570887492,,0.0000032,1.5390210484505842,,0.0000032,1.5390210484505842,,0.0000032,1.5408771736014601,,0.0000032,1.62,,0.0000032,1.62,,0.0000032,1.588852491489864
0.0000064,1.6601690500666972,,0.0000064,1.618448309093691,,0.0000064,1.618448309093691,,0.0000064,1.618448309093691,,0.0000064,1.566519092294495,,0.0000064,1.566519092294495,,0.0000064,1.566519092294495,,0.0000064,1.566519086902973,,0.0000064,1.4817361275791727,,0.0000064,1.4817361275791727,,0.0000064,1.4878275056533148,,0.0000064,1.62,,0.0000064,1.62,,0.0000064,1.5668210661060042
0.000012479999999999999,1.698093113473714,,0.000012479999999999999,1.6184841258818488,,0.000012479999999999999,1.6184841258818488,,0.000012479999999999999,1.6184841258818488,,0.000012479999999999999,1.5286703425436552,,0.000012479999999999999,1.5286703425436552,,0.000012479999999999999,1.5286703425436552,,0.000012479999999999999,1.528670362663187,,0.000012479999999999999,1.385786590429264,,0.000012479999999999999,1.385786590429264,,0.000012479999999999999,1.389593282096999,,0.000012479999999999999,1.62,,0.000012479999999999999,1.62,,0.000012479999999999999,1.5299168172099966
0.000020345979508368474,1.7464493194951027,,0.000020345979508368474,1.618530380996396,,0.000020345979508368474,1.618530380996396,,0.000020345979508368474,1.618530380996396,,0.000020345979508368474,1.480414826461195,,0.000020345979508368474,1.480414826461195,,0.000020345979508368474,1.480414826461195,,0.000020345979508368474,1.4804148420771428,,0.000020345979508368474,1.259887034585177,,0.000020345979508368474,1.259887034585177,,0.000020345979508368474,1.2637169984325212,,0.000020345979508368474,1.62,,0.000020345979508368474,1.62,,0.000020345979508368474,1.481494014654897
0.000035970979508368474,1.8383938702288873,,0.000035970979508368474,1.6186158998125528,,0.000035970979508368474,1.6186158998125528,,0.000035970979508368474,1.6186158998125528,,0.000035970979508368474,1.3886685772208367,,0.000035970979508368474,1.3886685772208367,,0.000035970979508368474,1.3886685772208367,,0.000035970979508368474,1.388668587329152,,0.000035970979508368474,1.0208136914329342,,0.000035970979508368474,1.0208136914329342,,0.000035970979508368474,1.0243618457521382,,0.000035970979508368474,1.62,,0.000035970979508368474,1.62,,0.000035970979508368474,1.3895428560534515
0.000051595979508368475,1.9219456670064692,,0.000051595979508368475,1.6186880529910173,,0.000051595979508368475,1.6186880529910173,,0.000051595979508368475,1.6186880529910173,,0.000051595979508368475,1.3053022130830902,,0.000051595979508368475,1.3053022130830902,,0.000051595979508368475,1.3053022130830902,,0.000051595979508368475,1.3053022179046414,,0.000051595979508368475,0.8035495503353778,,0.000051595979508368475,0.8035495503353778,,0.000051595979508368475,0.8066802165959105,,0.000051595979508368475,1.62,,0.000051595979508368475,1.62,,0.000051595979508368475,1.3059798468996449
0.00006722097950836848,1.9938938611340735,,0.00006722097950836848,1.6187474149061616,,0.00006722097950836848,1.6187474149061616,,0.00006722097950836848,1.6187474149061616,,0.00006722097950836848,1.2335261025964144,,0.00006722097950836848,1.2335261025964144,,0.00006722097950836848,1.2335261025964144,,0.00006722097950836848,1.233526103498636,,0.00006722097950836848,0.6165521340851834,,0.00006722097950836848,0.6165521340851834,,0.00006722097950836848,0.6191744448386788,,0.00006722097950836848,1.62,,0.00006722097950836848,1.62,,0.00006722097950836848,1.2340578543828105
0.00008284597950836848,2.0514735238603885,,0.00008284597950836848,1.6187880247002215,,0.00008284597950836848,1.6187880247002215,,0.00008284597950836848,1.6187880247002215,,0.00008284597950836848,1.1760911997932677,,0.00008284597950836848,1.1760911997932677,,0.00008284597950836848,1.1760911997932677,,0.00008284597950836848,1.1760911976209192,,0.00008284597950836848,0.4669236308221565,,0.00008284597950836848,0.4669236308221565,,0.00008284597950836848,0.4689116237836507,,0.00008284597950836848,1.62,,0.00008284597950836848,1.62,,0.00008284597950836848,1.176508501188317
0.00009847097950836848,2.0924719010378885,,0.00009847097950836848,1.6188119809439034,,0.00009847097950836848,1.6188119809439034,,0.00009847097950836848,1.6188119809439034,,0.00009847097950836848,1.1352120117133704,,0.00009847097950836848,1.1352120117133704,,0.00009847097950836848,1.1352120117133704,,0.00009847097950836848,1.1352120081109143,,0.00009847097950836848,0.3604988744411206,,0.00009847097950836848,0.3604988744411206,,0.00009847097950836848,0.3617973196703431,,0.00009847097950836848,1.62,,0.00009847097950836848,1.62,,0.00009847097950836848,1.1355759359306112
0.00011409597950836848,2.1153134480237967,,0.00011409597950836848,1.618814724142255,,0.00011409597950836848,1.618814724142255,,0.00011409597950836848,1.618814724142255,,0.00011409597950836848,1.1124522224745323,,0.00011409597950836848,1.1124522224745323,,0.00011409597950836848,1.1124522224745323,,0.00011409597950836848,1.1124522184513337,,0.00011409597950836848,0.3012822876107579,,0.00011409597950836848,0.3012822876107579,,0.00011409597950836848,0.3018239221413173,,0.00011409597950836848,1.62,,0.00011409597950836848,1.62,,0.00011409597950836848,1.1128003356211813
0.00012972097950836848,2.1191203769771327,,0.00012972097950836848,1.6187997675697439,,0.00012972097950836848,1.6187997675697439,,0.00012972097950836848,1.6187997675697439,,0.00012972097950836848,1.1086937129728165,,0.00012972097950836848,1.1086937129728165,,0.00012972097950836848,1.1086937129728165,,0.00012972097950836848,1.108693710253213,,0.00012972097950836848,0.2916356770205747,,0.00012972097950836848,0.2916356770205747,,0.00012972097950836848,0.2914134523303135,,0.00012972097950836848,1.62,,0.00012972097950836848,1.62,,0.00012972097950836848,1.1090900711360543
0.00014534597950836847,2.10374638975317,,0.00014534597950836847,1.618764087364598,,0.00014534597950836847,1.618764087364598,,0.00014534597950836847,1.618764087364598,,0.00014534597950836847,1.1240737209371467,,0.00014534597950836847,1.1240737209371467,,0.00014534597950836847,1.1240737209371467,,0.00014534597950836847,1.1240737204875908,,0.00014534597950836847,0.3318428359704963,,0.00014534597950836847,0.3318428359704963,,0.00014534597950836847,0.3308549328988114,,0.00014534597950836847,1.62,,0.00014534597950836847,1.62,,0.00014534597950836847,1.1245543110159033
0.00016097097950836848,2.069782300059093,,0.00016097097950836848,1.618712633406824,,0.00016097097950836848,1.618712633406824,,0.00016097097950836848,1.618712633406824,,0.00016097097950836848,1.158008356278123,,0.00016097097950836848,1.158008356278123,,0.00016097097950836848,1.158008356278123,,0.00016097097950836848,1.1580083596948345,,0.00016097097950836848,0.4204463181884812,,0.00016097097950836848,0.4204463181884812,,0.00016097097950836848,0.4187378332272208,,0.00016097097950836848,1.62,,0.00016097097950836848,1.62,,0.00016097097950836848,1.1586324846591192
0.0001765959795083685,2.0185333288145655,,0.0001765959795083685,1.618643824143458,,0.0001765959795083685,1.618643824143458,,0.0001765959795083685,1.618643824143458,,0.0001765959795083685,1.2091864097774476,,0.0001765959795083685,1.2091864097774476,,0.0001765959795083685,1.2091864097774476,,0.0001765959795083685,1.2091864177816227,,0.0001765959795083685,0.5539526298960704,,0.0001765959795083685,0.5539526298960704,,0.0001765959795083685,0.5515851466755481,,0.0001765959795083685,1.62,,0.0001765959795083685,1.62,,0.0001765959795083685,1.2099809605806073
0.0001922209795083685,1.9519689452437596,,0.0001922209795083685,1.6185638430988099,,0.0001922209795083685,1.6185638430988099,,0.0001922209795083685,1.6185638430988099,,0.0001922209795083685,1.2756482135588725,,0.0001922209795083685,1.2756482135588725,,0.0001922209795083685,1.2756482135588725,,0.0001922209795083685,1.2756482274315202,,0.0001922209795083685,0.7273205261442002,,0.0001922209795083685,0.7273205261442002,,0.0001922209795083685,0.7243861966060987,,0.0001922209795083685,1.62,,0.0001922209795083685,1.62,,0.0001922209795083685,1.2766607856920245
0.00020784597950836853,1.8726471812775651,,0.00020784597950836853,1.6184722442403505,,0.00020784597950836853,1.6184722442403505,,0.00020784597950836853,1.6184722442403505,,0.00020784597950836853,1.354832636043859,,0.00020784597950836853,1.354832636043859,,0.00020784597950836853,1.354832636043859,,0.00020784597950836853,1.3548326560944806,,0.00020784597950836853,0.9337973853764518,,0.00020784597950836853,0.9337973853764518,,0.00020784597950836853,0.930410557790057,,0.00020784597950836853,1.62,,0.00020784597950836853,1.62,,0.00020784597950836853,1.356074820046596
0.00022347097950836854,1.783616327821046,,0.00022347097950836854,1.6183760478880131,,0.00022347097950836854,1.6183760478880131,,0.00022347097950836854,1.6183760478880131,,0.00022347097950836854,1.443703662311371,,0.00022347097950836854,1.443703662311371,,0.00022347097950836854,1.443703662311371,,0.00022347097950836854,1.443703689368129,,0.00022347097950836854,1.1655394669552521,,0.00022347097950836854,1.1655394669552521,,0.00022347097950836854,1.1618260954739412,,0.00022347097950836854,1.62,,0.00022347097950836854,1.62,,0.00022347097950836854,1.445206228556684
0.00023909597950836855,1.6882977906434573,,0.00023909597950836855,1.618275469907014,,0.00023909597950836855,1.618275469907014,,0.00023909597950836855,1.618275469907014,,0.00023909597950836855,1.538839064435897,,0.00023909597950836855,1.538839064435897,,0.00023909597950836855,1.538839064435897,,0.00023909597950836855,1.5388390982913331,,0.00023909597950836855,1.4135490986781525,,0.00023909597950836855,1.4135490986781525,,0.00023909597950836855,1.4096585730832984,,0.00023909597950836855,1.62,,0.00023909597950836855,1.62,,0.00023909597950836855,1.5405943917350235
0.00025472097950836857,1.5903546076732828,,0.00025472097950836857,1.6181778371689641,,0.00025472097950836857,1.6181778371689641,,0.00025472097950836857,1.6181778371689641,,0.00025472097950836857,1.6365897632733608,,0.00025472097950836857,1.6365897632733608,,0.00025472097950836857,1.6365897632733608,,0.00025472097950836857,1.6365898042356328,,0.00025472097950836857,1.6683882634483906,,0.00025472097950836857,1.6683882634483906,,0.00025472097950836857,1.6644610414723393,,0.00025472097950836857,1.62,,0.00025472097950836857,1.62,,0.00025472097950836857,1.638609291321117
0.0002703459795083686,1.493550680504897,,0.0002703459795083686,1.6180834590094983,,0.0002703459795083686,1.6180834590094983,,0.0002703459795083686,1.6180834590094983,,0.0002703459795083686,1.7331923666035487,,0.0002703459795083686,1.7331923666035487,,0.0002703459795083686,1.7331923666035487,,0.0002703459795083686,1.7331924139201071,,0.0002703459795083686,1.9201698357663122,,0.0002703459795083686,1.9201698357663122,,0.0002703459795083686,1.9163681445848835,,0.0002703459795083686,1.62,,0.0002703459795083686,1.62,,0.0002703459795083686,1.7354482109838854
0.0002859709795083686,1.4016061297711122,,0.0002859709795083686,1.6179993860121367,,0.0002859709795083686,1.6179993860121367,,0.0002859709795083686,1.6179993860121367,,0.0002859709795083686,1.8249413354989819,,0.0002859709795083686,1.8249413354989819,,0.0002859709795083686,1.8249413354989819,,0.0002859709795083686,1.8249413889715906,,0.0002859709795083686,2.159312730432665,,0.0002859709795083686,2.159312730432665,,0.0002859709795083686,2.155769213568293,,0.0002859709795083686,1.62,,0.0002859709795083686,1.62,,0.0002859709795083686,1.8274261053885132
0.0003015959795083686,1.3180543329935306,,0.0003015959795083686,1.61792544421475,,0.0003015959795083686,1.61792544421475,,0.0003015959795083686,1.61792544421475,,0.0003015959795083686,1.9083039964470585,,0.0003015959795083686,1.9083039964470585,,0.0003015959795083686,1.9083039964470585,,0.0003015959795083686,1.908304054831295,,0.0003015959795083686,2.3765310957209755,,0.0003015959795083686,2.3765310957209755,,0.0003015959795083686,2.3733974304551246,,0.0003015959795083686,1.62,,0.0003015959795083686,1.62,,0.0003015959795083686,1.9109715170122625
0.0003172209795083686,1.246106138865926,,0.0003172209795083686,1.6178678612828867,,0.0003172209795083686,1.6178678612828867,,0.0003172209795083686,1.6178678612828867,,0.0003172209795083686,1.98008353896143,,0.0003172209795083686,1.98008353896143,,0.0003172209795083686,1.98008353896143,,0.0003172209795083686,1.980083601645037,,0.0003172209795083686,2.5635740553838415,,0.0003172209795083686,2.5635740553838415,,0.0003172209795083686,2.5609532090223524,,0.0003172209795083686,1.62,,0.0003172209795083686,1.62,,0.0003172209795083686,1.9829110175640734
0.00033284597950836864,1.1885264761396115,,0.00033284597950836864,1.6178254825821807,,0.00033284597950836864,1.6178254825821807,,0.00033284597950836864,1.6178254825821807,,0.00033284597950836864,2.0375147780391214,,0.00033284597950836864,2.0375147780391214,,0.00033284597950836864,2.0375147780391214,,0.00033284597950836864,2.037514843412204,,0.00033284597950836864,2.7131559258696964,,0.00033284597950836864,2.7131559258696964,,0.00033284597950836864,2.7111679435630247,,0.00033284597950836864,1.62,,0.00033284597950836864,1.62,,0.00033284597950836864,2.0404424438524082
0.00034847097950836865,1.1475280989621117,,0.00034847097950836865,1.617803285732354,,0.00034847097950836865,1.617803285732354,,0.00034847097950836865,1.617803285732354,,0.00034847097950836865,2.0783973590074822,,0.00034847097950836865,2.0783973590074822,,0.00034847097950836865,2.0783973590074822,,0.00034847097950836865,2.078397426200896,,0.00034847097950836865,2.819627105101594,,0.00034847097950836865,2.819627105101594,,0.00034847097950836865,2.818327267609595,,0.00034847097950836865,1.62,,0.00034847097950836865,1.62,,0.00034847097950836865,2.081392855158536
0.00036409597950836866,1.1246865519762033,,0.00036409597950836866,1.6177987930945668,,0.00036409597950836866,1.6177987930945668,,0.00036409597950836866,1.6177987930945668,,0.00036409597950836866,2.1011535234948187,,0.00036409597950836866,2.1011535234948187,,0.00036409597950836866,2.1011535234948187,,0.00036409597950836866,2.1011535907134777,,0.00036409597950836866,2.8787961580560184,,0.00036409597950836866,2.8787961580560184,,0.00036409597950836866,2.878257247583912,,0.00036409597950836866,1.62,,0.00036409597950836866,1.62,,0.00036409597950836866,2.104150182222374
0.0003797209795083687,1.1208796230228675,,0.0003797209795083687,1.6178154897149917,,0.0003797209795083687,1.6178154897149917,,0.0003797209795083687,1.6178154897149917,,0.0003797209795083687,2.1049153872328987,,0.0003797209795083687,2.1049153872328987,,0.0003797209795083687,2.1049153872328987,,0.0003797209795083687,2.1049154535488066,,0.0003797209795083687,2.8884901143074155,,0.0003797209795083687,2.8884901143074155,,0.0003797209795083687,2.888708367407429,,0.0003797209795083687,1.62,,0.0003797209795083687,1.62,,0.0003797209795083687,2.1078786474409537
0.0003953459795083687,1.1362536102468308,,0.0003953459795083687,1.6178494397059977,,0.0003953459795083687,1.6178494397059977,,0.0003953459795083687,1.6178494397059977,,0.0003953459795083687,2.089531793007464,,0.0003953459795083687,2.089531793007464,,0.0003953459795083687,2.089531793007464,,0.0003953459795083687,2.089531856646993,,0.0003953459795083687,2.8482344777003448,,0.0003953459795083687,2.8482344777003448,,0.0003953459795083687,2.8492275586884874,,0.0003953459795083687,1.62,,0.0003953459795083687,1.62,,0.0003953459795083687,2.092395771569763
0.0004109709795083687,1.1702176999409075,,0.0004109709795083687,1.6179026146060993,,0.0004109709795083687,1.6179026146060993,,0.0004109709795083687,1.6179026146060993,,0.0004109709795083687,2.0556004737314186,,0.0004109709795083687,2.0556004737314186,,0.0004109709795083687,2.0556004737314186,,0.0004109709795083687,2.055600533916567,,0.0004109709795083687,2.7596793060139295,,0.0004109709795083687,2.7596793060139295,,0.0004109709795083687,2.761381482898601,,0.0004109709795083687,1.62,,0.0004109709795083687,1.62,,0.0004109709795083687,2.0583361695121587
0.0004265959795083687,1.2214666711854356,,0.0004265959795083687,1.6179697126418164,,0.0004265959795083687,1.6179697126418164,,0.0004265959795083687,1.6179697126418164,,0.0004265959795083687,2.0044188719834954,,0.0004265959795083687,2.0044188719834954,,0.0004265959795083687,2.0044188719834954,,0.0004265959795083687,2.0044189271635986,,0.0004265959795083687,2.6261235313683775,,0.0004265959795083687,2.6261235313683775,,0.0004265959795083687,2.628498419215521,,0.0004265959795083687,1.62,,0.0004265959795083687,1.62,,0.0004265959795083687,2.0069686789015617
0.00044222097950836873,1.288031054756242,,0.00044222097950836873,1.6180513957604714,,0.00044222097950836873,1.6180513957604714,,0.00044222097950836873,1.6180513957604714,,0.00044222097950836873,1.937960346570008,,0.00044222097950836873,1.937960346570008,,0.00044222097950836873,1.937960346570008,,0.00044222097950836873,1.9379603963049818,,0.00044222097950836873,2.4528049515191404,,0.00044222097950836873,2.4528049515191404,,0.00044222097950836873,2.455730848898151,,0.00044222097950836873,1.62,,0.00044222097950836873,1.62,,0.00044222097950836873,1.9403078119867554
