X--Trace 1::[transient: TIME],Y--Trace 1::[PR1: V(1)],,X--Trace 2::[transient: TIME],Y--Trace 2::[PR2: V(2)],,X--Trace 3::[transient: TIME],Y--Trace 3::[PR3: V(2)],,X--Trace 4::[transient: TIME],Y--Trace 4::[PR4: V(2)],,X--Trace 5::[transient: TIME],Y--Trace 5::[PR5: V(3)],,X--Trace 6::[transient: TIME],Y--Trace 6::[PR6: V(3)],,X--Trace 7::[transient: TIME],Y--Trace 7::[PR7: V(3)],,X--Trace 8::[transient: TIME],Y--Trace 8::[PR8: V(5)],,X--Trace 9::[transient: TIME],Y--Trace 9::[PR9: V(7)],,X--Trace 10::[transient: TIME],Y--Trace 10::[PR14: V(7)],,X--Trace 11::[transient: TIME],Y--Trace 11::[PR10: V(8)],,X--Trace 12::[transient: TIME],Y--Trace 12::[PR11: V(4)],,X--Trace 13::[transient: TIME],Y--Trace 13::[PR12: V(4)],,X--Trace 14::[transient: TIME],Y--Trace 14::[PR13: V(6)]
0,1.62,,0,1.6183075931279636,,0,1.6183075931279636,,0,1.6183075931279636,,0,1.6064053551665662,,0,1.6064053551665662,,0,1.6064053551665662,,0,1.6064053868141304,,0,1.588214441303033,,0,1.588214441303033,,0,1.588214441222034,,0,1.62,,0,1.62,,0,1.6080795828549073
1e-7,1.6206283183653514,,1e-7,1.6183904253639754,,1e-7,1.6183904253639754,,1e-7,1.6183904253639754,,1e-7,1.6059427026470552,,1e-7,1.6059427026470552,,1e-7,1.6059427026470552,,1e-7,1.605942722458442,,1e-7,1.585811213828228,,1e-7,1.585811213828228,,1e-7,1.5875069853860702,,1e-7,1.62,,1e-7,1.62,,1e-7,1.607178536951634
2e-7,1.6212566357385019,,2e-7,1.6184051219269775,,2e-7,1.6184051219269775,,2e-7,1.6184051219269775,,2e-7,1.6053437805343105,,2e-7,1.6053437805343105,,2e-7,1.6053437805343105,,2e-7,1.6053438087599825,,2e-7,1.58504544679261,,2e-7,1.58504544679261,,2e-7,1.586782364051249,,2e-7,1.62,,2e-7,1.62,,2e-7,1.6068912574526062
4e-7,1.6225132635394095,,4e-7,1.618411791766779,,4e-7,1.618411791766779,,4e-7,1.618411791766779,,4e-7,1.604100497998459,,4e-7,1.604100497998459,,4e-7,1.604100497998459,,4e-7,1.6041005090687126,,4e-7,1.5800349500651474,,4e-7,1.5800349500651474,,4e-7,1.5842847687005084,,4e-7,1.62,,4e-7,1.62,,4e-7,1.6050125594682583
8e-7,1.6250264635783653,,8e-7,1.6184106898746293,,8e-7,1.6184106898746293,,8e-7,1.6184106898746293,,8e-7,1.6015851129859435,,8e-7,1.6015851129859435,,8e-7,1.6015851129859435,,8e-7,1.601585158385442,,8e-7,1.576719095263949,,8e-7,1.576719095263949,,8e-7,1.578910426088162,,8e-7,1.62,,8e-7,1.62,,8e-7,1.603768637141505
0.0000016,1.6300524191627288,,0.0000016,1.6184186626843058,,0.0000016,1.6184186626843058,,0.0000016,1.6184186626843058,,0.0000016,1.5965751710460478,,0.0000016,1.5965751710460478,,0.0000016,1.5965751710460478,,0.0000016,1.5965751673516424,,0.0000016,1.5585083864273714,,0.0000016,1.5585083864273714,,0.0000016,1.5647829471790913,,0.0000016,1.62,,0.0000016,1.62,,0.0000016,1.59694030325757
0.0000032,1.6401007746814766,,0.0000032,1.6184259302090898,,0.0000032,1.6184259302090898,,0.0000032,1.6184259302090898,,0.0000032,1.5865416083162833,,0.0000032,1.5865416083162833,,0.0000032,1.5865416083162833,,0.0000032,1.5865416622855202,,0.0000032,1.5374494153607101,,0.0000032,1.5374494153607101,,0.0000032,1.538923108588429,,0.0000032,1.62,,0.0000032,1.62,,0.0000032,1.589042388320513
0.0000064,1.6601690500666972,,0.0000064,1.6184483090560895,,0.0000064,1.6184483090560895,,0.0000064,1.6184483090560895,,0.0000064,1.5665190922189671,,0.0000064,1.5665190922189671,,0.0000064,1.5665190922189671,,0.0000064,1.5665190807963045,,0.0000064,1.477594449044682,,0.0000064,1.477594449044682,,0.0000064,1.4843034615367139,,0.0000064,1.62,,0.0000064,1.62,,0.0000064,1.5665976844162492
0.000012224943561090877,1.6965098154945872,,0.000012224943561090877,1.6184825856294365,,0.000012224943561090877,1.6184825856294365,,0.000012224943561090877,1.6184825856294365,,0.000012224943561090877,1.5302503591876682,,0.000012224943561090877,1.5302503591876682,,0.000012224943561090877,1.5302503591876682,,0.000012224943561090877,1.530250379295724,,0.000012224943561090877,1.383992256281607,,0.000012224943561090877,1.383992256281607,,0.000012224943561090877,1.387880422361925,,0.000012224943561090877,1.62,,0.000012224943561090877,1.62,,0.000012224943561090877,1.5314964246026646
0.00001932370483229793,1.7402247140288007,,0.00001932370483229793,1.6185244486800932,,0.00001932370483229793,1.6185244486800932,,0.00001932370483229793,1.6185244486800932,,0.00001932370483229793,1.486626289933963,,0.00001932370483229793,1.486626289933963,,0.00001932370483229793,1.486626289933963,,0.00001932370483229793,1.4866263054506976,,0.00001932370483229793,1.267206594208943,,0.00001932370483229793,1.267206594208943,,0.00001932370483229793,1.2711538588206457,,0.00001932370483229793,1.62,,0.00001932370483229793,1.62,,0.00001932370483229793,1.4877018655858627
0.00003352122737471203,1.8244462608204528,,0.00003352122737471203,1.6186031565887429,,0.00003352122737471203,1.6186031565887429,,0.00003352122737471203,1.6186031565887429,,0.00003352122737471203,1.4025854977695562,,0.00003352122737471203,1.4025854977695562,,0.00003352122737471203,1.4025854977695562,,0.00003352122737471203,1.4025855082390526,,0.00003352122737471203,1.0425968784439452,,0.00003352122737471203,1.0425968784439452,,0.00003352122737471203,1.046280660034221,,0.00003352122737471203,1.62,,0.00003352122737471203,1.62,,0.00003352122737471203,1.4034732932214002
0.00004914622737471203,1.9095358947615644,,0.00004914622737471203,1.6186776281746997,,0.00004914622737471203,1.6186776281746997,,0.00004914622737471203,1.6186776281746997,,0.00004914622737471203,1.31768385879748,,0.00004914622737471203,1.31768385879748,,0.00004914622737471203,1.31768385879748,,0.00004914622737471203,1.3176838636178816,,0.00004914622737471203,0.8156320816873746,,0.00004914622737471203,0.8156320816873746,,0.00004914622737471203,0.8189239671115497,,0.00004914622737471203,1.62,,0.00004914622737471203,1.62,,0.00004914622737471203,1.3183615738540355
0.00006477122737471203,1.9834988266405893,,0.00006477122737471203,1.6187391903888118,,0.00006477122737471203,1.6187391903888118,,0.00006477122737471203,1.6187391903888118,,0.00006477122737471203,1.2438956176958627,,0.00006477122737471203,1.2438956176958627,,0.00006477122737471203,1.2438956176958627,,0.00006477122737471203,1.2438956183947663,,0.00006477122737471203,0.6184542436593559,,0.00006477122737471203,0.6184542436593559,,0.00006477122737471203,0.6212279871408035,,0.00006477122737471203,1.62,,0.00006477122737471203,1.62,,0.00006477122737471203,1.2444199426677938
0.00008039622737471203,2.043492702464307,,0.00008039622737471203,1.6187828323907518,,0.00008039622737471203,1.6187828323907518,,0.00008039622737471203,1.6187828323907518,,0.00008039622737471203,1.1840511226934558,,0.00008039622737471203,1.1840511226934558,,0.00008039622737471203,1.1840511226934558,,0.00008039622737471203,1.1840511199595003,,0.00008039622737471203,0.4585281418952888,,0.00008039622737471203,0.4585281418952888,,0.00008039622737471203,0.4606802595184809,,0.00008039622737471203,1.62,,0.00008039622737471203,1.62,,0.00008039622737471203,1.1844477028591323
0.00009602122737471203,2.0872119912297653,,0.00009602122737471203,1.6188095073940976,,0.00009602122737471203,1.6188095073940976,,0.00009602122737471203,1.6188095073940976,,0.00009602122737471203,1.140455422446485,,0.00009602122737471203,1.140455422446485,,0.00009602122737471203,1.140455422446485,,0.00009602122737471203,1.1404554181102398,,0.00009602122737471203,0.34211346292650097,,0.00009602122737471203,0.34211346292650097,,0.00009602122737471203,0.34355493754107486,,0.00009602122737471203,1.62,,0.00009602122737471203,1.62,,0.00009602122737471203,1.1407922209907602
0.00011164622737471203,2.1129765851877664,,0.00011164622737471203,1.6188155745478174,,0.00011164622737471203,1.6188155745478174,,0.00011164622737471203,1.6188155745478174,,0.00011164622737471203,1.114778641358313,,0.00011164622737471203,1.114778641358313,,0.00011164622737471203,1.114778641358313,,0.00011164622737471203,1.1147786362889833,,0.00011164622737471203,0.2735689287034025,,0.00011164622737471203,0.2735689287034025,,0.00011164622737471203,0.27425372610608423,,0.00011164622737471203,1.62,,0.00011164622737471203,1.62,,0.00011164622737471203,1.1150880311278937
0.00012727122737471203,2.119796365441456,,0.00012727122737471203,1.6188034019354316,,0.00012727122737471203,1.6188034019354316,,0.00012727122737471203,1.6188034019354316,,0.00012727122737471203,1.1080127237812887,,0.00012727122737471203,1.1080127237812887,,0.00012727122737471203,1.1080127237812887,,0.00012727122737471203,1.1080127199123866,,0.00012727122737471203,0.2556449096033722,,0.00012727122737471203,0.2556449096033722,,0.00012727122737471203,0.25553444952987203,,0.00012727122737471203,1.62,,0.00012727122737471203,1.62,,0.00012727122737471203,1.1083665073685098
0.00014289622737471204,2.1074092516602616,,0.00014289622737471204,1.618770870526624,,0.00014289622737471204,1.618770870526624,,0.00014289622737471204,1.618770870526624,,0.00014289622737471204,1.1204125040829709,,0.00014289622737471204,1.1204125040829709,,0.00014289622737471204,1.1204125040829709,,0.00014289622737471204,1.1204125022522848,,0.00014289622737471204,0.2889127076461091,,0.00014289622737471204,0.2889127076461091,,0.00014289622737471204,0.28802626675258725,,0.00014289622737471204,1.62,,0.00014289622737471204,1.62,,0.00014289622737471204,1.1208419031859493
0.00015852122737471206,2.0762912736800208,,0.00015852122737471206,1.6187218029779962,,0.00015852122737471206,1.6187218029779962,,0.00015852122737471206,1.6187218029779962,,0.00015852122737471206,1.1515066082194916,,0.00015852122737471206,1.1515066082194916,,0.00015852122737471206,1.1515066082194916,,0.00015852122737471206,1.1515066102497886,,0.00015852122737471206,0.372212633743487,,0.00015852122737471206,0.372212633743487,,0.00015852122737471206,0.37056660496259647,,0.00015852122737471206,1.62,,0.00015852122737471206,1.62,,0.00015852122737471206,1.1520793214968241
0.00017414622737471207,2.0276382779433506,,0.00017414622737471207,1.6186555266795362,,0.00017414622737471207,1.6186555266795362,,0.00017414622737471207,1.6186555266795362,,0.00017414622737471207,1.2000949882941885,,0.00017414622737471207,1.2000949882941885,,0.00017414622737471207,1.2000949882941885,,0.00017414622737471207,1.2000949947825832,,0.00017414622737471207,0.5022234273912635,,0.00017414622737471207,0.5022234273912635,,0.00017414622737471207,0.4999012619169495,,0.00017414622737471207,1.62,,0.00017414622737471207,1.62,,0.00017414622737471207,1.2008333066488408
0.00018977122737471209,1.9633199717914978,,0.00018977122737471209,1.6185771326947092,,0.00018977122737471209,1.6185771326947092,,0.00018977122737471209,1.6185771326947092,,0.00018977122737471209,1.264315505889178,,0.00018977122737471209,1.264315505889178,,0.00018977122737471209,1.264315505889178,,0.00018977122737471209,1.2643155183529637,,0.00018977122737471209,0.6740702547552173,,0.00018977122737471209,0.6740702547552173,,0.00018977122737471209,0.6711385851143936,,0.00018977122737471209,1.62,,0.00018977122737471209,1.62,,0.00018977122737471209,1.2652757831946742
0.0002053962273747121,1.8858080716597558,,0.0002053962273747121,1.6184871036251938,,0.0002053962273747121,1.6184871036251938,,0.0002053962273747121,1.6184871036251938,,0.0002053962273747121,1.3416951400430361,,0.0002053962273747121,1.3416951400430361,,0.0002053962273747121,1.3416951400430361,,0.0002053962273747121,1.3416951586638985,,0.0002053962273747121,0.8810263624307739,,0.0002053962273747121,0.8810263624307739,,0.0002053962273747121,0.8776227669201203,,0.0002053962273747121,1.62,,0.0002053962273747121,1.62,,0.0002053962273747121,1.3428842371857883
0.00022102122737471211,1.7980813164010134,,0.00022102122737471211,1.6183914153029142,,0.00022102122737471211,1.6183914153029142,,0.00022102122737471211,1.6183914153029142,,0.00022102122737471211,1.4292652645159891,,0.00022102122737471211,1.4292652645159891,,0.00022102122737471211,1.4292652645159891,,0.00022102122737471211,1.429265290359702,,0.00022102122737471211,1.1152626869348217,,0.00022102122737471211,1.1152626869348217,,0.00022102122737471211,1.1114908358018296,,0.00022102122737471211,1.62,,0.00022102122737471211,1.62,,0.00022102122737471211,1.4307227575702297
0.00023664622737471213,1.7035109960221329,,0.00023664622737471213,1.6182912428036007,,0.00023664622737471213,1.6182912428036007,,0.00023664622737471213,1.6182912428036007,,0.00023664622737471213,1.5236556017743772,,0.00023664622737471213,1.5236556017743772,,0.00023664622737471213,1.5236556017743772,,0.00023664622737471213,1.52365563449347,,0.00023664622737471213,1.3676520956857336,,0.00023664622737471213,1.3676520956857336,,0.00023664622737471213,1.363686189721665,,0.00023664622737471213,1.62,,0.00023664622737471213,1.62,,0.00023664622737471213,1.5253686892966378
0.00025227122737471214,1.605731394899628,,0.00025227122737471214,1.6181929240768536,,0.00025227122737471214,1.6181929240768536,,0.00025227122737471214,1.6181929240768536,,0.00025227122737471214,1.6212437584218056,,0.00025227122737471214,1.6212437584218056,,0.00025227122737471214,1.6212437584218056,,0.00025227122737471214,1.6212437985554855,,0.00025227122737471214,1.6286223846471068,,0.00025227122737471214,1.6286223846471068,,0.00025227122737471214,1.6245835422475166,,0.00025227122737471214,1.62,,0.00025227122737471214,1.62,,0.00025227122737471214,1.6232324435768568
0.00026789622737471216,1.5085001282692043,,0.00026789622737471216,1.6180977627994118,,0.00026789622737471216,1.6180977627994118,,0.00026789622737471216,1.6180977627994118,,0.00026789622737471216,1.7182745245991369,,0.00026789622737471216,1.7182745245991369,,0.00026789622737471216,1.7182745245991369,,0.00026789622737471216,1.7182745712353091,,0.00026789622737471216,1.8880161645143647,,0.00026789622737471216,1.8880161645143647,,0.00026789622737471216,1.884092846078589,,0.00026789622737471216,1.62,,0.00026789622737471216,1.62,,0.00026789622737471216,1.72050501962127
0.00028352122737471217,1.4155537391795465,,0.00028352122737471217,1.6180118769978746,,0.00028352122737471217,1.6180118769978746,,0.00028352122737471217,1.6180118769978746,,0.00028352122737471217,1.8110239820188256,,0.00028352122737471217,1.8110239820188256,,0.00028352122737471217,1.8110239820188256,,0.00028352122737471217,1.811024035177586,,0.00028352122737471217,2.1359949922566273,,0.00028352122737471217,2.1359949922566273,,0.00028352122737471217,2.1323028310137793,,0.00028352122737471217,1.62,,0.00028352122737471217,1.62,,0.00028352122737471217,1.8134969883878922
0.0002991462273747122,1.3304641052384352,,0.0002991462273747122,1.6179361197328106,,0.0002991462273747122,1.6179361197328106,,0.0002991462273747122,1.6179361197328106,,0.0002991462273747122,1.8959229236682664,,0.0002991462273747122,1.8959229236682664,,0.0002991462273747122,1.8959229236682664,,0.0002991462273747122,1.8959229819210137,,0.0002991462273747122,2.362897748586049,,0.0002991462273747122,2.362897748586049,,0.0002991462273747122,2.359615590440192,,0.0002991462273747122,1.62,,0.0002991462273747122,1.62,,0.0002991462273747122,1.8985854503050317
0.0003147712273747122,1.2565011733594103,,0.0003147712273747122,1.6178758363406123,,0.0003147712273747122,1.6178758363406123,,0.0003147712273747122,1.6178758363406123,,0.0003147712273747122,1.9697135964643266,,0.0003147712273747122,1.9697135964643266,,0.0003147712273747122,1.9697135964643266,,0.0003147712273747122,1.9697136594009423,,0.0003147712273747122,2.5601376362810355,,0.0003147712273747122,2.5601376362810355,,0.0003147712273747122,2.5573528972243,,0.0003147712273747122,1.62,,0.0003147712273747122,1.62,,0.0003147712273747122,1.972550342305502
0.0003303962273747122,1.1965072975356925,,0.0003303962273747122,1.6178309228323158,,0.0003303962273747122,1.6178309228323158,,0.0003303962273747122,1.6178309228323158,,0.0003303962273747122,2.0295554225296493,,0.0003303962273747122,2.0295554225296493,,0.0003303962273747122,2.0295554225296493,,0.0003303962273747122,2.0295554883293243,,0.0003303962273747122,2.72000032165037,,0.0003303962273747122,2.72000032165037,,0.0003303962273747122,2.717860432445429,,0.0003303962273747122,1.62,,0.0003303962273747122,1.62,,0.0003303962273747122,2.032498808880248
0.0003460212273747122,1.1527880087702347,,0.0003460212273747122,1.6178055125664448,,0.0003460212273747122,1.6178055125664448,,0.0003460212273747122,1.6178055125664448,,0.0003460212273747122,2.073153526341789,,0.0003460212273747122,2.073153526341789,,0.0003460212273747122,2.073153526341789,,0.0003460212273747122,2.0731535943210764,,0.0003460212273747122,2.8364784526693487,,0.0003460212273747122,2.8364784526693487,,0.0003460212273747122,2.835023588502221,,0.0003460212273747122,1.62,,0.0003460212273747122,1.62,,0.0003460212273747122,2.0761780772488807
0.00036164622737471224,1.1270234148122333,,0.00036164622737471224,1.6177981879029089,,0.00036164622737471224,1.6177981879029089,,0.00036164622737471224,1.6177981879029089,,0.00036164622737471224,2.0988276665252616,,0.00036164622737471224,2.0988276665252616,,0.00036164622737471224,2.0988276665252616,,0.00036164622737471224,2.0988277346526223,,0.00036164622737471224,2.904958142290717,,0.00036164622737471224,2.904958142290717,,0.00036164622737471224,2.904287867269708,,0.00036164622737471224,1.62,,0.00036164622737471224,1.62,,0.00036164622737471224,2.1018579585114674
0.00037727122737471225,1.120203634558544,,0.00037727122737471225,1.6178116113434045,,0.00037727122737471225,1.6178116113434045,,0.00037727122737471225,1.6178116113434045,,0.00037727122737471225,2.105595959888509,,0.00037727122737471225,2.105595959888509,,0.00037727122737471225,2.105595959888509,,0.00037727122737471225,2.105596027408234,,0.00037727122737471225,2.922947067753208,,0.00037727122737471225,2.922947067753208,,0.00037727122737471225,2.923041937592993,,0.00037727122737471225,1.62,,0.00037727122737471225,1.62,,0.00037727122737471225,2.1086038139232457
0.00039289622737471227,1.1325907483397386,,0.00039289622737471227,1.6178428990649898,,0.00039289622737471227,1.6178428990649898,,0.00039289622737471227,1.6178428990649898,,0.00039289622737471227,2.0931935663671317,,0.00039289622737471227,2.0931935663671317,,0.00039289622737471227,2.0931935663671317,,0.00039289622737471227,2.0931936312479045,,0.00039289622737471227,2.889612945228707,,0.00039289622737471227,2.889612945228707,,0.00039289622737471227,2.890516022217612,,0.00039289622737471227,1.62,,0.00039289622737471227,1.62,,0.00039289622737471227,2.0961035547689795
0.0004085212273747123,1.1637087263199801,,0.0004085212273747123,1.617893203705186,,0.0004085212273747123,1.617893203705186,,0.0004085212273747123,1.617893203705186,,0.0004085212273747123,2.062101810583461,,0.0004085212273747123,2.062101810583461,,0.0004085212273747123,2.062101810583461,,0.0004085212273747123,2.062101872212023,,0.0004085212273747123,2.80637943127801,,0.0004085212273747123,2.80637943127801,,0.0004085212273747123,2.8080078371300625,,0.0004085212273747123,1.62,,0.0004085212273747123,1.62,,0.0004085212273747123,2.064891032557712
0.0004241462273747123,1.2123617220566505,,0.0004241462273747123,1.6179582499673086,,0.0004241462273747123,1.6179582499673086,,0.0004241462273747123,1.6179582499673086,,0.0004241462273747123,2.01351084463042,,0.0004241462273747123,2.01351084463042,,0.0004241462273747123,2.01351084463042,,0.0004241462273747123,2.013510901183913,,0.0004241462273747123,2.6763007819470697,,0.0004241462273747123,2.6763007819470697,,0.0004241462273747123,2.6786415407734925,,0.0004241462273747123,1.62,,0.0004241462273747123,1.62,,0.0004241462273747123,2.01611161009381
0.0004397712273747123,1.2766800282085033,,0.0004397712273747123,1.6180378674777656,,0.0004397712273747123,1.6180378674777656,,0.0004397712273747123,1.6180378674777656,,0.0004397712273747123,1.9492926482961892,,0.0004397712273747123,1.9492926482961892,,0.0004397712273747123,1.9492926482961892,,0.0004397712273747123,1.9492926994995528,,0.0004397712273747123,2.5045219237306697,,0.0004397712273747123,2.5045219237306697,,0.0004397712273747123,2.507434083364983,,0.0004397712273747123,1.62,,0.0004397712273747123,1.62,,0.0004397712273747123,1.9516946132939736
