X--Trace 1::[transient: TIME],Y--Trace 1::[PR1: V(1)],,X--Trace 2::[transient: TIME],Y--Trace 2::[PR2: V(2)],,X--Trace 3::[transient: TIME],Y--Trace 3::[PR3: V(2)],,X--Trace 4::[transient: TIME],Y--Trace 4::[PR4: V(2)],,X--Trace 5::[transient: TIME],Y--Trace 5::[PR5: V(3)],,X--Trace 6::[transient: TIME],Y--Trace 6::[PR6: V(3)],,X--Trace 7::[transient: TIME],Y--Trace 7::[PR7: V(3)],,X--Trace 8::[transient: TIME],Y--Trace 8::[PR8: V(5)],,X--Trace 9::[transient: TIME],Y--Trace 9::[PR9: V(7)],,X--Trace 10::[transient: TIME],Y--Trace 10::[PR14: V(7)],,X--Trace 11::[transient: TIME],Y--Trace 11::[PR10: V(8)],,X--Trace 12::[transient: TIME],Y--Trace 12::[PR11: V(4)],,X--Trace 13::[transient: TIME],Y--Trace 13::[PR12: V(4)],,X--Trace 14::[transient: TIME],Y--Trace 14::[PR13: V(6)]
0,1.62,,0,1.6183075931279796,,0,1.6183075931279796,,0,1.6183075931279796,,0,1.6064053551665816,,0,1.6064053551665816,,0,1.6064053551665816,,0,1.606405387244285,,0,1.6041295887942129,,0,1.6041295887942129,,0,1.6041295887124023,,0,1.62,,0,1.62,,0,1.6080955143795623
1e-7,1.6206283183653514,,1e-7,1.6183904253987136,,1e-7,1.6183904253987136,,1e-7,1.6183904253987136,,1e-7,1.605942702716513,,1e-7,1.605942702716513,,1e-7,1.605942702716513,,1e-7,1.6059427307804683,,1e-7,1.6033143489029573,,1e-7,1.6033143489029573,,1e-7,1.6038896005195131,,1e-7,1.62,,1e-7,1.62,,1e-7,1.6074841959667103
2e-7,1.6212566357385019,,2e-7,1.6184051219001392,,2e-7,1.6184051219001392,,2e-7,1.6184051219001392,,2e-7,1.6053437804806154,,2e-7,1.6053437804806154,,2e-7,1.6053437804806154,,2e-7,1.605343808809878,,2e-7,1.602528889679513,,2e-7,1.602528889679513,,2e-7,1.6034890379873437,,2e-7,1.62,,2e-7,1.62,,2e-7,1.6068950941928146
4e-7,1.6225132635394095,,4e-7,1.6184117918532257,,4e-7,1.6184117918532257,,4e-7,1.6184117918532257,,4e-7,1.6041004981713367,,4e-7,1.6041004981713367,,4e-7,1.6041004981713367,,4e-7,1.6041005261286676,,4e-7,1.6008527820596998,,4e-7,1.6008527820596998,,4e-7,1.6024303378404559,,4e-7,1.62,,4e-7,1.62,,4e-7,1.6056380238375656
8e-7,1.6250264635783653,,8e-7,1.6184106897296264,,8e-7,1.6184106897296264,,8e-7,1.6184106897296264,,8e-7,1.6015851126959233,,8e-7,1.6015851126959233,,8e-7,1.6015851126959233,,8e-7,1.6015851413147209,,8e-7,1.5975315915582873,,8e-7,1.5975315915582873,,8e-7,1.5994845556133814,,8e-7,1.62,,8e-7,1.62,,8e-7,1.6031471126436574
0.0000016,1.6300524191627288,,0.0000016,1.618418662871716,,0.0000016,1.618418662871716,,0.0000016,1.618418662871716,,0.0000016,1.5965751714208567,,0.0000016,1.5965751714208567,,0.0000016,1.5965751714208567,,0.0000016,1.5965751991614499,,0.0000016,1.5908082010685871,,0.0000016,1.5908082010685871,,0.0000016,1.5928381158680658,,0.0000016,1.62,,0.0000016,1.62,,0.0000016,1.5981045942841696
0.0000032,1.6401007746814766,,0.0000032,1.618425929997227,,0.0000032,1.618425929997227,,0.0000032,1.618425929997227,,0.0000032,1.586541607892538,,0.0000032,1.586541607892538,,0.0000032,1.586541607892538,,0.0000032,1.5865416360414308,,0.0000032,1.5774501608920872,,0.0000032,1.5774501608920872,,0.0000032,1.579435888350711,,0.0000032,1.62,,0.0000032,1.62,,0.0000032,1.588086053035679
0.0000064,1.6601690500666972,,0.0000064,1.6184483092823263,,0.0000064,1.6184483092823263,,0.0000064,1.6184483092823263,,0.0000064,1.5665190926713972,,0.0000064,1.5665190926713972,,0.0000064,1.5665190926713972,,0.0000064,1.5665191193150951,,0.0000064,1.5506788179923525,,0.0000064,1.5506788179923525,,0.0000064,1.5526986612143558,,0.0000064,1.62,,0.0000064,1.62,,0.0000064,1.5680075881231612
0.000012479999999999999,1.698093113473714,,0.000012479999999999999,1.6184841258759486,,0.000012479999999999999,1.6184841258759486,,0.000012479999999999999,1.6184841258759486,,0.000012479999999999999,1.5286703425314554,,0.000012479999999999999,1.5286703425314554,,0.000012479999999999999,1.5286703425314554,,0.000012479999999999999,1.5286703682588934,,0.000012479999999999999,1.500168029480038,,0.000012479999999999999,1.500168029480038,,0.000012479999999999999,1.502154098744478,,0.000012479999999999999,1.62,,0.000012479999999999999,1.62,,0.000012479999999999999,1.5301245230427376
0.000024639999999999998,1.7723556843138335,,0.000024639999999999998,1.6185549913601305,,0.000024639999999999998,1.6185549913601305,,0.000024639999999999998,1.6185549913601305,,0.000024639999999999998,1.4545637307079864,,0.000024639999999999998,1.4545637307079864,,0.000024639999999999998,1.4545637307079864,,0.000024639999999999998,1.4545637538915395,,0.000024639999999999998,1.401232501845261,,0.000024639999999999998,1.401232501845261,,0.000024639999999999998,1.4031544087037682,,0.000024639999999999998,1.62,,0.000024639999999999998,1.62,,0.000024639999999999998,1.4559229496489117
0.000040264999999999995,1.8623345880280056,,0.000040264999999999995,1.6186366754034143,,0.000040264999999999995,1.6186366754034143,,0.000040264999999999995,1.6186366754034143,,0.000040264999999999995,1.3647794301502696,,0.000040264999999999995,1.3647794301502696,,0.000040264999999999995,1.3647794301502696,,0.000040264999999999995,1.3647794504201274,,0.000040264999999999995,1.281374903278111,,0.000040264999999999995,1.281374903278111,,0.000040264999999999995,1.2831353723484427,,0.000040264999999999995,1.62,,0.000040264999999999995,1.62,,0.000040264999999999995,1.3660298336813053
0.000055889999999999995,1.9430007094270643,,0.000055889999999999995,1.6187062929174265,,0.000055889999999999995,1.6187062929174265,,0.000055889999999999995,1.6187062929174265,,0.000055889999999999995,1.2842972109469102,,0.000055889999999999995,1.2842972109469102,,0.000055889999999999995,1.2842972109469102,,0.000055889999999999995,1.2842972287241554,,0.000055889999999999995,1.1739410145508686,,0.000055889999999999995,1.1739410145508686,,0.000055889999999999995,1.1754834777252194,,0.000055889999999999995,1.62,,0.000055889999999999995,1.62,,0.000055889999999999995,1.2854544881873309
0.000071515,2.0112540947037254,,0.000071515,1.6187599812994302,,0.000071515,1.6187599812994302,,0.000071515,1.6187599812994302,,0.000071515,1.2162075827443362,,0.000071515,1.2162075827443362,,0.000071515,1.2162075827443362,,0.000071515,1.2162075986125476,,0.000071515,1.0830595871724464,,0.000071515,1.0830595871724464,,0.000071515,1.0843143389316545,,0.000071515,1.62,,0.000071515,1.62,,0.000071515,1.2172934722153288
0.00008714,2.0644718045387465,,0.00008714,1.6187968580566006,,0.00008714,1.6187968580566006,,0.00008714,1.6187968580566006,,0.00008714,1.1631295507872783,,0.00008714,1.1631295507872783,,0.00008714,1.1631295507872783,,0.00008714,1.1631295653362304,,0.00008714,1.0122229693621312,,0.00008714,1.0122229693621312,,0.00008714,1.0131516040621253,,0.00008714,1.62,,0.00008714,1.62,,0.00008714,1.1641660466987744
0.000102765,2.1006087121880035,,0.000102765,1.6188143318024368,,0.000102765,1.6188143318024368,,0.000102765,1.6188143318024368,,0.000102765,1.1271005231903202,,0.000102765,1.1271005231903202,,0.000102765,1.1271005231903202,,0.000102765,1.1271005371280918,,0.000102765,0.9641535792358882,,0.000102765,0.9641535792358882,,0.000102765,0.9647111743240743,,0.000102765,1.62,,0.000102765,1.62,,0.000102765,1.1281140218922507
0.00011839,2.1182760965563463,,0.00011839,1.6188128988259298,,0.00011839,1.6188128988259298,,0.00011839,1.6188128988259298,,0.00011839,1.1095074084447363,,0.00011839,1.1095074084447363,,0.00011839,1.1095074084447363,,0.00011839,1.1095074224348687,,0.00011839,0.9406984455314953,,0.00011839,0.9406984455314953,,0.00011839,0.940872266189933,,0.00011839,1.62,,0.00011839,1.62,,0.00011839,1.1105226705552989
0.000134015,2.116795009970483,,0.000134015,1.6187914528080518,,0.000134015,1.6187914528080518,,0.000134015,1.6187914528080518,,0.000134015,1.111023974889136,,0.000134015,1.111023974889136,,0.000134015,1.111023974889136,,0.000134015,1.1110239896615832,,0.000134015,0.9427592172435695,,0.000134015,0.9427592172435695,,0.000134015,0.942534399577339,,0.000134015,1.62,,0.000134015,1.62,,0.000134015,1.1120682275739175
0.00014963999999999998,2.0962223697573052,,0.00014963999999999998,1.6187519729365236,,0.00014963999999999998,1.6187519729365236,,0.00014963999999999998,1.6187519729365236,,0.00014963999999999998,1.1315942493604048,,0.00014963999999999998,1.1315942493604048,,0.00014963999999999998,1.1315942493604048,,0.00014963999999999998,1.1315942655462492,,0.00014963999999999998,0.9702563763888766,,0.00014963999999999998,0.9702563763888766,,0.00014963999999999998,0.9696492664579031,,0.00014963999999999998,1.62,,0.00014963999999999998,1.62,,0.00014963999999999998,1.1326910572081368
0.000165265,2.0573487709429363,,0.000165265,1.6186948276997037,,0.000165265,1.6186948276997037,,0.000165265,1.6186948276997037,,0.000165265,1.1704254279258832,,0.000165265,1.1704254279258832,,0.000165265,1.1704254279258832,,0.000165265,1.170425446171065,,0.000165265,1.0221335747423645,,0.000165265,1.0221335747423645,,0.000165265,1.0211602453226698,,0.000165265,1.62,,0.000165265,1.62,,0.000165265,1.1715988978947114
0.00018089,2.0016681041292466,,0.00018089,1.61862335557863,,0.00018089,1.61862335557863,,0.00018089,1.61862335557863,,0.00018089,1.2260275325902525,,0.00018089,1.2260275325902525,,0.00018089,1.2260275325902525,,0.00018089,1.2260275533920477,,0.00018089,1.0963968079417388,,0.00018089,1.0963968079417388,,0.00018089,1.0951015012166672,,0.00018089,1.62,,0.00018089,1.62,,0.00018089,1.2272962505246061
0.00019651500000000003,1.9313201461158085,,0.00019651500000000003,1.6185391670351195,,0.00019651500000000003,1.6185391670351195,,0.00019651500000000003,1.6185391670351195,,0.00019651500000000003,1.2962615308917527,,0.00019651500000000003,1.2962615308917527,,0.00019651500000000003,1.2962615308917527,,0.00019651500000000003,1.2962615547190492,,0.00019651500000000003,1.190192601139988,,0.00019651500000000003,1.190192601139988,,0.00019651500000000003,1.1886186519370474,,0.00019651500000000003,1.62,,0.00019651500000000003,1.62,,0.00019651500000000003,1.2976430097996128
0.00021214000000000004,1.8490083294774893,,0.00021214000000000004,1.6184466273579587,,0.00021214000000000004,1.6184466273579587,,0.00021214000000000004,1.6184466273579587,,0.00021214000000000004,1.3784306271819273,,0.00021214000000000004,1.3784306271819273,,0.00021214000000000004,1.3784306271819273,,0.00021214000000000004,1.3784306543171607,,0.00021214000000000004,1.2999159760675691,,0.00021214000000000004,1.2999159760675691,,0.00021214000000000004,1.2981299435004536,,0.00021214000000000004,1.62,,0.00021214000000000004,1.62,,0.00021214000000000004,1.379935447257609
0.00022776500000000005,1.757895851166701,,0.00022776500000000005,1.618348168997302,,0.00022776500000000005,1.618348168997302,,0.00022776500000000005,1.618348168997302,,0.00022776500000000005,1.4693748591584157,,0.00022776500000000005,1.4693748591584157,,0.00022776500000000005,1.4693748591584157,,0.00022776500000000005,1.469374889827394,,0.00022776500000000005,1.4213508088747813,,0.00022776500000000005,1.4213508088747813,,0.00022776500000000005,1.419415603206466,,0.00022776500000000005,1.62,,0.00022776500000000005,1.62,,0.00022776500000000005,1.4710114716552305
0.00024339000000000007,1.6614841126284605,,0.00024339000000000007,1.618248693325922,,0.00024339000000000007,1.618248693325922,,0.00024339000000000007,1.618248693325922,,0.00024339000000000007,1.5656015239135286,,0.00024339000000000007,1.5656015239135286,,0.00024339000000000007,1.5656015239135286,,0.00024339000000000007,1.5656015581354652,,0.00024339000000000007,1.5498299055118712,,0.00024339000000000007,1.5498299055118712,,0.00024339000000000007,1.5478252961925358,,0.00024339000000000007,1.62,,0.00024339000000000007,1.62,,0.00024339000000000007,1.5673706932726152
0.0002590150000000001,1.5634781629064667,,0.0002590150000000001,1.6181509115610306,,0.0002590150000000001,1.6181509115610306,,0.0002590150000000001,1.6181509115610306,,0.0002590150000000001,1.6634104591144288,,0.0002590150000000001,1.6634104591144288,,0.0002590150000000001,1.6634104591144288,,0.0002590150000000001,1.663410496843083,,0.0002590150000000001,1.6804164319726527,,0.0002590150000000001,1.6804164319726527,,0.0002590150000000001,1.678414359716047,,0.0002590150000000001,1.62,,0.0002590150000000001,1.62,,0.0002590150000000001,1.665310488506685
0.0002746400000000001,1.467644315686166,,0.0002746400000000001,1.618059686929414,,0.0002746400000000001,1.618059686929414,,0.0002746400000000001,1.618059686929414,,0.0002746400000000001,1.7590451308695303,,0.0002746400000000001,1.7590451308695303,,0.0002746400000000001,1.7590451308695303,,0.0002746400000000001,1.7590451718525362,,0.0002746400000000001,1.8080914392399423,,0.0002746400000000001,1.8080914392399423,,0.0002746400000000001,1.8061736518221516,,0.0002746400000000001,1.62,,0.0002746400000000001,1.62,,0.0002746400000000001,1.7610666514050217
0.0002902650000000001,1.377665411971994,,0.0002902650000000001,1.6179774256348316,,0.0002902650000000001,1.6179774256348316,,0.0002902650000000001,1.6179774256348316,,0.0002902650000000001,1.8488281509446558,,0.0002902650000000001,1.8488281509446558,,0.0002902650000000001,1.8488281509446558,,0.0002902650000000001,1.8488281948762195,,0.0002902650000000001,1.927949053407922,,0.0002902650000000001,1.927949053407922,,0.0002902650000000001,1.9261847093720401,,0.0002902650000000001,1.62,,0.0002902650000000001,1.62,,0.0002902650000000001,1.8509597781048048
0.0003058900000000001,1.2969992905729355,,0.0003058900000000001,1.617908382466646,,0.0003058900000000001,1.617908382466646,,0.0003058900000000001,1.617908382466646,,0.0003058900000000001,1.929311392877151,,0.0003058900000000001,1.929311392877151,,0.0003058900000000001,1.929311392877151,,0.0003058900000000001,1.9293114392662691,,0.0003058900000000001,2.0353825731929747,,0.0003058900000000001,2.0353825731929747,,0.0003058900000000001,2.0338437649473557,,0.0003058900000000001,1.62,,0.0003058900000000001,1.62,,0.0003058900000000001,1.9315348478658705
0.00032151500000000014,1.2287459052962744,,0.00032151500000000014,1.6178541231274246,,0.00032151500000000014,1.6178541231274246,,0.00032151500000000014,1.6178541231274246,,0.00032151500000000014,1.9973997532245995,,0.00032151500000000014,1.9973997532245995,,0.00032151500000000014,1.9973997532245995,,0.00032151500000000014,1.9973998015579795,,0.00032151500000000014,2.126264051075192,,0.00032151500000000014,2.126264051075192,,0.00032151500000000014,2.1250058601679886,,0.00032151500000000014,1.62,,0.00032151500000000014,1.62,,0.00032151500000000014,1.9996959007372053
0.00033714000000000015,1.175528195461253,,0.00033714000000000015,1.617817814461043,,0.00033714000000000015,1.617817814461043,,0.00033714000000000015,1.617817814461043,,0.00033714000000000015,2.050478795440306,,0.00033714000000000015,2.050478795440306,,0.00033714000000000015,2.050478795440306,,0.00033714000000000015,2.050478845057537,,0.00033714000000000015,2.197100265978751,,0.00033714000000000015,2.197100265978751,,0.00033714000000000015,2.1961748773480623,,0.00033714000000000015,1.62,,0.00033714000000000015,1.62,,0.00033714000000000015,2.0528230250574238
0.00035276500000000016,1.1393912878119965,,0.00035276500000000016,1.6177997759740788,,0.00035276500000000016,1.6177997759740788,,0.00035276500000000016,1.6177997759740788,,0.00035276500000000016,2.08650656765417,,0.00035276500000000016,2.08650656765417,,0.00035276500000000016,2.08650656765417,,0.00035276500000000016,2.086506617918146,,0.00035276500000000016,2.2451697398983,,0.00035276500000000016,2.2451697398983,,0.00035276500000000016,2.244609089188505,,0.00035276500000000016,1.62,,0.00035276500000000016,1.62,,0.00035276500000000016,2.088875111720938
0.0003683900000000002,1.121723903443654,,0.0003683900000000002,1.617801770863824,,0.0003683900000000002,1.617801770863824,,0.0003683900000000002,1.617801770863824,,0.0003683900000000002,2.104100680343207,,0.0003683900000000002,2.104100680343207,,0.0003683900000000002,2.104100680343207,,0.0003683900000000002,2.104100730519089,,0.0003683900000000002,2.268624438243998,,0.0003683900000000002,2.268624438243998,,0.0003683900000000002,2.2684535039283453,,0.0003683900000000002,1.62,,0.0003683900000000002,1.62,,0.0003683900000000002,2.106466137531394
0.0003840150000000002,1.1232049900295173,,0.0003840150000000002,1.6178226582796744,,0.0003840150000000002,1.6178226582796744,,0.0003840150000000002,1.6178226582796744,,0.0003840150000000002,2.1025828708337873,,0.0003840150000000002,2.1025828708337873,,0.0003840150000000002,2.1025828708337873,,0.0003840150000000002,2.1025829202632322,,0.0003840150000000002,2.266563782199514,,0.0003840150000000002,2.266563782199514,,0.0003840150000000002,2.2667858816049478,,0.0003840150000000002,1.62,,0.0003840150000000002,1.62,,0.0003840150000000002,2.104920666267004
0.0003996400000000002,1.1437776302426954,,0.0003996400000000002,1.6178626939633831,,0.0003996400000000002,1.6178626939633831,,0.0003996400000000002,1.6178626939633831,,0.0003996400000000002,2.082013582143514,,0.0003996400000000002,2.082013582143514,,0.0003996400000000002,2.082013582143514,,0.0003996400000000002,2.082013630123527,,0.0003996400000000002,2.239066156566936,,0.0003996400000000002,2.239066156566936,,0.0003996400000000002,2.2396758364918163,,0.0003996400000000002,1.62,,0.0003996400000000002,1.62,,0.0003996400000000002,2.0842974877681115
0.0004152650000000002,1.1826512290570645,,0.0004152650000000002,1.617919286661277,,0.0004152650000000002,1.617919286661277,,0.0004152650000000002,1.617919286661277,,0.0004152650000000002,2.0431811726788887,,0.0004152650000000002,2.0431811726788887,,0.0004152650000000002,2.0431811726788887,,0.0004152650000000002,2.0431812186357337,,0.0004152650000000002,2.187189104516997,,0.0004152650000000002,2.187189104516997,,0.0004152650000000002,2.188160012278481,,0.0004152650000000002,1.62,,0.0004152650000000002,1.62,,0.0004152650000000002,2.04538975580474
0.00043089000000000023,1.2383318958707545,,0.00043089000000000023,1.617991308568984,,0.00043089000000000023,1.617991308568984,,0.00043089000000000023,1.617991308568984,,0.00043089000000000023,1.987580041784154,,0.00043089000000000023,1.987580041784154,,0.00043089000000000023,1.987580041784154,,0.00043089000000000023,1.9875800851480683,,0.00043089000000000023,2.1129253748593566,,0.00043089000000000023,2.1129253748593566,,0.00043089000000000023,2.11422297352662,,0.00043089000000000023,1.62,,0.00043089000000000023,1.62,,0.00043089000000000023,1.989692031839763
0.00044651500000000025,1.308679853884193,,0.00044651500000000025,1.618074950561646,,0.00044651500000000025,1.618074950561646,,0.00044651500000000025,1.618074950561646,,0.00044651500000000025,1.9173448245992715,,0.00044651500000000025,1.9173448245992715,,0.00044651500000000025,1.9173448245992715,,0.00044651500000000025,1.9173448649741274,,0.00044651500000000025,2.0191297575190927,,0.00044651500000000025,2.0191297575190927,,0.00044651500000000025,2.0207015456815203,,0.00044651500000000025,1.62,,0.00044651500000000025,1.62,,0.00044651500000000025,1.9193454034459818
0.00046214000000000026,1.390991670522512,,0.00046214000000000026,1.6181680340744338,,0.00046214000000000026,1.6181680340744338,,0.00046214000000000026,1.6181680340744338,,0.00046214000000000026,1.8351766902163789,,0.00046214000000000026,1.8351766902163789,,0.00046214000000000026,1.8351766902163789,,0.00046214000000000026,1.835176727246715,,0.00046214000000000026,1.9094058571722845,,0.00046214000000000026,1.9094058571722845,,0.00046214000000000026,1.9111939374422833,,0.00046214000000000026,1.62,,0.00046214000000000026,1.62,,0.00046214000000000026,1.8370525729398628
0.0004777650000000003,1.4821041488333004,,0.0004777650000000003,1.6182659517982587,,0.0004777650000000003,1.6182659517982587,,0.0004777650000000003,1.6182659517982587,,0.0004777650000000003,1.7442312512240237,,0.0004777650000000003,1.7442312512240237,,0.0004777650000000003,1.7442312512240237,,0.0004777650000000003,1.7442312847573165,,0.0004777650000000003,1.7879712288338228,,0.0004777650000000003,1.7879712288338228,,0.0004777650000000003,1.7899045023080817,,0.0004777650000000003,1.62,,0.0004777650000000003,1.62,,0.0004777650000000003,1.745976700874219
