X--Trace 1::[transient: TIME],Y--Trace 1::[PR1: V(1)],,X--Trace 2::[transient: TIME],Y--Trace 2::[PR2: V(2)],,X--Trace 3::[transient: TIME],Y--Trace 3::[PR3: V(2)],,X--Trace 4::[transient: TIME],Y--Trace 4::[PR4: V(2)],,X--Trace 5::[transient: TIME],Y--Trace 5::[PR5: V(3)],,X--Trace 6::[transient: TIME],Y--Trace 6::[PR6: V(3)],,X--Trace 7::[transient: TIME],Y--Trace 7::[PR7: V(3)],,X--Trace 8::[transient: TIME],Y--Trace 8::[PR8: V(5)],,X--Trace 9::[transient: TIME],Y--Trace 9::[PR9: V(7)],,X--Trace 10::[transient: TIME],Y--Trace 10::[PR14: V(7)],,X--Trace 11::[transient: TIME],Y--Trace 11::[PR10: V(8)],,X--Trace 12::[transient: TIME],Y--Trace 12::[PR11: V(4)],,X--Trace 13::[transient: TIME],Y--Trace 13::[PR12: V(4)],,X--Trace 14::[transient: TIME],Y--Trace 14::[PR13: V(6)]
0,1.62,,0,1.6183075931279718,,0,1.6183075931279718,,0,1.6183075931279718,,0,1.6064053551665793,,0,1.6064053551665793,,0,1.6064053551665793,,0,1.6064053870293569,,0,1.596177336215334,,0,1.596177336215334,,0,1.5961773361339289,,0,1.62,,0,1.62,,0,1.6080875539438828
1e-7,1.6206283183653514,,1e-7,1.618545020727124,,1e-7,1.618545020727124,,1e-7,1.618545020727124,,1e-7,1.605079223638792,,1e-7,1.605079223638792,,1e-7,1.605079223638792,,1e-7,1.6050792349334384,,1e-7,1.592000678413731,,1e-7,1.592000678413731,,1e-7,1.5949478225038023,,1e-7,1.62,,1e-7,1.62,,1e-7,1.6059996059617858
1.523011369638289e-7,1.6209569356818432,,1.523011369638289e-7,1.6186154415633687,,1.523011369638289e-7,1.6186154415633687,,1.523011369638289e-7,1.6186154415633687,,1.523011369638289e-7,1.6041168615220651,,1.523011369638289e-7,1.6041168615220651,,1.523011369638289e-7,1.6041168615220651,,1.523011369638289e-7,1.6041168826838794,,1.523011369638289e-7,1.5908072214384599,,1.523011369638289e-7,1.5908072214384599,,1.523011369638289e-7,1.5942061878994473,,1.523011369638289e-7,1.62,,1.523011369638289e-7,1.62,,1.523011369638289e-7,1.6054026947595954
2.569034108914866e-7,1.6216141689328087,,2.569034108914866e-7,1.6186968844165233,,2.569034108914866e-7,1.6186968844165233,,2.569034108914866e-7,1.6186968844165233,,2.569034108914866e-7,1.6018951503505432,,2.569034108914866e-7,1.6018951503505432,,2.569034108914866e-7,1.6018951503505432,,2.569034108914866e-7,1.6018951043809664,,2.569034108914866e-7,1.5813884382796362,,2.569034108914866e-7,1.5813884382796362,,2.569034108914866e-7,1.5913015666840602,,2.569034108914866e-7,1.62,,2.569034108914866e-7,1.62,,2.569034108914866e-7,1.6006945464122873
4.6610795874680215e-7,1.622928625932109,,4.6610795874680215e-7,1.6187181261789694,,4.6610795874680215e-7,1.6187181261789694,,4.6610795874680215e-7,1.6187181261789694,,4.6610795874680215e-7,1.5967435551928764,,4.6610795874680215e-7,1.5967435551928764,,4.6610795874680215e-7,1.5967435551928764,,4.6610795874680215e-7,1.5967436799033925,,4.6610795874680215e-7,1.5837347775939303,,4.6610795874680215e-7,1.5837347775939303,,4.6610795874680215e-7,1.58599100305028,,4.6610795874680215e-7,1.62,,4.6610795874680215e-7,1.62,,4.6610795874680215e-7,1.6018645553410296
8.845170544574331e-7,1.625557470124088,,8.845170544574331e-7,1.618724690841233,,8.845170544574331e-7,1.618724690841233,,8.845170544574331e-7,1.618724690841233,,8.845170544574331e-7,1.5862610831379653,,8.845170544574331e-7,1.5862610831379653,,8.845170544574331e-7,1.5862610831379653,,8.845170544574331e-7,1.5862609260721976,,8.845170544574331e-7,1.541886306272148,,8.845170544574331e-7,1.541886306272148,,8.845170544574331e-7,1.564385261129931,,8.845170544574331e-7,1.62,,8.845170544574331e-7,1.62,,8.845170544574331e-7,1.5809455380210755
0.0000014431931755268366,1.6290673530892674,,0.0000014431931755268366,1.618739367697654,,0.0000014431931755268366,1.618739367697654,,0.0000014431931755268366,1.618739367697654,,0.0000014431931755268366,1.572295113222733,,0.0000014431931755268366,1.572295113222733,,0.0000014431931755268366,1.572295113222733,,0.0000014431931755268366,1.5722951573333273,,0.0000014431931755268366,1.5288638929288758,,0.0000014431931755268366,1.5288638929288758,,0.0000014431931755268366,1.5389437115314837,,0.0000014431931755268366,1.62,,0.0000014431931755268366,1.62,,0.0000014431931755268366,1.574430605996229
0.000002032026989840806,1.6327662146595499,,0.000002032026989840806,1.6187546325736226,,0.000002032026989840806,1.6187546325736226,,0.000002032026989840806,1.6187546325736226,,0.000002032026989840806,1.5575762639742765,,0.000002032026989840806,1.5575762639742765,,0.000002032026989840806,1.5575762639742765,,0.000002032026989840806,1.5575762500528576,,0.000002032026989840806,1.4951249665215074,,0.000002032026989840806,1.4951249665215074,,0.000002032026989840806,1.5086446783897283,,0.000002032026989840806,1.62,,0.000002032026989840806,1.62,,0.000002032026989840806,1.5575622177017376
0.0000031447192235035413,1.6397537112889211,,0.0000031447192235035413,1.6187821343269755,,0.0000031447192235035413,1.6187821343269755,,0.0000031447192235035413,1.6187821343269755,,0.0000031447192235035413,1.5297645406699774,,0.0000031447192235035413,1.5297645406699774,,0.0000031447192235035413,1.5297645406699774,,0.0000031447192235035413,1.529764571400038,,0.0000031447192235035413,1.4428102229643918,,0.0000031447192235035413,1.4428102229643918,,0.0000031447192235035413,1.4531850988770159,,0.0000031447192235035413,1.62,,0.0000031447192235035413,1.62,,0.0000031447192235035413,1.5314040194445648
0.0000053701036908290116,1.6537157532181628,,0.0000053701036908290116,1.6188372524557266,,0.0000053701036908290116,1.6188372524557266,,0.0000053701036908290116,1.6188372524557266,,0.0000053701036908290116,1.474194410385453,,0.0000053701036908290116,1.474194410385453,,0.0000053701036908290116,1.474194410385453,,0.0000053701036908290116,1.4741943871722676,,0.0000053701036908290116,1.3276709474889925,,0.0000053701036908290116,1.3276709474889925,,0.0000053701036908290116,1.3413812436696477,,0.0000053701036908290116,1.62,,0.0000053701036908290116,1.62,,0.0000053701036908290116,1.4738353815094118
0.000009820872625479953,1.681549843302929,,0.000009820872625479953,1.6189459368516839,,0.000009820872625479953,1.6189459368516839,,0.000009820872625479953,1.6189459368516839,,0.000009820872625479953,1.3634101077272094,,0.000009820872625479953,1.3634101077272094,,0.000009820872625479953,1.3634101077272094,,0.000009820872625479953,1.3634101322561591,,0.000009820872625479953,1.109638441361005,,0.000009820872625479953,1.109638441361005,,0.000009820872625479953,1.119795525064654,,0.000009820872625479953,1.62,,0.000009820872625479953,1.62,,0.000009820872625479953,1.3648182459758758
0.000018722410494781834,1.7365541146160033,,0.000018722410494781834,1.6191575061024353,,0.000018722410494781834,1.6191575061024353,,0.000018722410494781834,1.6191575061024353,,0.000018722410494781834,1.1444829716177354,,0.000018722410494781834,1.1444829716177354,,0.000018722410494781834,1.1444829716177354,,0.000018722410494781834,1.1444829297975918,,0.000018722410494781834,0.6668624462753976,,0.000018722410494781834,0.6668624462753976,,0.000018722410494781834,0.6803709518950027,,0.000018722410494781834,1.62,,0.000018722410494781834,1.62,,0.000018722410494781834,1.143431480428504
0.000020675535494781832,1.748451579319575,,0.000020675535494781832,1.6192012127200808,,0.000020675535494781832,1.6192012127200808,,0.000020675535494781832,1.6192012127200808,,0.000020675535494781832,1.0971213176246444,,0.000020675535494781832,1.0971213176246444,,0.000020675535494781832,1.0971213176246444,,0.000020675535494781832,1.0971213310852361,,0.000020675535494781832,0.576235216963385,,0.000020675535494781832,0.576235216963385,,0.000020675535494781832,0.5859119401879326,,0.000020675535494781832,1.62,,0.000020675535494781832,1.62,,0.000020675535494781832,1.0981168427451242
0.000024581785494781833,1.7720072654615133,,0.000024581785494781833,1.619290725525584,,0.000024581785494781833,1.619290725525584,,0.000024581785494781833,1.619290725525584,,0.000024581785494781833,1.0033682653185334,,0.000024581785494781833,1.0033682653185334,,0.000024581785494781833,1.0033682653185334,,0.000024581785494781833,1.0033682129467032,,0.000024581785494781833,0.3838481888096948,,0.000024581785494781833,0.3838481888096948,,0.000024581785494781833,0.3973170388362498,,0.000024581785494781833,1.62,,0.000024581785494781833,1.62,,0.000024581785494781833,1.001924549217885
0.00003239428549478183,1.8179641757889824,,0.00003239428549478183,1.6194592247630821,,0.00003239428549478183,1.6194592247630821,,0.00003239428549478183,1.6194592247630821,,0.00003239428549478183,0.8204382954604476,,0.00003239428549478183,0.8204382954604476,,0.00003239428549478183,0.8204382954604476,,0.00003239428549478183,0.8204382968057548,,0.00003239428549478183,0.021965729208361612,,0.00003239428549478183,0.021965729208361612,,0.00003239428549478183,0.03097669494992881,,0.00003239428549478183,1.62,,0.00003239428549478183,1.62,,0.00003239428549478183,0.8209823273794961
0.000032592069171781166,1.8191047220268588,,0.000032592069171781166,1.6194634465740323,,0.000032592069171781166,1.6194634465740323,,0.000032592069171781166,1.6194634465740323,,0.000032592069171781166,0.8158988036687176,,0.000032592069171781166,0.8158988036687176,,0.000032592069171781166,0.8158988036687176,,0.000032592069171781166,0.8158987029240548,,0.000032592069171781166,0.005320449319939206,,0.000032592069171781166,0.005320449319939206,,0.000032592069171781166,0.02085151212318861,,0.000032592069171781166,1.62,,0.000032592069171781166,1.62,,0.000032592069171781166,0.8126615780961972
0.00003298763652577983,1.8213821176614071,,0.00003298763652577983,1.6194717023850445,,0.00003298763652577983,1.6194717023850445,,0.00003298763652577983,1.6194717023850445,,0.00003298763652577983,0.8068336955747804,,0.00003298763652577983,0.8068336955747804,,0.00003298763652577983,0.8068336955747804,,0.00003298763652577983,0.8068337674018213,,0.00003298763652577983,-0.000020122430175689796,,0.00003298763652577983,-0.000020122430175689796,,0.00003298763652577983,0.0043940767612045285,,0.00003298763652577983,1.62,,0.00003298763652577983,1.62,,0.00003298763652577983,0.8099880965209014
0.00003299999800559229,1.821453206387731,,0.00003299999800559229,1.6194719622642297,,0.00003299999800559229,1.6194719622642297,,0.00003299999800559229,1.6194719622642297,,0.00003299999800559229,0.8065507405048927,,0.00003299999800559229,0.8065507405048927,,0.00003299999800559229,0.8065507405048927,,0.00003299999800559229,0.8065508531006488,,0.00003299999800559229,0.0024354580905714598,,0.00003299999800559229,0.0024354580905714598,,0.00003299999800559229,0.0042338823120881925,,0.00003299999800559229,1.62,,0.00003299999800559229,1.62,,0.00003299999800559229,0.8112151317942173
0.00003302472096521721,1.8215953692553533,,0.00003302472096521721,1.6194724801717104,,0.00003302472096521721,1.6194724801717104,,0.00003302472096521721,1.6194724801717104,,0.00003302472096521721,0.8059848795567528,,0.00003302472096521721,0.8059848795567528,,0.00003302472096521721,0.8059848795567528,,0.00003302472096521721,0.8059851342046885,,0.00003302472096521721,0.011831653949281241,,0.00003302472096521721,0.011831653949281241,,0.00003302472096521721,0.004518291163659391,,0.00003302472096521721,1.62,,0.00003302472096521721,1.62,,0.00003302472096521721,0.8159105990835254
0.00003306325889210794,1.8218169326429061,,0.00003306325889210794,1.6194732879448175,,0.00003306325889210794,1.6194732879448175,,0.00003306325889210794,1.6194732879448175,,0.00003306325889210794,0.8051029784473798,,0.00003306325889210794,0.8051029784473798,,0.00003306325889210794,0.8051029784473798,,0.00003306325889210794,0.8051038418800056,,0.00003306325889210794,0.05518676191700366,,0.00003306325889210794,0.05518676191700366,,0.00003306325889210794,0.008832514057709833,,0.00003306325889210794,1.62,,0.00003306325889210794,1.62,,0.00003306325889210794,0.8375768790645708
0.00003310286504914674,1.8220445882122007,,0.00003310286504914674,1.619474123572374,,0.00003310286504914674,1.619474123572374,,0.00003310286504914674,1.619474123572374,,0.00003310286504914674,0.8041968569329214,,0.00003310286504914674,0.8041968569329214,,0.00003310286504914674,0.8041968569329214,,0.00003310286504914674,0.8041997389815794,,0.00003310286504914674,0.20298041655264137,,0.00003310286504914674,0.20298041655264137,,0.00003310286504914674,0.027185602563195722,,0.00003310286504914674,1.62,,0.00003310286504914674,1.62,,0.00003310286504914674,0.9114363238699432
0.000033149534272630915,1.8223127779398747,,0.000033149534272630915,1.619475139725125,,0.000033149534272630915,1.619475139725125,,0.000033149534272630915,1.619475139725125,,0.000033149534272630915,0.803129559410688,,0.000033149534272630915,0.803129559410688,,0.000033149534272630915,0.803129559410688,,0.000033149534272630915,0.8031421392324593,,0.000033149534272630915,0.9195779437853474,,0.000033149534272630915,0.9195779437853474,,0.000033149534272630915,0.121947779941634,,0.000033149534272630915,1.62,,0.000033149534272630915,1.62,,0.000033149534272630915,1.2695554955194055
0.00003320005900363662,1.8226030453112312,,0.00003320005900363662,1.6194763065465707,,0.00003320005900363662,1.6194763065465707,,0.00003320005900363662,1.6194763065465707,,0.00003320005900363662,0.8019747366693608,,0.00003320005900363662,0.8019747366693608,,0.00003320005900363662,0.8019747366693608,,0.00003320005900363662,0.8020138980600877,,0.00003320005900363662,2.8873110689024704,,0.00003320005900363662,2.8873110689024704,,0.00003320005900363662,0.4616550539065386,,0.00003320005900363662,1.62,,0.00003320005900363662,1.62,,0.00003320005900363662,2.2529297969729103
0.000033234744331191376,1.8228022671621948,,0.000033234744331191376,1.6194770177373723,,0.000033234744331191376,1.6194770177373723,,0.000033234744331191376,1.6194770177373723,,0.000033234744331191376,0.8011816888369352,,0.000033234744331191376,0.8011816888369352,,0.000033234744331191376,0.8011816888369352,,0.000033234744331191376,0.8012216520321918,,0.000033234744331191376,2.9451491861591435,,0.000033234744331191376,2.9451491861591435,,0.000033234744331191376,0.7928753236630844,,0.000033234744331191376,1.62,,0.000033234744331191376,1.62,,0.000033234744331191376,2.2818340070841354
0.00003327116351147275,1.8230114062633638,,0.00003327116351147275,1.6194777010061847,,0.00003327116351147275,1.6194777010061847,,0.00003327116351147275,1.6194777010061847,,0.00003327116351147275,0.800348846870093,,0.00003327116351147275,0.800348846870093,,0.00003327116351147275,0.800348846870093,,0.00003327116351147275,0.8003894673681582,,0.00003327116351147275,2.9921982421298683,,0.00003327116351147275,2.9921982421298683,,0.00003327116351147275,1.10011784920811,,0.00003327116351147275,1.62,,0.00003327116351147275,1.62,,0.00003327116351147275,2.3053463625643027
0.0000333135151679616,1.8232545594507632,,0.0000333135151679616,1.619478555474913,,0.0000333135151679616,1.619478555474913,,0.0000333135151679616,1.619478555474913,,0.0000333135151679616,0.7993808535006001,,0.0000333135151679616,0.7993808535006001,,0.0000333135151679616,0.7993808535006001,,0.0000333135151679616,0.7994222340767655,,0.0000333135151679616,3.0465939892830054,,0.0000333135151679616,3.0465939892830054,,0.0000333135151679616,1.4117013883713732,,0.0000333135151679616,1.62,,0.0000333135151679616,1.62,,0.0000333135151679616,2.3325301603534934
0.00003339821848093931,1.8237406930448825,,0.00003339821848093931,1.6194802820162506,,0.00003339821848093931,1.6194802820162506,,0.00003339821848093931,1.6194802820162506,,0.00003339821848093931,0.7974456471453163,,0.00003339821848093931,0.7974456471453163,,0.00003339821848093931,0.7974456471453163,,0.00003339821848093931,0.7974881506104962,,0.00003339821848093931,3.1259443369448534,,0.00003339821848093931,3.1259443369448534,,0.00003339821848093931,1.9145930929794646,,0.00003339821848093931,1.62,,0.00003339821848093931,1.62,,0.00003339821848093931,2.372184539556538
0.00003356762510689472,1.8247122671830238,,0.00003356762510689472,1.6194837913944435,,0.00003356762510689472,1.6194837913944435,,0.00003356762510689472,1.6194837913944435,,0.00003356762510689472,0.7935782930764729,,0.00003356762510689472,0.7935782930764729,,0.00003356762510689472,0.7935782930764729,,0.00003356762510689472,0.7936224063468224,,0.00003356762510689472,3.2375172219720536,,0.00003356762510689472,3.2375172219720536,,0.00003356762510689472,2.5763049543583425,,0.00003356762510689472,1.62,,0.00003356762510689472,1.62,,0.00003356762510689472,2.4279411703250555
0.000033906438358805543,1.826652627853662,,0.000033906438358805543,1.6194908134977708,,0.000033906438358805543,1.6194908134977708,,0.000033906438358805543,1.6194908134977708,,0.000033906438358805543,0.7858547719280324,,0.000033906438358805543,0.7858547719280324,,0.000033906438358805543,0.7858547719280324,,0.000033906438358805543,0.7859003525144013,,0.000033906438358805543,3.330817381263627,,0.000033906438358805543,3.330817381263627,,0.000033906438358805543,3.162541227531724,,0.000033906438358805543,1.62,,0.000033906438358805543,1.62,,0.000033906438358805543,2.4745640770243473
0.000034260353222071174,1.828675473586658,,0.000034260353222071174,1.619498130229089,,0.000034260353222071174,1.619498130229089,,0.000034260353222071174,1.619498130229089,,0.000034260353222071174,0.7778029371577979,,0.000034260353222071174,0.7778029371577979,,0.000034260353222071174,0.7778029371577979,,0.000034260353222071174,0.7778491156893624,,0.000034260353222071174,3.3590291296294974,,0.000034260353222071174,3.3590291296294974,,0.000034260353222071174,3.3174591661369592,,0.000034260353222071174,1.62,,0.000034260353222071174,1.62,,0.000034260353222071174,2.488658878047411
0.000034790494454025715,1.8316978292638997,,0.000034790494454025715,1.619509044825345,,0.000034790494454025715,1.619509044825345,,0.000034790494454025715,1.619509044825345,,0.000034790494454025715,0.7657725818278053,,0.000034790494454025715,0.7657725818278053,,0.000034790494454025715,0.7657725818278053,,0.000034790494454025715,0.7658191504849103,,0.000034790494454025715,3.3638815958316672,,0.000034790494454025715,3.3638815958316672,,0.000034790494454025715,3.3636666850274572,,0.000034790494454025715,1.62,,0.000034790494454025715,1.62,,0.000034790494454025715,2.491077886637409
0.000035456506051603156,1.8354814549773162,,0.000035456506051603156,1.6195226838782804,,0.000035456506051603156,1.6195226838782804,,0.000035456506051603156,1.6195226838782804,,0.000035456506051603156,0.7507120116234338,,0.000035456506051603156,0.7507120116234338,,0.000035456506051603156,0.7507120116234338,,0.000035456506051603156,0.7507590282414517,,0.000035456506051603156,3.3669599310104226,,0.000035456506051603156,3.3669599310104226,,0.000035456506051603156,3.365706539419317,,0.000035456506051603156,1.62,,0.000035456506051603156,1.62,,0.000035456506051603156,2.492608758714317
0.00003678852924675803,1.8430031618603593,,0.00003678852924675803,1.6195497105850079,,0.00003678852924675803,1.6195497105850079,,0.00003678852924675803,1.6195497105850079,,0.00003678852924675803,0.7207720950818773,,0.00003678852924675803,0.7207720950818773,,0.00003678852924675803,0.7207720950818773,,0.00003678852924675803,0.7208198841317173,,0.00003678852924675803,3.3643268242842113,,0.00003678852924675803,3.3643268242842113,,0.00003678852924675803,3.3656136476265917,,0.00003678852924675803,1.62,,0.00003678852924675803,1.62,,0.00003678852924675803,2.4912779012212116
0.000039452575637067785,1.8578570443544808,,0.000039452575637067785,1.6196027313112349,,0.000039452575637067785,1.6196027313112349,,0.000039452575637067785,1.6196027313112349,,0.000039452575637067785,0.6616464217537107,,0.000039452575637067785,0.6616464217537107,,0.000039452575637067785,0.6616464217537107,,0.000039452575637067785,0.6616958428910003,,0.000039452575637067785,3.3670333730747393,,0.000039452575637067785,3.3670333730747393,,0.000039452575637067785,3.3657262808376,,0.000039452575637067785,1.62,,0.000039452575637067785,1.62,,0.000039452575637067785,2.4926009520572068
