X--Trace 1::[transient: TIME],Y--Trace 1::[PR1: V(1)],,X--Trace 2::[transient: TIME],Y--Trace 2::[PR2: V(2)],,X--Trace 3::[transient: TIME],Y--Trace 3::[PR3: V(2)],,X--Trace 4::[transient: TIME],Y--Trace 4::[PR4: V(2)],,X--Trace 5::[transient: TIME],Y--Trace 5::[PR5: V(3)],,X--Trace 6::[transient: TIME],Y--Trace 6::[PR6: V(3)],,X--Trace 7::[transient: TIME],Y--Trace 7::[PR7: V(3)],,X--Trace 8::[transient: TIME],Y--Trace 8::[PR8: V(5)],,X--Trace 9::[transient: TIME],Y--Trace 9::[PR9: V(7)],,X--Trace 10::[transient: TIME],Y--Trace 10::[PR14: V(7)],,X--Trace 11::[transient: TIME],Y--Trace 11::[PR10: V(8)],,X--Trace 12::[transient: TIME],Y--Trace 12::[PR11: V(4)],,X--Trace 13::[transient: TIME],Y--Trace 13::[PR12: V(4)],,X--Trace 14::[transient: TIME],Y--Trace 14::[PR13: V(6)]
0,1.62,,0,1.6183075931279718,,0,1.6183075931279718,,0,1.6183075931279718,,0,1.6064053551665793,,0,1.6064053551665793,,0,1.6064053551665793,,0,1.6064053870293569,,0,1.596177336215334,,0,1.596177336215334,,0,1.5961773361339289,,0,1.62,,0,1.62,,0,1.6080875539438828
1e-7,1.6206283183653514,,1e-7,1.6183435719168522,,1e-7,1.6183435719168522,,1e-7,1.6183435719168522,,1e-7,1.6062043987215988,,1e-7,1.6062043987215988,,1e-7,1.6062043987215988,,1e-7,1.606204427467567,,1e-7,1.595544422898893,,1e-7,1.595544422898893,,1e-7,1.5959910207625918,,1e-7,1.62,,1e-7,1.62,,1e-7,1.6077711550083937
2e-7,1.6212566357385019,,2e-7,1.6183474134354159,,2e-7,1.6183474134354159,,2e-7,1.6183474134354159,,2e-7,1.6059584507832607,,2e-7,1.6059584507832607,,2e-7,1.6059584507832607,,2e-7,1.6059584807677854,,2e-7,1.5951443153598843,,2e-7,1.5951443153598843,,2e-7,1.5957417698105487,,2e-7,1.62,,2e-7,1.62,,2e-7,1.6075710783058923
4e-7,1.6225132635394095,,4e-7,1.6183489200030314,,4e-7,1.6183489200030314,,4e-7,1.6183489200030314,,4e-7,1.6054579111445355,,4e-7,1.6054579111445355,,4e-7,1.6054579111445355,,4e-7,1.6054579396535118,,4e-7,1.5940338685640698,,4e-7,1.5940338685640698,,4e-7,1.5950631251653102,,4e-7,1.62,,4e-7,1.62,,4e-7,1.6070158822410119
8e-7,1.6250264635783653,,8e-7,1.6183491701732347,,8e-7,1.6183491701732347,,8e-7,1.6183491701732347,,8e-7,1.6044529889907615,,8e-7,1.6044529889907615,,8e-7,1.6044529889907615,,8e-7,1.6044530201035396,,8e-7,1.5922169799716634,,8e-7,1.5922169799716634,,8e-7,1.5933003769472096,,8e-7,1.62,,8e-7,1.62,,8e-7,1.6061073897403706
0.0000016,1.6300524191627288,,0.0000016,1.6183518258703309,,0.0000016,1.6183518258703309,,0.0000016,1.6183518258703309,,0.0000016,1.6024463521541061,,0.0000016,1.6024463521541061,,0.0000016,1.6024463521541061,,0.0000016,1.6024463797834743,,0.0000016,1.5879454997699622,,0.0000016,1.5879454997699622,,0.0000016,1.589274568402514,,0.0000016,1.62,,0.0000016,1.62,,0.0000016,1.6039717141784906
0.0000032,1.6401007746814766,,0.0000032,1.618355205760533,,0.0000032,1.618355205760533,,0.0000032,1.618355205760533,,0.0000032,1.5984318453354838,,0.0000032,1.5984318453354838,,0.0000032,1.5984318453354838,,0.0000032,1.5984318766257606,,0.0000032,1.5801877270366753,,0.0000032,1.5801877270366753,,0.0000032,1.581260017928272,,0.0000032,1.62,,0.0000032,1.62,,0.0000032,1.6000927600761303
0.0000064,1.6601690500666972,,0.0000064,1.6183637202719652,,0.0000064,1.6183637202719652,,0.0000064,1.6183637202719652,,0.0000064,1.590416857147909,,0.0000064,1.590416857147909,,0.0000064,1.590416857147909,,0.0000064,1.5904168838580728,,0.0000064,1.5638181437060474,,0.0000064,1.5638181437060474,,0.0000064,1.5651581184670225,,0.0000064,1.62,,0.0000064,1.62,,0.0000064,1.5919080533496113
0.000012479999999999999,1.698093113473714,,0.000012479999999999999,1.618378266526249,,0.000012479999999999999,1.618378266526249,,0.000012479999999999999,1.618378266526249,,0.000012479999999999999,1.5752690709123023,,0.000012479999999999999,1.5752690709123023,,0.000012479999999999999,1.5752690709123023,,0.000012479999999999999,1.5752690990024987,,0.000012479999999999999,1.5336245463338058,,0.000012479999999999999,1.5336245463338058,,0.000012479999999999999,1.5348143744529401,,0.000012479999999999999,1.62,,0.000012479999999999999,1.62,,0.000012479999999999999,1.5768112293340486
0.000024639999999999998,1.7723556843138335,,0.000024639999999999998,1.6184066352298054,,0.000024639999999999998,1.6184066352298054,,0.000024639999999999998,1.6184066352298054,,0.000024639999999999998,1.5456094562438571,,0.000024639999999999998,1.5456094562438571,,0.000024639999999999998,1.5456094562438571,,0.000024639999999999998,1.545609482730075,,0.000024639999999999998,1.474185847070259,,0.000024639999999999998,1.474185847070259,,0.000024639999999999998,1.475341757633944,,0.000024639999999999998,1.62,,0.000024639999999999998,1.62,,0.000024639999999999998,1.5470919098510343
0.000040264999999999995,1.8623345880280056,,0.000040264999999999995,1.6184395829846763,,0.000040264999999999995,1.6184395829846763,,0.000040264999999999995,1.6184395829846763,,0.000040264999999999995,1.509676493813074,,0.000040264999999999995,1.509676493813074,,0.000040264999999999995,1.509676493813074,,0.000040264999999999995,1.509676518556328,,0.000040264999999999995,1.4021900259809141,,0.000040264999999999995,1.4021900259809141,,0.000040264999999999995,1.403254724826815,,0.000040264999999999995,1.62,,0.000040264999999999995,1.62,,0.000040264999999999995,1.511094032123222
0.000055889999999999995,1.9430007094270643,,0.000055889999999999995,1.6184669252798383,,0.000055889999999999995,1.6184669252798383,,0.000055889999999999995,1.6184669252798383,,0.000055889999999999995,1.4774662051372138,,0.000055889999999999995,1.4774662051372138,,0.000055889999999999995,1.4774662051372138,,0.000055889999999999995,1.477466228396455,,0.000055889999999999995,1.3376588186634344,,0.000055889999999999995,1.3376588186634344,,0.000055889999999999995,1.338578490042848,,0.000055889999999999995,1.62,,0.000055889999999999995,1.62,,0.000055889999999999995,1.4788284564298568
0.000071515,2.0112540947037254,,0.000071515,1.6184889254767998,,0.000071515,1.6184889254767998,,0.000071515,1.6184889254767998,,0.000071515,1.4502182195547688,,0.000071515,1.4502182195547688,,0.000071515,1.4502182195547688,,0.000071515,1.4502182416456024,,0.000071515,1.283075707401421,,0.000071515,1.283075707401421,,0.000071515,1.2838356342912913,,0.000071515,1.62,,0.000071515,1.62,,0.000071515,1.4515369228451798
0.00008714,2.0644718045387465,,0.00008714,1.618503166407796,,0.00008714,1.618503166407796,,0.00008714,1.618503166407796,,0.00008714,1.4289774605047834,,0.00008714,1.4289774605047834,,0.00008714,1.4289774605047834,,0.00008714,1.4289774818187346,,0.00008714,1.2405361866737723,,0.00008714,1.2405361866737723,,0.00008714,1.2410878306668156,,0.00008714,1.62,,0.00008714,1.62,,0.00008714,1.4302671771869662
0.000102765,2.1006087121880035,,0.000102765,1.6185106676019674,,0.000102765,1.6185106676019674,,0.000102765,1.6185106676019674,,0.000102765,1.4145623909939793,,0.000102765,1.4145623909939793,,0.000102765,1.4145623909939793,,0.000102765,1.4145624119208144,,0.000102765,1.211677068533313,,0.000102765,1.211677068533313,,0.000102765,1.2120173531773035,,0.000102765,1.62,,0.000102765,1.62,,0.000102765,1.415837625501858
0.00011839,2.1182760965563463,,0.00011839,1.6185095788873636,,0.00011839,1.6185095788873636,,0.00011839,1.6185095788873636,,0.00011839,1.4075247864241798,,0.00011839,1.4075247864241798,,0.00011839,1.4075247864241798,,0.00011839,1.4075248074007054,,0.00011839,1.197605401133943,,0.00011839,1.197605401133943,,0.00011839,1.1977042648188359,,0.00011839,1.62,,0.00011839,1.62,,0.00011839,1.40880179098757
0.000134015,2.116795009970483,,0.000134015,1.6185014991382551,,0.000134015,1.6185014991382551,,0.000134015,1.6185014991382551,,0.000134015,1.4081372768705251,,0.000134015,1.4081372768705251,,0.000134015,1.4081372768705251,,0.000134015,1.408137298298967,,0.000134015,1.1988638872362514,,0.000134015,1.1988638872362514,,0.000134015,1.1987334464888146,,0.000134015,1.62,,0.000134015,1.62,,0.000134015,1.4094310256605742
0.00014963999999999998,2.0962223697573052,,0.00014963999999999998,1.618485186671641,,0.00014963999999999998,1.618485186671641,,0.00014963999999999998,1.618485186671641,,0.00014963999999999998,1.4163741506444014,,0.00014963999999999998,1.4163741506444014,,0.00014963999999999998,1.4163741506444014,,0.00014963999999999998,1.4163741729427568,,0.00014963999999999998,1.2154022717586852,,0.00014963999999999998,1.2154022717586852,,0.00014963999999999998,1.215032627432964,,0.00014963999999999998,1.62,,0.00014963999999999998,1.62,,0.00014963999999999998,1.4177002016883518
0.000165265,2.0573487709429363,,0.000165265,1.6184628157223213,,0.000165265,1.6184628157223213,,0.000165265,1.6184628157223213,,0.000165265,1.431921034633066,,0.000165265,1.431921034633066,,0.000165265,1.431921034633066,,0.000165265,1.4319210581523345,,0.000165265,1.246586836803561,,0.000165265,1.246586836803561,,0.000165265,1.2460061633637554,,0.000165265,1.62,,0.000165265,1.62,,0.000165265,1.4332924613676672
0.00018089,2.0016681041292466,,0.00018089,1.6184337034477139,,0.00018089,1.6184337034477139,,0.00018089,1.6184337034477139,,0.00018089,1.4541783102723924,,0.00018089,1.4541783102723924,,0.00018089,1.4541783102723924,,0.00018089,1.4541783353506152,,0.00018089,1.2912173728663476,,0.00018089,1.2912173728663476,,0.00018089,1.290434901407628,,0.00018089,1.62,,0.00018089,1.62,,0.00018089,1.455607700195075
0.00019651500000000003,1.9313201461158085,,0.00019651500000000003,1.6184005063763653,,0.00019651500000000003,1.6184005063763653,,0.00019651500000000003,1.6184005063763653,,0.00019651500000000003,1.4822927948348157,,0.00019651500000000003,1.4822927948348157,,0.00019651500000000003,1.4822927948348157,,0.00019651500000000003,1.4822928217158031,,0.00019651500000000003,1.3475805136044696,,0.00019651500000000003,1.3475805136044696,,0.00019651500000000003,1.3466385665560798,,0.00019651500000000003,1.62,,0.00019651500000000003,1.62,,0.00019651500000000003,1.483789236757269
0.00021214000000000004,1.8490083294774893,,0.00021214000000000004,1.6183629672614706,,0.00021214000000000004,1.6183629672614706,,0.00021214000000000004,1.6183629672614706,,0.00021214000000000004,1.5151819172898962,,0.00021214000000000004,1.5151819172898962,,0.00021214000000000004,1.5151819172898962,,0.00021214000000000004,1.51518194618283,,0.00021214000000000004,1.413508528905374,,0.00021214000000000004,1.413508528905374,,0.00021214000000000004,1.4124318331254757,,0.00021214000000000004,1.62,,0.00021214000000000004,1.62,,0.00021214000000000004,1.5167532066553298
0.00022776500000000005,1.757895851166701,,0.00022776500000000005,1.6183240569578619,,0.00022776500000000005,1.6183240569578619,,0.00022776500000000005,1.6183240569578619,,0.00022776500000000005,1.5515839056824032,,0.00022776500000000005,1.5515839056824032,,0.00022776500000000005,1.5515839056824032,,0.00022776500000000005,1.5515839366841957,,0.00022776500000000005,1.4864695288976582,,0.00022776500000000005,1.4864695288976582,,0.00022776500000000005,1.485310199639728,,0.00022776500000000005,1.62,,0.00022776500000000005,1.62,,0.00022776500000000005,1.5532336670516944
0.00024339000000000007,1.6614841126284605,,0.00024339000000000007,1.618283747246185,,0.00024339000000000007,1.618283747246185,,0.00024339000000000007,1.618283747246185,,0.00024339000000000007,1.5900977181173999,,0.00024339000000000007,1.5900977181173999,,0.00024339000000000007,1.5900977181173999,,0.00024339000000000007,1.590097751279146,,0.00024339000000000007,1.56365800607828,,0.00024339000000000007,1.56365800607828,,0.00024339000000000007,1.5624505459319744,,0.00024339000000000007,1.62,,0.00024339000000000007,1.62,,0.00024339000000000007,1.5918278650643654
0.0002590150000000001,1.5634781629064667,,0.0002590150000000001,1.6182451060237395,,0.0002590150000000001,1.6182451060237395,,0.0002590150000000001,1.6182451060237395,,0.0002590150000000001,1.6292454157562757,,0.0002590150000000001,1.6292454157562757,,0.0002590150000000001,1.6292454157562757,,0.0002590150000000001,1.629245451010592,,0.0002590150000000001,1.6421092723665391,,0.0002590150000000001,1.6421092723665391,,0.0002590150000000001,1.6409094865179898,,0.0002590150000000001,1.62,,0.0002590150000000001,1.62,,0.0002590150000000001,1.6310534588692107
0.0002746400000000001,1.467644315686166,,0.0002746400000000001,1.618208104119614,,0.0002746400000000001,1.618208104119614,,0.0002746400000000001,1.618208104119614,,0.0002746400000000001,1.6675204537824573,,0.0002746400000000001,1.6675204537824573,,0.0002746400000000001,1.6675204537824573,,0.0002746400000000001,1.6675204910172394,,0.0002746400000000001,1.718806893564531,,0.0002746400000000001,1.718806893564531,,0.0002746400000000001,1.7176520932782193,,0.0002746400000000001,1.62,,0.0002746400000000001,1.62,,0.0002746400000000001,1.669402232218059
0.0002902650000000001,1.377665411971994,,0.0002902650000000001,1.6181756729655752,,0.0002902650000000001,1.6181756729655752,,0.0002902650000000001,1.6181756729655752,,0.0002902650000000001,1.7034540562366738,,0.0002902650000000001,1.7034540562366738,,0.0002902650000000001,1.7034540562366738,,0.0002902650000000001,1.7034540952278134,,0.0002902650000000001,1.7908049873412997,,0.0002902650000000001,1.7908049873412997,,0.0002902650000000001,1.7897477765333727,,0.0002902650000000001,1.62,,0.0002902650000000001,1.62,,0.0002902650000000001,1.7054012460416037
0.0003058900000000001,1.2969992905729355,,0.0003058900000000001,1.618147554049061,,0.0003058900000000001,1.618147554049061,,0.0003058900000000001,1.618147554049061,,0.0003058900000000001,1.7356632072090983,,0.0003058900000000001,1.7356632072090983,,0.0003058900000000001,1.7356632072090983,,0.0003058900000000001,1.7356632477010665,,0.0003058900000000001,1.8553351654962569,,0.0003058900000000001,1.8553351654962569,,0.0003058900000000001,1.8544084822110127,,0.0003058900000000001,1.62,,0.0003058900000000001,1.62,,0.0003058900000000001,1.7376663068422775
0.00032151500000000014,1.2287459052962744,,0.00032151500000000014,1.618126328166165,,0.00032151500000000014,1.618126328166165,,0.00032151500000000014,1.618126328166165,,0.00032151500000000014,1.7629122264041244,,0.00032151500000000014,1.7629122264041244,,0.00032151500000000014,1.7629122264041244,,0.00032151500000000014,1.7629122680474811,,0.00032151500000000014,1.909919082690482,,0.00032151500000000014,1.909919082690482,,0.00032151500000000014,1.9091657259347496,,0.00032151500000000014,1.62,,0.00032151500000000014,1.62,,0.00032151500000000014,1.7649582437082354
0.00033714000000000015,1.175528195461253,,0.00033714000000000015,1.6181113154193176,,0.00033714000000000015,1.6181113154193176,,0.00033714000000000015,1.6181113154193176,,0.00033714000000000015,1.7841518544944666,,0.00033714000000000015,1.7841518544944666,,0.00033714000000000015,1.7841518544944666,,0.00033714000000000015,1.7841518969319001,,0.00033714000000000015,1.952457615798371,,0.00033714000000000015,1.952457615798371,,0.00033714000000000015,1.9518998219178734,,0.00033714000000000015,1.62,,0.00033714000000000015,1.62,,0.00033714000000000015,1.7862274952381576
0.00035276500000000016,1.1393912878119965,,0.00035276500000000016,1.6181045837545565,,0.00035276500000000016,1.6181045837545565,,0.00035276500000000016,1.6181045837545565,,0.00035276500000000016,1.798567950935132,,0.00035276500000000016,1.798567950935132,,0.00035276500000000016,1.798567950935132,,0.00035276500000000016,1.798567993742317,,0.00035276500000000016,1.9813175008432329,,0.00035276500000000016,1.9813175008432329,,0.00035276500000000016,1.9809829767983724,,0.00035276500000000016,1.62,,0.00035276500000000016,1.62,,0.00035276500000000016,1.8006574306969845
0.0003683900000000002,1.121723903443654,,0.0003683900000000002,1.6181049054171557,,0.0003683900000000002,1.6181049054171557,,0.0003683900000000002,1.6181049054171557,,0.0003683900000000002,1.805604431230508,,0.0003683900000000002,1.805604431230508,,0.0003683900000000002,1.805604431230508,,0.0003683900000000002,1.8056044740055126,,0.0003683900000000002,1.9953882174093711,,0.0003683900000000002,1.9953882174093711,,0.0003683900000000002,1.9952839640800606,,0.0003683900000000002,1.62,,0.0003683900000000002,1.62,,0.0003683900000000002,1.8076927894705088
0.0003840150000000002,1.1232049900295173,,0.0003840150000000002,1.6181137499524756,,0.0003840150000000002,1.6181137499524756,,0.0003840150000000002,1.6181137499524756,,0.0003840150000000002,1.804992961089266,,0.0003840150000000002,1.804992961089266,,0.0003840150000000002,1.804992961089266,,0.0003840150000000002,1.8049930033947017,,0.0003840150000000002,1.994130463654769,,0.0003840150000000002,1.994130463654769,,0.0003840150000000002,1.9942659510492198,,0.0003840150000000002,1.62,,0.0003840150000000002,1.62,,0.0003840150000000002,1.8070639212981705
0.0003996400000000002,1.1437776302426954,,0.0003996400000000002,1.6181293000896693,,0.0003996400000000002,1.6181293000896693,,0.0003996400000000002,1.6181293000896693,,0.0003996400000000002,1.7967549696682659,,0.0003996400000000002,1.7967549696682659,,0.0003996400000000002,1.7967549696682659,,0.0003996400000000002,1.796755011121559,,0.0003996400000000002,1.9775911608812042,,0.0003996400000000002,1.9775911608812042,,0.0003996400000000002,1.9779560860384837,,0.0003996400000000002,1.62,,0.0003996400000000002,1.62,,0.0003996400000000002,1.7987942858157944
0.0004152650000000002,1.1826512290570645,,0.0004152650000000002,1.618152431123069,,0.0004152650000000002,1.618152431123069,,0.0004152650000000002,1.618152431123069,,0.0004152650000000002,1.7812090994177108,,0.0004152650000000002,1.7812090994177108,,0.0004152650000000002,1.7812090994177108,,0.0004152650000000002,1.7812091396322027,,0.0004152650000000002,1.9464072975815114,,0.0004152650000000002,1.9464072975815114,,0.0004152650000000002,1.9469923880211484,,0.0004152650000000002,1.62,,0.0004152650000000002,1.62,,0.0004152650000000002,1.7832023773403165
0.00043089000000000023,1.2383318958707545,,0.00043089000000000023,1.6181807857499686,,0.00043089000000000023,1.6181807857499686,,0.00043089000000000023,1.6181807857499686,,0.00043089000000000023,1.7589507127018615,,0.00043089000000000023,1.7589507127018615,,0.00043089000000000023,1.7589507127018615,,0.00043089000000000023,1.7589507513753821,,0.00043089000000000023,1.9017758721324156,,0.00043089000000000023,1.9017758721324156,,0.00043089000000000023,1.902554215723616,,0.00043089000000000023,1.62,,0.00043089000000000023,1.62,,0.00043089000000000023,1.7608866934866787
0.00044651500000000025,1.308679853884193,,0.00044651500000000025,1.618214738243945,,0.00044651500000000025,1.618214738243945,,0.00044651500000000025,1.618214738243945,,0.00044651500000000025,1.7308372353675507,,0.00044651500000000025,1.7308372353675507,,0.00044651500000000025,1.7308372353675507,,0.00044651500000000025,1.7308372722202285,,0.00044651500000000025,1.84541340603439,,0.00044651500000000025,1.84541340603439,,0.00044651500000000025,1.8463592147925616,,0.00044651500000000025,1.62,,0.00044651500000000025,1.62,,0.00044651500000000025,1.73270549457939
0.00046214000000000026,1.390991670522512,,0.00046214000000000026,1.6182515243523565,,0.00046214000000000026,1.6182515243523565,,0.00046214000000000026,1.6182515243523565,,0.00046214000000000026,1.6979470083493668,,0.00046214000000000026,1.6979470083493668,,0.00046214000000000026,1.6979470083493668,,0.00046214000000000026,1.6979470432082506,,0.00046214000000000026,1.7794845269209543,,0.00046214000000000026,1.7794845269209543,,0.00046214000000000026,1.7805576163020564,,0.00046214000000000026,1.62,,0.00046214000000000026,1.62,,0.00046214000000000026,1.6997410924388519
0.0004777650000000003,1.4821041488333004,,0.0004777650000000003,1.6182911854574356,,0.0004777650000000003,1.6182911854574356,,0.0004777650000000003,1.6182911854574356,,0.0004777650000000003,1.6615460207310933,,0.0004777650000000003,1.6615460207310933,,0.0004777650000000003,1.6615460207310933,,0.0004777650000000003,1.6615460534628905,,0.0004777650000000003,1.7065241775583935,,0.0004777650000000003,1.7065241775583935,,0.0004777650000000003,1.7076868788185644,,0.0004777650000000003,1.62,,0.0004777650000000003,1.62,,0.0004777650000000003,1.663260957694863
