X--Trace 1::[transient: TIME],Y--Trace 1::[PR1: V(1)],,X--Trace 2::[transient: TIME],Y--Trace 2::[PR2: V(2)],,X--Trace 3::[transient: TIME],Y--Trace 3::[PR3: V(2)],,X--Trace 4::[transient: TIME],Y--Trace 4::[PR4: V(2)],,X--Trace 5::[transient: TIME],Y--Trace 5::[PR5: V(3)],,X--Trace 6::[transient: TIME],Y--Trace 6::[PR6: V(3)],,X--Trace 7::[transient: TIME],Y--Trace 7::[PR7: V(3)],,X--Trace 8::[transient: TIME],Y--Trace 8::[PR8: V(5)],,X--Trace 9::[transient: TIME],Y--Trace 9::[PR9: V(7)],,X--Trace 10::[transient: TIME],Y--Trace 10::[PR14: V(7)],,X--Trace 11::[transient: TIME],Y--Trace 11::[PR10: V(8)],,X--Trace 12::[transient: TIME],Y--Trace 12::[PR11: V(4)],,X--Trace 13::[transient: TIME],Y--Trace 13::[PR12: V(4)],,X--Trace 14::[transient: TIME],Y--Trace 14::[PR13: V(6)]
0,1.62,,0,1.6183075931279718,,0,1.6183075931279718,,0,1.6183075931279718,,0,1.6064053551665793,,0,1.6064053551665793,,0,1.6064053551665793,,0,1.6064053870293569,,0,1.596177336215334,,0,1.596177336215334,,0,1.5961773361339289,,0,1.62,,0,1.62,,0,1.6080875539438828
1e-7,1.6206283183653514,,1e-7,1.6183349691209057,,1e-7,1.6183349691209057,,1e-7,1.6183349691209057,,1e-7,1.606252448901833,,1e-7,1.606252448901833,,1e-7,1.606252448901833,,1e-7,1.6062524783930534,,1e-7,1.5956957571790555,,1e-7,1.5956957571790555,,1e-7,1.596035570153278,,1e-7,1.62,,1e-7,1.62,,1e-7,1.6078468083465132
2e-7,1.6212566357385019,,2e-7,1.6183375369631303,,2e-7,1.6183375369631303,,2e-7,1.6183375369631303,,2e-7,1.6060672925522277,,2e-7,1.6060672925522277,,2e-7,1.6060672925522277,,2e-7,1.606067323016622,,2e-7,1.5953975657105048,,2e-7,1.5953975657105048,,2e-7,1.5958477560454885,,2e-7,1.62,,2e-7,1.62,,2e-7,1.6076976945929167
4e-7,1.6225132635394095,,4e-7,1.618338548424087,,4e-7,1.618338548424087,,4e-7,1.618338548424087,,4e-7,1.6056916208328933,,4e-7,1.6056916208328933,,4e-7,1.6056916208328933,,4e-7,1.6056916501552168,,4e-7,1.5945615723310593,,4e-7,1.5945615723310593,,4e-7,1.5953366067336943,,4e-7,1.62,,4e-7,1.62,,4e-7,1.6072797190587105
8e-7,1.6250264635783653,,8e-7,1.6183388186289396,,8e-7,1.6183388186289396,,8e-7,1.6183388186289396,,8e-7,1.604938017817651,,8e-7,1.604938017817651,,8e-7,1.604938017817651,,8e-7,1.6049380491553509,,8e-7,1.5932037169724518,,8e-7,1.5932037169724518,,8e-7,1.5940139211178042,,8e-7,1.62,,8e-7,1.62,,8e-7,1.6066007540681921
0.0000016,1.6300524191627288,,0.0000016,1.6183407412713036,,0.0000016,1.6183407412713036,,0.0000016,1.6183407412713036,,0.0000016,1.6034327511696527,,0.0000016,1.6034327511696527,,0.0000016,1.6034327511696527,,0.0000016,1.603432779811148,,0.0000016,1.5899933294527764,,0.0000016,1.5899933294527764,,0.0000016,1.5909932576988173,,0.0000016,1.62,,0.0000016,1.62,,0.0000016,1.6049956102616356
0.0000032,1.6401007746814766,,0.0000032,1.6183433400402463,,0.0000032,1.6183433400402463,,0.0000032,1.6183433400402463,,0.0000032,1.6004217006265575,,0.0000032,1.6004217006265575,,0.0000032,1.6004217006265575,,0.0000032,1.600421732110153,,0.0000032,1.5841818049135044,,0.0000032,1.5841818049135044,,0.0000032,1.5849827691399423,,0.0000032,1.62,,0.0000032,1.62,,0.0000032,1.602089795404643
0.0000064,1.6601690500666972,,0.0000064,1.6183496655779297,,0.0000064,1.6183496655779297,,0.0000064,1.6183496655779297,,0.0000064,1.5944097425746278,,0.0000064,1.5944097425746278,,0.0000064,1.5944097425746278,,0.0000064,1.5944097705195166,,0.0000064,1.5718955038518867,,0.0000064,1.5718955038518867,,0.0000064,1.5729040783311843,,0.0000064,1.62,,0.0000064,1.62,,0.0000064,1.595946710496916
0.000012479999999999999,1.698093113473714,,0.000012479999999999999,1.6183606058833884,,0.000012479999999999999,1.6183606058833884,,0.000012479999999999999,1.6183606058833884,,0.000012479999999999999,1.5830478520207503,,0.000012479999999999999,1.5830478520207503,,0.000012479999999999999,1.5830478520207503,,0.000012479999999999999,1.583047881055038,,0.000012479999999999999,1.549252233900918,,0.000012479999999999999,1.549252233900918,,0.000012479999999999999,1.5501446025790528,,0.000012479999999999999,1.62,,0.000012479999999999999,1.62,,0.000012479999999999999,1.5846250555173844
0.000024639999999999998,1.7723556843138335,,0.000024639999999999998,1.6183818849999179,,0.000024639999999999998,1.6183818849999179,,0.000024639999999999998,1.6183818849999179,,0.000024639999999999998,1.5608010175158669,,0.000024639999999999998,1.5608010175158669,,0.000024639999999999998,1.5608010175158669,,0.000024639999999999998,1.5608010453450911,,0.000024639999999999998,1.5046688083018103,,0.000024639999999999998,1.5046688083018103,,0.000024639999999999998,1.5055358602777285,,0.000024639999999999998,1.62,,0.000024639999999999998,1.62,,0.000024639999999999998,1.5623333653679543
0.000040264999999999995,1.8623345880280056,,0.000040264999999999995,1.6184065977002575,,0.000040264999999999995,1.6184065977002575,,0.000040264999999999995,1.6184065977002575,,0.000040264999999999995,1.5338488284268803,,0.000040264999999999995,1.5338488284268803,,0.000040264999999999995,1.5338488284268803,,0.000040264999999999995,1.5338488549495366,,0.000040264999999999995,1.4506670564321238,,0.000040264999999999995,1.4506670564321238,,0.000040264999999999995,1.4514656401104198,,0.000040264999999999995,1.62,,0.000040264999999999995,1.62,,0.000040264999999999995,1.5353325140337564
0.000055889999999999995,1.9430007094270643,,0.000055889999999999995,1.6184271060422943,,0.000055889999999999995,1.6184271060422943,,0.000055889999999999995,1.6184271060422943,,0.000055889999999999995,1.5096890650807284,,0.000055889999999999995,1.5096890650807284,,0.000055889999999999995,1.5096890650807284,,0.000055889999999999995,1.5096890904899294,,0.000055889999999999995,1.402264524162744,,0.000055889999999999995,1.402264524162744,,0.000055889999999999995,1.4029543445060866,,0.000055889999999999995,1.62,,0.000055889999999999995,1.62,,0.000055889999999999995,1.5111312688813088
0.000071515,2.0112540947037254,,0.000071515,1.6184436074463355,,0.000071515,1.6184436074463355,,0.000071515,1.6184436074463355,,0.000071515,1.489251429529389,,0.000071515,1.489251429529389,,0.000071515,1.489251429529389,,0.000071515,1.489251454062579,,0.000071515,1.3613239198117602,,0.000071515,1.3613239198117602,,0.000071515,1.3618938994775966,,0.000071515,1.62,,0.000071515,1.62,,0.000071515,1.490660983235073
0.00008714,2.0644718045387465,,0.00008714,1.6184542884154296,,0.00008714,1.6184542884154296,,0.00008714,1.6184542884154296,,0.00008714,1.473319794754505,,0.00008714,1.473319794754505,,0.00008714,1.473319794754505,,0.00008714,1.4733198187046532,,0.00008714,1.3294171201197844,,0.00008714,1.3294171201197844,,0.00008714,1.3298308849045932,,0.00008714,1.62,,0.00008714,1.62,,0.00008714,1.4747075944254022
0.000102765,2.1006087121880035,,0.000102765,1.6184599146355034,,0.000102765,1.6184599146355034,,0.000102765,1.6184599146355034,,0.000102765,1.4625079328114792,,0.000102765,1.4625079328114792,,0.000102765,1.4625079328114792,,0.000102765,1.462507956471642,,0.000102765,1.3077716879332837,,0.000102765,1.3077716879332837,,0.000102765,1.3080269040334405,,0.000102765,1.62,,0.000102765,1.62,,0.000102765,1.4638848838645317
0.00011839,2.1182760965563463,,0.00011839,1.6184590969418031,,0.00011839,1.6184590969418031,,0.00011839,1.6184590969418031,,0.00011839,1.4572298119271285,,0.00011839,1.4572298119271285,,0.00011839,1.4572298119271285,,0.00011839,1.45722983562425,,0.00011839,1.297218079565751,,0.00011839,1.297218079565751,,0.00011839,1.2972922205960749,,0.00011839,1.62,,0.00011839,1.62,,0.00011839,1.4586080790754663
0.000134015,2.116795009970483,,0.000134015,1.618453036528918,,0.000134015,1.618453036528918,,0.000134015,1.618453036528918,,0.000134015,1.4576897873007233,,0.000134015,1.4576897873007233,,0.000134015,1.4576897873007233,,0.000134015,1.4576898113371897,,0.000134015,1.2981631894259582,,0.000134015,1.2981631894259582,,0.000134015,1.2980653280884338,,0.000134015,1.62,,0.000134015,1.62,,0.000134015,1.4590806277144257
0.00014963999999999998,2.0962223697573052,,0.00014963999999999998,1.6184407996949872,,0.00014963999999999998,1.6184407996949872,,0.00014963999999999998,1.6184407996949872,,0.00014963999999999998,1.4638686650303978,,0.00014963999999999998,1.4638686650303978,,0.00014963999999999998,1.4638686650303978,,0.00014963999999999998,1.4638686897190556,,0.00014963999999999998,1.3105694045860559,,0.00014963999999999998,1.3105694045860559,,0.00014963999999999998,1.3102921280061974,,0.00014963999999999998,1.62,,0.00014963999999999998,1.62,,0.00014963999999999998,1.4652837231239126
0.000165265,2.0573487709429363,,0.000165265,1.6184240201398483,,0.000165265,1.6184240201398483,,0.000165265,1.6184240201398483,,0.000165265,1.4755305060605846,,0.000165265,1.4755305060605846,,0.000165265,1.4755305060605846,,0.000165265,1.4755305316653802,,0.000165265,1.3339612180645932,,0.000165265,1.3339612180645932,,0.000165265,1.3335256527954436,,0.000165265,1.62,,0.000165265,1.62,,0.000165265,1.4769796127224208
0.00018089,2.0016681041292466,,0.00018089,1.6184021823920574,,0.00018089,1.6184021823920574,,0.00018089,1.6184021823920574,,0.00018089,1.4922256432641339,,0.00018089,1.4922256432641339,,0.00018089,1.4922256432641339,,0.00018089,1.492225670037953,,0.00018089,1.3674384668427448,,0.00018089,1.3674384668427448,,0.00018089,1.366851540420421,,0.00018089,1.62,,0.00018089,1.62,,0.00018089,1.4937182152120079
0.00019651500000000003,1.9313201461158085,,0.00019651500000000003,1.6183772828353922,,0.00019651500000000003,1.6183772828353922,,0.00019651500000000003,1.6183772828353922,,0.00019651500000000003,1.513313995475676,,0.00019651500000000003,1.513313995475676,,0.00019651500000000003,1.513313995475676,,0.00019651500000000003,1.5133140236020493,,0.00019651500000000003,1.4097158356551422,,0.00019651500000000003,1.4097158356551422,,0.00019651500000000003,1.4090092945856998,,0.00019651500000000003,1.62,,0.00019651500000000003,1.62,,0.00019651500000000003,1.5148568742540727
0.00021214000000000004,1.8490083294774893,,0.00021214000000000004,1.6183491242934276,,0.00021214000000000004,1.6183491242934276,,0.00021214000000000004,1.6183491242934276,,0.00021214000000000004,1.5379836481523954,,0.00021214000000000004,1.5379836481523954,,0.00021214000000000004,1.5379836481523954,,0.00021214000000000004,1.5379836777875662,,0.00021214000000000004,1.4591674568317532,,0.00021214000000000004,1.4591674568317532,,0.00021214000000000004,1.4583598439398944,,0.00021214000000000004,1.62,,0.00021214000000000004,1.62,,0.00021214000000000004,1.5395826565311244
0.00022776500000000005,1.757895851166701,,0.00022776500000000005,1.6183199398323667,,0.00022776500000000005,1.6183199398323667,,0.00022776500000000005,1.6183199398323667,,0.00022776500000000005,1.5652880558829874,,0.00022776500000000005,1.5652880558829874,,0.00022776500000000005,1.5652880558829874,,0.00022776500000000005,1.5652880871002872,,0.00022776500000000005,1.5138940756995527,,0.00022776500000000005,1.5138940756995527,,0.00022776500000000005,1.5130244896461695,,0.00022776500000000005,1.62,,0.00022776500000000005,1.62,,0.00022776500000000005,1.5669459362561813
0.00024339000000000007,1.6614841126284605,,0.00024339000000000007,1.618289703138759,,0.00024339000000000007,1.618289703138759,,0.00024339000000000007,1.618289703138759,,0.00024339000000000007,1.5941764326527725,,0.00024339000000000007,1.5941764326527725,,0.00024339000000000007,1.5941764326527725,,0.00024339000000000007,1.5941764654898807,,0.00024339000000000007,1.5717914569184013,,0.00024339000000000007,1.5717914569184013,,0.00024339000000000007,1.570885766269654,,0.00024339000000000007,1.62,,0.00024339000000000007,1.62,,0.00024339000000000007,1.595894596435212
0.0002590150000000001,1.5634781629064667,,0.0002590150000000001,1.6182607209700401,,0.0002590150000000001,1.6182607209700401,,0.0002590150000000001,1.6182607209700401,,0.0002590150000000001,1.6235401018272697,,0.0002590150000000001,1.6235401018272697,,0.0002590150000000001,1.6235401018272697,,0.0002590150000000001,1.6235401362342696,,0.0002590150000000001,1.6306357329826795,,0.0002590150000000001,1.6306357329826795,,0.0002590150000000001,1.6297358099674761,,0.0002590150000000001,1.62,,0.0002590150000000001,1.62,,0.0002590150000000001,1.6253167049542492
0.0002746400000000001,1.467644315686166,,0.0002746400000000001,1.6182329653843313,,0.0002746400000000001,1.6182329653843313,,0.0002746400000000001,1.6182329653843313,,0.0002746400000000001,1.6522491491186575,,0.0002746400000000001,1.6522491491186575,,0.0002746400000000001,1.6522491491186575,,0.0002746400000000001,1.6522491850108314,,0.0002746400000000001,1.6881644734694605,,0.0002746400000000001,1.6881644734694605,,0.0002746400000000001,1.6872982874076663,,0.0002746400000000001,1.62,,0.0002746400000000001,1.62,,0.0002746400000000001,1.6540810472632048
0.0002902650000000001,1.377665411971994,,0.0002902650000000001,1.61820864167123,,0.0002902650000000001,1.61820864167123,,0.0002902650000000001,1.61820864167123,,0.0002902650000000001,1.6792017814678097,,0.0002902650000000001,1.6792017814678097,,0.0002902650000000001,1.6792017814678097,,0.0002902650000000001,1.679201818677672,,0.0002902650000000001,1.7421679360245177,,0.0002902650000000001,1.7421679360245177,,0.0002902650000000001,1.7413749629821438,,0.0002902650000000001,1.62,,0.0002902650000000001,1.62,,0.0002902650000000001,1.6810827537342876
0.0003058900000000001,1.2969992905729355,,0.0003058900000000001,1.6181875489620863,,0.0003058900000000001,1.6181875489620863,,0.0003058900000000001,1.6181875489620863,,0.0003058900000000001,1.7033607473039751,,0.0003058900000000001,1.7033607473039751,,0.0003058900000000001,1.7033607473039751,,0.0003058900000000001,1.7033607856392439,,0.0003058900000000001,1.790569758971028,,0.0003058900000000001,1.790569758971028,,0.0003058900000000001,1.7898746828288596,,0.0003058900000000001,1.62,,0.0003058900000000001,1.62,,0.0003058900000000001,1.7052836440038985
0.00032151500000000014,1.2287459052962744,,0.00032151500000000014,1.6181716304258946,,0.00032151500000000014,1.6181716304258946,,0.00032151500000000014,1.6181716304258946,,0.00032151500000000014,1.7237991027557753,,0.00032151500000000014,1.7237991027557753,,0.00032151500000000014,1.7237991027557753,,0.00032151500000000014,1.723799141954945,,0.00032151500000000014,1.8315109056404912,,0.00032151500000000014,1.8315109056404912,,0.00032151500000000014,1.8309458524016342,,0.00032151500000000014,1.62,,0.00032151500000000014,1.62,,0.00032151500000000014,1.7257542010336144
0.00033714000000000015,1.175528195461253,,0.00033714000000000015,1.6181603682328036,,0.00033714000000000015,1.6181603682328036,,0.00033714000000000015,1.6181603682328036,,0.00033714000000000015,1.7397299441189231,,0.00033714000000000015,1.7397299441189231,,0.00033714000000000015,1.7397299441189231,,0.00033714000000000015,1.7397299839133826,,0.00033714000000000015,1.8634170262480148,,0.00033714000000000015,1.8634170262480148,,0.00033714000000000015,1.8629986482377554,,0.00033714000000000015,1.62,,0.00033714000000000015,1.62,,0.00033714000000000015,1.7417072500742319
0.00035276500000000016,1.1393912878119965,,0.00035276500000000016,1.618155321750402,,0.00035276500000000016,1.618155321750402,,0.00035276500000000016,1.618155321750402,,0.00035276500000000016,1.7505425219051092,,0.00035276500000000016,1.7505425219051092,,0.00035276500000000016,1.7505425219051092,,0.00035276500000000016,1.7505425619771713,,0.00035276500000000016,1.8850629723858197,,0.00035276500000000016,1.8850629723858197,,0.00035276500000000016,1.8848120792402934,,0.00035276500000000016,1.62,,0.00035276500000000016,1.62,,0.00035276500000000016,1.7525302178400752
0.0003683900000000002,1.121723903443654,,0.0003683900000000002,1.618155561337361,,0.0003683900000000002,1.618155561337361,,0.0003683900000000002,1.618155561337361,,0.0003683900000000002,1.7558198534419465,,0.0003683900000000002,1.7558198534419465,,0.0003683900000000002,1.7558198534419465,,0.0003683900000000002,1.7558198934895488,,0.0003683900000000002,1.895615928369538,,0.0003683900000000002,1.895615928369538,,0.0003683900000000002,1.8955377408626346,,0.0003683900000000002,1.62,,0.0003683900000000002,1.62,,0.0003683900000000002,1.7578066962057621
0.0003840150000000002,1.1232049900295173,,0.0003840150000000002,1.61816219838348,,0.0003840150000000002,1.61816219838348,,0.0003840150000000002,1.61816219838348,,0.0003840150000000002,1.7553605898875366,,0.0003840150000000002,1.7553605898875366,,0.0003840150000000002,1.7553605898875366,,0.0003840150000000002,1.7553606295831816,,0.0003840150000000002,1.8946713074184465,,0.0003840150000000002,1.8946713074184465,,0.0003840150000000002,1.894772959449451,,0.0003840150000000002,1.62,,0.0003840150000000002,1.62,,0.0003840150000000002,1.7573343922550424
0.0003996400000000002,1.1437776302426954,,0.0003996400000000002,1.6181738602023017,,0.0003996400000000002,1.6181738602023017,,0.0003996400000000002,1.6181738602023017,,0.0003996400000000002,1.7491809268413803,,0.0003996400000000002,1.7491809268413803,,0.0003996400000000002,1.7491809268413803,,0.0003996400000000002,1.7491809658975421,,0.0003996400000000002,1.8822644634488617,,0.0003996400000000002,1.8822644634488617,,0.0003996400000000002,1.8825381934225456,,0.0003996400000000002,1.62,,0.0003996400000000002,1.62,,0.0003996400000000002,1.7511309822054018
0.0004152650000000002,1.1826512290570645,,0.0004152650000000002,1.6181912133117413,,0.0004152650000000002,1.6181912133117413,,0.0004152650000000002,1.6181912133117413,,0.0004152650000000002,1.7375197936398024,,0.0004152650000000002,1.7375197936398024,,0.0004152650000000002,1.7375197936398024,,0.0004152650000000002,1.7375198317670233,,0.0004152650000000002,1.8588731167781616,,0.0004152650000000002,1.8588731167781616,,0.0004152650000000002,1.8593120032888495,,0.0004152650000000002,1.62,,0.0004152650000000002,1.62,,0.0004152650000000002,1.7394353262479207
0.00043089000000000023,1.2383318958707545,,0.00043089000000000023,1.6182124791106671,,0.00043089000000000023,1.6182124791106671,,0.00043089000000000023,1.6182124791106671,,0.00043089000000000023,1.7208238751177642,,0.00043089000000000023,1.7208238751177642,,0.00043089000000000023,1.7208238751177642,,0.00043089000000000023,1.7208239120888429,,0.00043089000000000023,1.8253952599999308,,0.00043089000000000023,1.8253952599999308,,0.00043089000000000023,1.825979080699025,,0.00043089000000000023,1.62,,0.00043089000000000023,1.62,,0.00043089000000000023,1.722696419519701
0.00044651500000000025,1.308679853884193,,0.00044651500000000025,1.6182379491679744,,0.00044651500000000025,1.6182379491679744,,0.00044651500000000025,1.6182379491679744,,0.00044651500000000025,1.6997362267769323,,0.00044651500000000025,1.6997362267769323,,0.00044651500000000025,1.6997362267769323,,0.00044651500000000025,1.6997362623824976,,0.00044651500000000025,1.783118338493623,,0.00044651500000000025,1.783118338493623,,0.00044651500000000025,1.7838277867508296,,0.00044651500000000025,1.62,,0.00044651500000000025,1.62,,0.00044651500000000025,1.701557984370671
0.00046214000000000026,1.390991670522512,,0.00046214000000000026,1.6182655388021563,,0.00046214000000000026,1.6182655388021563,,0.00046214000000000026,1.6182655388021563,,0.00046214000000000026,1.675065796747172,,0.00046214000000000026,1.675065796747172,,0.00046214000000000026,1.675065796747172,,0.00046214000000000026,1.6750658308569613,,0.00046214000000000026,1.7336661276809613,,0.00046214000000000026,1.7336661276809613,,0.00046214000000000026,1.7344710237053769,,0.00046214000000000026,1.62,,0.00046214000000000026,1.62,,0.00046214000000000026,1.6768319070345314
0.0004777650000000003,1.4821041488333004,,0.0004777650000000003,1.6182952907352481,,0.0004777650000000003,1.6182952907352481,,0.0004777650000000003,1.6182952907352481,,0.0004777650000000003,1.6477620889621452,,0.0004777650000000003,1.6477620889621452,,0.0004777650000000003,1.6477620889621452,,0.0004777650000000003,1.6477621214767202,,0.0004777650000000003,1.6789399389181707,,0.0004777650000000003,1.6789399389181707,,0.0004777650000000003,1.6798120669667,,0.0004777650000000003,1.62,,0.0004777650000000003,1.62,,0.0004777650000000003,1.6494688426042992
