X--Trace 1::[transient: TIME],Y--Trace 1::[PR1: V(1)],,X--Trace 2::[transient: TIME],Y--Trace 2::[PR2: V(2)],,X--Trace 3::[transient: TIME],Y--Trace 3::[PR3: V(2)],,X--Trace 4::[transient: TIME],Y--Trace 4::[PR4: V(2)],,X--Trace 5::[transient: TIME],Y--Trace 5::[PR5: V(3)],,X--Trace 6::[transient: TIME],Y--Trace 6::[PR6: V(3)],,X--Trace 7::[transient: TIME],Y--Trace 7::[PR7: V(3)],,X--Trace 8::[transient: TIME],Y--Trace 8::[PR8: V(5)],,X--Trace 9::[transient: TIME],Y--Trace 9::[PR9: V(7)],,X--Trace 10::[transient: TIME],Y--Trace 10::[PR14: V(7)],,X--Trace 11::[transient: TIME],Y--Trace 11::[PR10: V(8)],,X--Trace 12::[transient: TIME],Y--Trace 12::[PR11: V(4)],,X--Trace 13::[transient: TIME],Y--Trace 13::[PR12: V(4)],,X--Trace 14::[transient: TIME],Y--Trace 14::[PR13: V(6)]
0,1.62,,0,1.6183075931279718,,0,1.6183075931279718,,0,1.6183075931279718,,0,1.6064053551665793,,0,1.6064053551665793,,0,1.6064053551665793,,0,1.6064053870293569,,0,1.596177336215334,,0,1.596177336215334,,0,1.5961773361339289,,0,1.62,,0,1.62,,0,1.6080875539438828
1e-7,1.6206283183653514,,1e-7,1.618453961637015,,1e-7,1.618453961637015,,1e-7,1.618453961637015,,1e-7,1.6055878263906047,,1e-7,1.6055878263906047,,1e-7,1.6055878263906047,,1e-7,1.6055878455736148,,1e-7,1.5936025252946444,,1e-7,1.5936025252946444,,1e-7,1.5954193700106876,,1e-7,1.62,,1e-7,1.62,,1e-7,1.6068003833108793
1.7271959527560032e-7,1.621085228371232,,1.7271959527560032e-7,1.6184899457281527,,1.7271959527560032e-7,1.6184899457281527,,1.7271959527560032e-7,1.6184899457281527,,1.7271959527560032e-7,1.6047819612914607,,1.7271959527560032e-7,1.6047819612914607,,1.7271959527560032e-7,1.6047819612914607,,1.7271959527560032e-7,1.6047819846908968,,1.7271959527560032e-7,1.5923032714186989,,1.7271959527560032e-7,1.5923032714186989,,1.7271959527560032e-7,1.5946940588016947,,1.7271959527560032e-7,1.62,,1.7271959527560032e-7,1.62,,1.7271959527560032e-7,1.6061506783014674
3.1815878582680095e-7,1.6219990452827195,,3.1815878582680095e-7,1.618516077978813,,3.1815878582680095e-7,1.618516077978813,,3.1815878582680095e-7,1.618516077978813,,3.1815878582680095e-7,1.6030327309799453,,3.1815878582680095e-7,1.6030327309799453,,3.1815878582680095e-7,1.6030327309799453,,3.1815878582680095e-7,1.603032742399475,,3.1815878582680095e-7,1.587916907628571,,3.1815878582680095e-7,1.587916907628571,,3.1815878582680095e-7,1.59256010560793,,3.1815878582680095e-7,1.62,,3.1815878582680095e-7,1.62,,3.1815878582680095e-7,1.6039577182871945
6.090371669292023e-7,1.6238266560212193,,6.090371669292023e-7,1.618510938301857,,6.090371669292023e-7,1.618510938301857,,6.090371669292023e-7,1.618510938301857,,6.090371669292023e-7,1.5993621122094746,,6.090371669292023e-7,1.5993621122094746,,6.090371669292023e-7,1.5993621122094746,,6.090371669292023e-7,1.5993621473978332,,6.090371669292023e-7,1.5823371784137095,,6.090371669292023e-7,1.5823371784137095,,6.090371669292023e-7,1.5869462462851036,,6.090371669292023e-7,1.62,,6.090371669292023e-7,1.62,,6.090371669292023e-7,1.6011674135625276
0.0000011907939291340048,1.6274816996950439,,0.0000011907939291340048,1.618523872355017,,0.0000011907939291340048,1.618523872355017,,0.0000011907939291340048,1.618523872355017,,0.0000011907939291340048,1.592090902572915,,0.0000011907939291340048,1.592090902572915,,0.0000011907939291340048,1.592090902572915,,0.0000011907939291340048,1.5920909038693947,,0.0000011907939291340048,1.565282780869769,,0.0000011907939291340048,1.565282780869769,,0.0000011907939291340048,1.5725428852192143,,0.0000011907939291340048,1.62,,0.0000011907939291340048,1.62,,0.0000011907939291340048,1.5926408425395704
0.00000235430745354361,1.6347903921625127,,0.00000235430745354361,1.6185337858989055,,0.00000235430745354361,1.6185337858989055,,0.00000235430745354361,1.6185337858989055,,0.00000235430745354361,1.5775035379986873,,0.00000235430745354361,1.5775035379986873,,0.00000235430745354361,1.5775035379986873,,0.00000235430745354361,1.5775035789925775,,0.00000235430745354361,1.5390498581868237,,0.00000235430745354361,1.5390498581868237,,0.00000235430745354361,1.5436814637230578,,0.00000235430745354361,1.62,,0.00000235430745354361,1.62,,0.00000235430745354361,1.5795236462649744
0.00000468133450236282,1.649396729961585,,0.00000468133450236282,1.6185668217957885,,0.00000468133450236282,1.6185668217957885,,0.00000468133450236282,1.6185668217957885,,0.00000468133450236282,1.5483910435000645,,0.00000468133450236282,1.5483910435000645,,0.00000468133450236282,1.5483910435000645,,0.00000468133450236282,1.548391038457493,,0.00000468133450236282,1.4774123805718733,,0.00000468133450236282,1.4774123805718733,,0.00000468133450236282,1.4848921854539585,,0.00000468133450236282,1.62,,0.00000468133450236282,1.62,,0.00000468133450236282,1.5487057604383199
0.000009102685895119318,1.6770692178395454,,0.000009102685895119318,1.6186192351211226,,0.000009102685895119318,1.6186192351211226,,0.000009102685895119318,1.6186192351211226,,0.000009102685895119318,1.4932072303711967,,0.000009102685895119318,1.4932072303711967,,0.000009102685895119318,1.4932072303711967,,0.000009102685895119318,1.4932072461469288,,0.000009102685895119318,1.3685865582530363,,0.000009102685895119318,1.3685865582530363,,0.000009102685895119318,1.3745228877617806,,0.000009102685895119318,1.62,,0.000009102685895119318,1.62,,0.000009102685895119318,1.4942924645748057
0.000016205724825528467,1.721121222861202,,0.000016205724825528467,1.618704320067324,,0.000016205724825528467,1.618704320067324,,0.000016205724825528467,1.618704320067324,,0.000016205724825528467,1.4053699070742234,,0.000016205724825528467,1.4053699070742234,,0.000016205724825528467,1.4053699070742234,,0.000016205724825528467,1.4053699171338923,,0.000016205724825528467,1.1924865170802006,,0.000016205724825528467,1.1924865170802006,,0.000016205724825528467,1.1984139947790517,,0.000016205724825528467,1.62,,0.000016205724825528467,1.62,,0.000016205724825528467,1.4062425511610683
0.000030411802686346763,1.8064655350670231,,0.000030411802686346763,1.6188651835258774,,0.000030411802686346763,1.6188651835258774,,0.000030411802686346763,1.6188651835258774,,0.000030411802686346763,1.2352052095639867,,0.000030411802686346763,1.2352052095639867,,0.000030411802686346763,1.2352052095639867,,0.000030411802686346763,1.2352052114067138,,0.000030411802686346763,0.8515447305321473,,0.000030411802686346763,0.8515447305321473,,0.000030411802686346763,0.8571653951474101,,0.000030411802686346763,1.62,,0.000030411802686346763,1.62,,0.000030411802686346763,1.235771812608244
0.000046036802686346763,1.893390812535048,,0.000046036802686346763,1.6190189968842084,,0.000046036802686346763,1.6190189968842084,,0.000046036802686346763,1.6190189968842084,,0.000046036802686346763,1.0618887256275855,,0.000046036802686346763,1.0618887256275855,,0.000046036802686346763,1.0618887256275855,,0.000046036802686346763,1.0618887189855193,,0.000046036802686346763,0.5042794566819424,,0.000046036802686346763,0.5042794566819424,,0.000046036802686346763,0.5093309105205168,,0.000046036802686346763,1.62,,0.000046036802686346763,1.62,,0.000046036802686346763,1.0621393354117916
0.00006166180268634677,1.9698098343966852,,0.00006166180268634677,1.6191481140156545,,0.00006166180268634677,1.6191481140156545,,0.00006166180268634677,1.6191481140156545,,0.00006166180268634677,0.9095363502487361,,0.00006166180268634677,0.9095363502487361,,0.00006166180268634677,0.9095363502487361,,0.00006166180268634677,0.909536336876742,,0.00006166180268634677,0.1990728784123233,,0.00006166180268634677,0.1990728784123233,,0.00006166180268634677,0.20340763995556482,,0.00006166180268634677,1.62,,0.00006166180268634677,1.62,,0.00006166180268634677,0.9095361731930705
0.00006361492768634677,1.9784720216060443,,0.00006361492768634677,1.619159755959461,,0.00006361492768634677,1.619159755959461,,0.00006361492768634677,1.619159755959461,,0.00006361492768634677,0.892260862923057,,0.00006361492768634677,0.892260862923057,,0.00006361492768634677,0.892260862923057,,0.00006361492768634677,0.8922608487132098,,0.00006361492768634677,0.16445946185657692,,0.00006361492768634677,0.16445946185657692,,0.00006361492768634677,0.1686548659755275,,0.00006361492768634677,1.62,,0.00006361492768634677,1.62,,0.00006361492768634677,0.8922294806904325
0.00006752117768634678,1.9951435178902814,,0.00006752117768634678,1.619187877867571,,0.00006752117768634678,1.619187877867571,,0.00006752117768634678,1.619187877867571,,0.00006752117768634678,0.8590311535748562,,0.00006752117768634678,0.8590311535748562,,0.00006752117768634678,0.8590311535748562,,0.00006752117768634678,0.8590311380697676,,0.00006752117768634678,0.09790338319519595,,0.00006752117768634678,0.09790338319519595,,0.00006752117768634678,0.1019005018552214,,0.00006752117768634678,1.62,,0.00006752117768634678,1.62,,0.00006752117768634678,0.8589514658446198
0.00007533367768634678,2.0257372638056546,,0.00007533367768634678,1.6192316823696582,,0.00007533367768634678,1.6192316823696582,,0.00007533367768634678,1.6192316823696582,,0.00007533367768634678,0.7980366217828191,,0.00007533367768634678,0.7980366217828191,,0.00007533367768634678,0.7980366217828191,,0.00007533367768634678,0.7980366037023332,,0.00007533367768634678,-0.024277772827118158,,0.00007533367768634678,-0.024277772827118158,,0.00007533367768634678,-0.02074874144481361,,0.00007533367768634678,1.62,,0.00007533367768634678,1.62,,0.00007533367768634678,0.7978609364418989
0.00007557781831134678,2.026631792567634,,0.00007557781831134678,1.6192342394443608,,0.00007557781831134678,1.6192342394443608,,0.00007557781831134678,1.6192342394443608,,0.00007557781831134678,0.7962572360629607,,0.00007557781831134678,0.7962572360629607,,0.00007557781831134678,0.7962572360629607,,0.00007557781831134678,0.796257218117826,,0.00007557781831134678,-0.027826548612438745,,0.00007557781831134678,-0.027826548612438745,,0.00007557781831134678,-0.02432775290984734,,0.00007557781831134678,1.62,,0.00007557781831134678,1.62,,0.00007557781831134678,0.7960865460693689
0.00007606609956134678,2.0284093595880823,,0.00007606609956134678,1.6192360104112185,,0.00007606609956134678,1.6192360104112185,,0.00007606609956134678,1.6192360104112185,,0.00007606609956134678,0.7927114291998085,,0.00007606609956134678,0.7927114291998085,,0.00007606609956134678,0.7927114291998085,,0.00007606609956134678,0.7927114103381604,,0.00007606609956134678,-0.03498615902158757,,0.00007606609956134678,-0.03498615902158757,,0.00007606609956134678,-0.03147132027463259,,0.00007606609956134678,1.62,,0.00007606609956134678,1.62,,0.00007606609956134678,0.7925067578907927
0.00007618816987384678,2.02885135138511,,0.00007618816987384678,1.6192370693012066,,0.00007618816987384678,1.6192370693012066,,0.00007618816987384678,1.6192370693012066,,0.00007618816987384678,0.7918316285651892,,0.00007618816987384678,0.7918316285651892,,0.00007618816987384678,0.7918316285651892,,0.00007618816987384678,0.7918316103385613,,0.00007618816987384678,-0.036698714578559506,,0.00007618816987384678,-0.036698714578559506,,0.00007618816987384678,-0.033245584270523626,,0.00007618816987384678,1.62,,0.00007618816987384678,1.62,,0.00007618816987384678,0.7916504683656318
0.00007643231049884678,2.029732447741209,,0.00007643231049884678,1.619238163771481,,0.00007643231049884678,1.619238163771481,,0.00007643231049884678,1.619238163771481,,0.00007643231049884678,0.7900747350902917,,0.00007643231049884678,0.7900747350902917,,0.00007643231049884678,0.7900747350902917,,0.00007643231049884678,0.7900747110150729,,0.00007643231049884678,-0.04064599399797029,,0.00007643231049884678,-0.04064599399797029,,0.00007643231049884678,-0.0369078389598878,,0.00007643231049884678,1.62,,0.00007643231049884678,1.62,,0.00007643231049884678,0.7896769369916867
0.00007649334565509678,2.029952119566228,,0.00007649334565509678,1.6192385546496244,,0.00007649334565509678,1.6192385546496244,,0.00007649334565509678,1.6192385546496244,,0.00007649334565509678,0.7896370687060149,,0.00007649334565509678,0.7896370687060149,,0.00007649334565509678,0.7896370687060149,,0.00007649334565509678,0.789637035443278,,0.00007649334565509678,-0.042202251092410624,,0.00007649334565509678,-0.042202251092410624,,0.00007649334565509678,-0.03792795051626578,,0.00007649334565509678,1.62,,0.00007649334565509678,1.62,,0.00007649334565509678,0.7888989785936598
0.00007661541596759678,2.03039073959437,,0.00007661541596759678,1.6192391487047209,,0.00007661541596759678,1.6192391487047209,,0.00007661541596759678,1.6192391487047209,,0.00007661541596759678,0.7887626208851468,,0.00007661541596759678,0.7887626208851468,,0.00007661541596759678,0.7887626208851468,,0.00007661541596759678,0.7887625533837349,,0.00007661541596759678,-0.04648869900434978,,0.00007661541596759678,-0.04648869900434978,,0.00007661541596759678,-0.04053286453641499,,0.00007661541596759678,1.62,,0.00007661541596759678,1.62,,0.00007661541596759678,0.7867563887130266
0.0000768225615717535,2.031132839756013,,0.0000768225615717535,1.6192402277416738,,0.0000768225615717535,1.6192402277416738,,0.0000768225615717535,1.6192402277416738,,0.0000768225615717535,0.7872833741547318,,0.0000768225615717535,0.7872833741547318,,0.0000768225615717535,0.7872833741547318,,0.0000768225615717535,0.7872833325615541,,0.0000768225615717535,-0.047527082230055556,,0.0000768225615717535,-0.047527082230055556,,0.0000768225615717535,-0.044440174352006694,,0.0000768225615717535,1.62,,0.0000768225615717535,1.62,,0.0000768225615717535,0.7862367173306506
0.00007684958287196416,2.0312294384048393,,0.00007684958287196416,1.6192403489927711,,0.00007684958287196416,1.6192403489927711,,0.00007684958287196416,1.6192403489927711,,0.00007684958287196416,0.7870907647461199,,0.00007684958287196416,0.7870907647461199,,0.00007684958287196416,0.7870907647461199,,0.00007684958287196416,0.7870907393681945,,0.00007684958287196416,-0.04671054209721366,,0.00007684958287196416,-0.04671054209721366,,0.00007684958287196416,-0.04472602439967295,,0.00007684958287196416,1.62,,0.00007684958287196416,1.62,,0.00007684958287196416,0.7866446871115047
0.0000769036254723855,2.0314224934461453,,0.0000769036254723855,1.6192406276980948,,0.0000769036254723855,1.6192406276980948,,0.0000769036254723855,1.6192406276980948,,0.0000769036254723855,0.7867059392081936,,0.0000769036254723855,0.7867059392081936,,0.0000769036254723855,0.7867059392081936,,0.0000769036254723855,0.7867059727027551,,0.0000769036254723855,-0.04311697768517832,,0.0000769036254723855,-0.04311697768517832,,0.0000769036254723855,-0.04476406303409002,,0.0000769036254723855,1.62,,0.0000769036254723855,1.62,,0.0000769036254723855,0.7884403790702532
0.00007691713612249084,2.0314707275616177,,0.00007691713612249084,1.6192406944953783,,0.00007691713612249084,1.6192406944953783,,0.00007691713612249084,1.6192406944953783,,0.00007691713612249084,0.7866097835090271,,0.00007691713612249084,0.7866097835090271,,0.00007691713612249084,0.7866097835090271,,0.00007691713612249084,0.7866098420046731,,0.00007691713612249084,-0.04145638283090207,,0.00007691713612249084,-0.04145638283090207,,0.00007691713612249084,-0.044628253219926584,,0.00007691713612249084,1.62,,0.00007691713612249084,1.62,,0.00007691713612249084,0.7892702135065257
0.00007694415742270152,2.0315671602090024,,0.00007694415742270152,1.6192408312761073,,0.00007694415742270152,1.6192408312761073,,0.00007694415742270152,1.6192408312761073,,0.00007694415742270152,0.7864175528755653,,0.00007694415742270152,0.7864175528755653,,0.00007694415742270152,0.7864175528755653,,0.00007694415742270152,0.786417700747835,,0.00007694415742270152,-0.03521686823467262,,0.00007694415742270152,-0.03521686823467262,,0.00007694415742270152,-0.04395684401759532,,0.00007694415742270152,1.62,,0.00007694415742270152,1.62,,0.00007694415742270152,0.7923883156517586
0.00007698650745897054,2.031718202026395,,0.00007698650745897054,1.6192410476852306,,0.00007698650745897054,1.6192410476852306,,0.00007698650745897054,1.6192410476852306,,0.00007698650745897054,0.7861164701450725,,0.00007698650745897054,0.7861164701450725,,0.00007698650745897054,0.7861164701450725,,0.00007698650745897054,0.7861170548202341,,0.00007698650745897054,-0.0034462181375699845,,0.00007698650745897054,-0.0034462181375699845,,0.00007698650745897054,-0.03995921177631435,,0.00007698650745897054,1.62,,0.00007698650745897054,1.62,,0.00007698650745897054,0.8082655516005994
0.00007702785875069269,2.031865569296739,,0.00007702785875069269,1.619241265430718,,0.00007702785875069269,1.619241265430718,,0.00007702785875069269,1.619241265430718,,0.00007702785875069269,0.7858227323481132,,0.00007702785875069269,0.7858227323481132,,0.00007702785875069269,0.7858227323481132,,0.00007702785875069269,0.7858248133978204,,0.00007702785875069269,0.10686727449570231,,0.00007702785875069269,0.10686727449570231,,0.00007702785875069269,-0.025400775842257146,,0.00007702785875069269,1.62,,0.00007702785875069269,1.62,,0.00007702785875069269,0.8633945867276704
0.00007707790424725835,2.03204377212863,,0.00007707790424725835,1.6192415709722991,,0.00007707790424725835,1.6192415709722991,,0.00007707790424725835,1.6192415709722991,,0.00007707790424725835,0.7854676592033306,,0.00007707790424725835,0.7854676592033306,,0.00007707790424725835,0.7854676592033306,,0.00007707790424725835,0.7854782624277791,,0.00007707790424725835,0.7377620110806087,,0.00007707790424725835,0.7377620110806087,,0.00007707790424725835,0.05923925071670047,,0.00007707790424725835,1.62,,0.00007707790424725835,1.62,,0.00007707790424725835,1.1786841338181981
0.00007713032300736948,2.032230250975461,,0.00007713032300736948,1.6192420047738547,,0.00007713032300736948,1.6192420047738547,,0.00007713032300736948,1.6192420047738547,,0.00007713032300736948,0.7850964387236692,,0.00007713032300736948,0.7850964387236692,,0.00007713032300736948,0.7850964387236692,,0.00007713032300736948,0.7851359181205514,,0.00007713032300736948,2.8771225607082984,,0.00007713032300736948,2.8771225607082984,,0.00007713032300736948,0.4038628044505885,,0.00007713032300736948,1.62,,0.00007713032300736948,1.62,,0.00007713032300736948,2.2478296540083393
0.00007716660601336122,2.0323592224038616,,0.00007716660601336122,1.61924212591684,,0.00007716660601336122,1.61924212591684,,0.00007716660601336122,1.61924212591684,,0.00007716660601336122,0.7848391610676957,,0.00007716660601336122,0.7848391610676957,,0.00007716660601336122,0.7848391610676957,,0.00007716660601336122,0.7848794861773548,,0.00007716660601336122,2.939286405887013,,0.00007716660601336122,2.939286405887013,,0.00007716660601336122,0.7562693917615549,,0.00007716660601336122,1.62,,0.00007716660601336122,1.62,,0.00007716660601336122,2.2788959149405956
0.0000772021892443339,2.0324856231550683,,0.0000772021892443339,1.6192421724044768,,0.0000772021892443339,1.6192421724044768,,0.0000772021892443339,1.6192421724044768,,0.0000772021892443339,0.7845867950709199,,0.0000772021892443339,0.7845867950709199,,0.0000772021892443339,0.7845867950709199,,0.0000772021892443339,0.7846277464442821,,0.0000772021892443339,2.985196020726148,,0.0000772021892443339,2.985196020726148,,0.0000772021892443339,1.061116618322106,,0.0000772021892443339,1.62,,0.0000772021892443339,1.62,,0.0000772021892443339,2.301839124656007
0.00007724319131073396,2.032631170725843,,0.00007724319131073396,1.619242346372066,,0.00007724319131073396,1.619242346372066,,0.00007724319131073396,1.619242346372066,,0.00007724319131073396,0.7842965630698727,,0.00007724319131073396,0.7842965630698727,,0.00007724319131073396,0.7842965630698727,,0.00007724319131073396,0.7843382434003886,,0.00007724319131073396,3.0386408339843904,,0.00007724319131073396,3.0386408339843904,,0.00007724319131073396,1.3695550809689154,,0.00007724319131073396,1.62,,0.00007724319131073396,1.62,,0.00007724319131073396,2.328548031812939
