X--Trace 1::[transient: TIME],Y--Trace 1::[PR1: V(1)],,X--Trace 2::[transient: TIME],Y--Trace 2::[PR2: V(2)],,X--Trace 3::[transient: TIME],Y--Trace 3::[PR3: V(2)],,X--Trace 4::[transient: TIME],Y--Trace 4::[PR4: V(2)],,X--Trace 5::[transient: TIME],Y--Trace 5::[PR5: V(3)],,X--Trace 6::[transient: TIME],Y--Trace 6::[PR6: V(3)],,X--Trace 7::[transient: TIME],Y--Trace 7::[PR7: V(3)],,X--Trace 8::[transient: TIME],Y--Trace 8::[PR8: V(5)],,X--Trace 9::[transient: TIME],Y--Trace 9::[PR9: V(7)],,X--Trace 10::[transient: TIME],Y--Trace 10::[PR14: V(7)],,X--Trace 11::[transient: TIME],Y--Trace 11::[PR10: V(8)],,X--Trace 12::[transient: TIME],Y--Trace 12::[PR11: V(4)],,X--Trace 13::[transient: TIME],Y--Trace 13::[PR12: V(4)],,X--Trace 14::[transient: TIME],Y--Trace 14::[PR13: V(6)]
0,1.62,,0,1.6183075931279718,,0,1.6183075931279718,,0,1.6183075931279718,,0,1.6064053551665793,,0,1.6064053551665793,,0,1.6064053551665793,,0,1.6064053870293569,,0,1.596177336215334,,0,1.596177336215334,,0,1.5961773361339289,,0,1.62,,0,1.62,,0,1.6080875539438828
1e-7,1.6206283183653514,,1e-7,1.6183904253846704,,1e-7,1.6183904253846704,,1e-7,1.6183904253846704,,1e-7,1.605942702688442,,1e-7,1.605942702688442,,1e-7,1.605942702688442,,1e-7,1.6059427273755382,,1e-7,1.5947202099488735,,1e-7,1.5947202099488735,,1e-7,1.5957483911040675,,1e-7,1.62,,1e-7,1.62,,1e-7,1.6073591237031115
2e-7,1.6212566357385019,,2e-7,1.618405121905594,,2e-7,1.618405121905594,,2e-7,1.618405121905594,,2e-7,1.6053437804915411,,2e-7,1.6053437804915411,,2e-7,1.6053437804915411,,2e-7,1.605343807523121,,2e-7,1.59369611053602,,2e-7,1.59369611053602,,2e-7,1.595144246079222,,2e-7,1.62,,2e-7,1.62,,2e-7,1.6068470305884364
4e-7,1.6225132635394095,,4e-7,1.6184117918385026,,4e-7,1.6184117918385026,,4e-7,1.6184117918385026,,4e-7,1.6041004981419085,,4e-7,1.6041004981419085,,4e-7,1.6041004981419085,,4e-7,1.6041005220102609,,4e-7,1.5909750843137225,,4e-7,1.5909750843137225,,4e-7,1.5934906407005576,,4e-7,1.62,,4e-7,1.62,,4e-7,1.6054865760753918
8e-7,1.6250264635783653,,8e-7,1.618410689751882,,8e-7,1.618410689751882,,8e-7,1.618410689751882,,8e-7,1.6015851127404517,,8e-7,1.6015851127404517,,8e-7,1.6015851127404517,,8e-7,1.6015851421342895,,8e-7,1.5863537739980194,,8e-7,1.5863537739980194,,8e-7,1.589100182091649,,8e-7,1.62,,8e-7,1.62,,8e-7,1.6031758186294331
0.0000016,1.6300524191627288,,0.0000016,1.6184186628441906,,0.0000016,1.6184186628441906,,0.0000016,1.6184186628441906,,0.0000016,1.5965751713658225,,0.0000016,1.5965751713658225,,0.0000016,1.5965751713658225,,0.0000016,1.5965751933857193,,0.0000016,1.5757872852013042,,0.0000016,1.5757872852013042,,0.0000016,1.5790584092946818,,0.0000016,1.62,,0.0000016,1.62,,0.0000016,1.5978927108634116
0.0000032,1.6401007746814766,,0.0000032,1.618425930027307,,0.0000032,1.618425930027307,,0.0000032,1.618425930027307,,0.0000032,1.586541607952747,,0.0000032,1.586541607952747,,0.0000032,1.586541607952747,,0.0000032,1.5865416375813055,,0.0000032,1.5562838589904429,,0.0000032,1.5562838589904429,,0.0000032,1.5590174939862984,,0.0000032,1.62,,0.0000032,1.62,,0.0000032,1.5881408570045434
0.0000064,1.6601690500666972,,0.0000064,1.6184483092503932,,0.0000064,1.6184483092503932,,0.0000064,1.6184483092503932,,0.0000064,1.5665190926076182,,0.0000064,1.5665190926076182,,0.0000064,1.5665190926076182,,0.0000064,1.5665191124473266,,0.0000064,1.515512945115296,,0.0000064,1.515512945115296,,0.0000064,1.5188038208667016,,0.0000064,1.62,,0.0000064,1.62,,0.0000064,1.5677555816459203
0.000012479999999999999,1.698093113473714,,0.000012479999999999999,1.61848412587661,,0.000012479999999999999,1.61848412587661,,0.000012479999999999999,1.61848412587661,,0.000012479999999999999,1.5286703425329096,,0.000012479999999999999,1.5286703425329096,,0.000012479999999999999,1.5286703425329096,,0.000012479999999999999,1.528670364950422,,0.000012479999999999999,1.4400057359588412,,0.000012479999999999999,1.4400057359588412,,0.000012479999999999999,1.442980002953925,,0.000012479999999999999,1.62,,0.000012479999999999999,1.62,,0.000012479999999999999,1.530001929897352
0.000024639999999999998,1.7723556843138335,,0.000024639999999999998,1.6185549913595367,,0.000024639999999999998,1.6185549913595367,,0.000024639999999999998,1.6185549913595367,,0.000024639999999999998,1.4545637307067987,,0.000024639999999999998,1.4545637307067987,,0.000024639999999999998,1.4545637307067987,,0.000024639999999999998,1.4545637491486618,,0.000024639999999999998,1.291496380187209,,0.000024639999999999998,1.291496380187209,,0.000024639999999999998,1.2943839253651543,,0.000024639999999999998,1.62,,0.000024639999999999998,1.62,,0.000024639999999999998,1.455747326747746
0.000040264999999999995,1.8623345880280056,,0.000040264999999999995,1.6186373247416477,,0.000040264999999999995,1.6186373247416477,,0.000040264999999999995,1.6186373247416477,,0.000040264999999999995,1.3647806469510662,,0.000040264999999999995,1.3647806469510662,,0.000040264999999999995,1.3647806469510662,,0.000040264999999999995,1.3647806610252662,,0.000040264999999999995,1.1116047132111684,,0.000040264999999999995,1.1116047132111684,,0.000040264999999999995,1.1142652239221054,,0.000040264999999999995,1.62,,0.000040264999999999995,1.62,,0.000040264999999999995,1.3658015754908013
0.000055889999999999995,1.9430007094270643,,0.000055889999999999995,1.618705647342835,,0.000055889999999999995,1.618705647342835,,0.000055889999999999995,1.618705647342835,,0.000055889999999999995,1.2842958379374863,,0.000055889999999999995,1.2842958379374863,,0.000055889999999999995,1.2842958379374863,,0.000055889999999999995,1.2842958483092235,,0.000055889999999999995,0.9503590820254155,,0.000055889999999999995,0.9503590820254155,,0.000055889999999999995,0.9526569709824585,,0.000055889999999999995,1.62,,0.000055889999999999995,1.62,,0.000055889999999999995,1.285178829670677
0.000071515,2.0112540947037254,,0.000071515,1.618760623458346,,0.000071515,1.618760623458346,,0.000071515,1.618760623458346,,0.000071515,1.2162087852123766,,0.000071515,1.2162087852123766,,0.000071515,1.2162087852123766,,0.000071515,1.2162087926585616,,0.000071515,0.8139667910230848,,0.000071515,0.8139667910230848,,0.000071515,0.8158658717655797,,0.000071515,1.62,,0.000071515,1.62,,0.000071515,1.2169827393687989
0.00008714,2.0644718045387465,,0.00008714,1.6187962196163612,,0.00008714,1.6187962196163612,,0.00008714,1.6187962196163612,,0.00008714,1.1631281920724637,,0.00008714,1.1631281920724637,,0.00008714,1.1631281920724637,,0.00008714,1.1631281975826606,,0.00008714,0.7076610594439404,,0.00008714,0.7076610594439404,,0.00008714,0.7090395801718379,,0.00008714,1.62,,0.00008714,1.62,,0.00008714,1.1638299102277787
0.000102765,2.1006087121880035,,0.000102765,1.6188149668714285,,0.000102765,1.6188149668714285,,0.000102765,1.6188149668714285,,0.000102765,1.1271017115043982,,0.000102765,1.1271017115043982,,0.000102765,1.1271017115043982,,0.000102765,1.1271017160411665,,0.000102765,0.6355352328661686,,0.000102765,0.6355352328661686,,0.000102765,0.636385844913361,,0.000102765,1.62,,0.000102765,1.62,,0.000102765,1.1277670155060655
0.00011839,2.1182760965563463,,0.00011839,1.618812267431329,,0.00011839,1.618812267431329,,0.00011839,1.618812267431329,,0.00011839,1.1095060638468077,,0.00011839,1.1095060638468077,,0.00011839,1.1095060638468077,,0.00011839,1.1095060685125808,,0.00011839,0.6003531460482285,,0.00011839,0.6003531460482285,,0.00011839,0.600600486005808,,0.00011839,1.62,,0.00011839,1.62,,0.00011839,1.1101759699720566
0.000134015,2.116795009970483,,0.000134015,1.6187920808753655,,0.000134015,1.6187920808753655,,0.000134015,1.6187920808753655,,0.000134015,1.1110251492253767,,0.000134015,1.1110251492253767,,0.000134015,1.1110251492253767,,0.000134015,1.1110251550142096,,0.000134015,0.6034745807141265,,0.000134015,0.6034745807141265,,0.000134015,0.6031490467731176,,0.000134015,1.62,,0.000134015,1.62,,0.000134015,1.1117366664843826
0.00014963999999999998,2.0962223697573052,,0.00014963999999999998,1.6187513484999867,,0.00014963999999999998,1.6187513484999867,,0.00014963999999999998,1.6187513484999867,,0.00014963999999999998,1.1315929187042726,,0.00014963999999999998,1.1315929187042726,,0.00014963999999999998,1.1315929187042726,,0.00014963999999999998,1.1315929266713358,,0.00014963999999999998,0.6447719670617073,,0.00014963999999999998,0.6447719670617073,,0.00014963999999999998,0.643848768361241,,0.00014963999999999998,1.62,,0.00014963999999999998,1.62,,0.00014963999999999998,1.132385319011234
0.000165265,2.0573487709429363,,0.000165265,1.6186954488524454,,0.000165265,1.6186954488524454,,0.000165265,1.6186954488524454,,0.000165265,1.1704265884585185,,0.000165265,1.1704265884585185,,0.000165265,1.1704265884585185,,0.000165265,1.1704265994702423,,0.000165265,0.7226657336704094,,0.000165265,0.7226657336704094,,0.000165265,0.7212152062020024,,0.000165265,1.62,,0.000165265,1.62,,0.000165265,1.1713321453493462
0.00018089,2.0016681041292466,,0.00018089,1.618622738013699,,0.00018089,1.618622738013699,,0.00018089,1.618622738013699,,0.00018089,1.2260262157027704,,0.00018089,1.2260262157027704,,0.00018089,1.2260262157027704,,0.00018089,1.2260262306142808,,0.00018089,0.8341551271518948,,0.00018089,0.8341551271518948,,0.00018089,0.8322004496943431,,0.00018089,1.62,,0.00018089,1.62,,0.00018089,1.2270767690363698
0.00019651500000000003,1.9313201461158085,,0.00019651500000000003,1.618539781359262,,0.00019651500000000003,1.618539781359262,,0.00019651500000000003,1.618539781359262,,0.00019651500000000003,1.2962626777929998,,0.00019651500000000003,1.2962626777929998,,0.00019651500000000003,1.2962626777929998,,0.00019651500000000003,1.29626269720327,,0.00019651500000000003,0.9749628752434545,,0.00019651500000000003,0.9749628752434545,,0.00019651500000000003,0.9726095759605128,,0.00019651500000000003,1.62,,0.00019651500000000003,1.62,,0.00019651500000000003,1.297480558716594
0.00021214000000000004,1.8490083294774893,,0.00021214000000000004,1.6184460165792713,,0.00021214000000000004,1.6184460165792713,,0.00021214000000000004,1.6184460165792713,,0.00021214000000000004,1.3784293238927237,,0.00021214000000000004,1.3784293238927237,,0.00021214000000000004,1.3784293238927237,,0.00021214000000000004,1.3784293483346362,,0.00021214000000000004,1.139670723896764,,0.00021214000000000004,1.139670723896764,,0.00021214000000000004,1.1369808494086893,,0.00021214000000000004,1.62,,0.00021214000000000004,1.62,,0.00021214000000000004,1.3798343886303055
0.00022776500000000005,1.757895851166701,,0.00022776500000000005,1.618348776577695,,0.00022776500000000005,1.618348776577695,,0.00022776500000000005,1.618348776577695,,0.00022776500000000005,1.4693759925978154,,0.00022776500000000005,1.4693759925978154,,0.00022776500000000005,1.4693759925978154,,0.00022776500000000005,1.4693760223036598,,0.00022776500000000005,1.3219560093450802,,0.00022776500000000005,1.3219560093450802,,0.00022776500000000005,1.319059421781775,,0.00022776500000000005,1.62,,0.00022776500000000005,1.62,,0.00022776500000000005,1.4709769325080886
0.00024339000000000007,1.6614841126284605,,0.00024339000000000007,1.6182480892491942,,0.00024339000000000007,1.6182480892491942,,0.00024339000000000007,1.6182480892491942,,0.00024339000000000007,1.5656002340538533,,0.00024339000000000007,1.5656002340538533,,0.00024339000000000007,1.5656002340538533,,0.00024339000000000007,1.565600269161225,,0.00024339000000000007,1.5148067436312307,,0.00024339000000000007,1.5148067436312307,,0.00024339000000000007,1.5117900470965062,,0.00024339000000000007,1.62,,0.00024339000000000007,1.62,,0.00024339000000000007,1.567402198177462
0.0002590150000000001,1.5634781629064667,,0.0002590150000000001,1.6181515124814128,,0.0002590150000000001,1.6181515124814128,,0.0002590150000000001,1.6181515124814128,,0.0002590150000000001,1.6634115792595763,,0.0002590150000000001,1.6634115792595763,,0.0002590150000000001,1.6634115792595763,,0.0002590150000000001,1.6634116195905952,,0.0002590150000000001,1.7108185339450985,,0.0002590150000000001,1.7108185339450985,,0.0002590150000000001,1.707820696347562,,0.0002590150000000001,1.62,,0.0002590150000000001,1.62,,0.0002590150000000001,1.6654079951311354
0.0002746400000000001,1.467644315686166,,0.0002746400000000001,1.6180590894714248,,0.0002746400000000001,1.6180590894714248,,0.0002746400000000001,1.6180590894714248,,0.0002746400000000001,1.759043854273281,,0.0002746400000000001,1.759043854273281,,0.0002746400000000001,1.759043854273281,,0.0002746400000000001,1.7590438995574647,,0.0002746400000000001,1.9024520939552707,,0.0002746400000000001,1.9024520939552707,,0.0002746400000000001,1.8995668525040983,,0.0002746400000000001,1.62,,0.0002746400000000001,1.62,,0.0002746400000000001,1.761224681974544
0.0002902650000000001,1.377665411971994,,0.0002902650000000001,1.6179780199778453,,0.0002902650000000001,1.6179780199778453,,0.0002902650000000001,1.6179780199778453,,0.0002902650000000001,1.848829257961033,,0.0002902650000000001,1.848829257961033,,0.0002902650000000001,1.848829257961033,,0.0002902650000000001,1.8488293076292261,,0.0002902650000000001,2.0823496123001086,,0.0002902650000000001,2.0823496123001086,,0.0002902650000000001,2.0797078398315523,,0.0002902650000000001,1.62,,0.0002902650000000001,1.62,,0.0002902650000000001,1.8511733586132246
0.0003058900000000001,1.2969992905729355,,0.0003058900000000001,1.6179077915452258,,0.0003058900000000001,1.6179077915452258,,0.0003058900000000001,1.6179077915452258,,0.0003058900000000001,1.9293101293799668,,0.0003058900000000001,1.9293101293799668,,0.0003058900000000001,1.9293101293799668,,0.0003058900000000001,1.9293101828029977,,0.0003058900000000001,2.2435912498890134,,0.0003058900000000001,2.2435912498890134,,0.0003058900000000001,2.241275856865763,,0.0003058900000000001,1.62,,0.0003058900000000001,1.62,,0.0003058900000000001,1.931794106665019
0.00032151500000000014,1.2287459052962744,,0.00032151500000000014,1.6178547109746342,,0.00032151500000000014,1.6178547109746342,,0.00032151500000000014,1.6178547109746342,,0.00032151500000000014,1.9974008472755105,,0.00032151500000000014,1.9974008472755105,,0.00032151500000000014,1.9974008472755105,,0.00032151500000000014,1.9974009035713678,,0.00032151500000000014,2.3799869636411386,,0.00032151500000000014,2.3799869636411386,,0.00032151500000000014,2.378104242628192,,0.00032151500000000014,1.62,,0.00032151500000000014,1.62,,0.00032151500000000014,1.9999919093181922
0.00033714000000000015,1.175528195461253,,0.00033714000000000015,1.617817229995064,,0.00033714000000000015,1.617817229995064,,0.00033714000000000015,1.617817229995064,,0.00033714000000000015,2.0504775448801156,,0.00033714000000000015,2.0504775448801156,,0.00033714000000000015,2.0504775448801156,,0.00033714000000000015,2.0504776031649685,,0.00033714000000000015,2.4862888326211503,,0.00033714000000000015,2.4862888326211503,,0.00033714000000000015,2.484895040831917,,0.00033714000000000015,1.62,,0.00033714000000000015,1.62,,0.00033714000000000015,2.0531428061780637
0.00035276500000000016,1.1393912878119965,,0.00035276500000000016,1.6178003574059896,,0.00035276500000000016,1.6178003574059896,,0.00035276500000000016,1.6178003574059896,,0.00035276500000000016,2.086507648900524,,0.00035276500000000016,2.086507648900524,,0.00035276500000000016,2.086507648900524,,0.00035276500000000016,2.0865077081055285,,0.00035276500000000016,2.5584179576415718,,0.00035276500000000016,2.5584179576415718,,0.00035276500000000016,2.557581608964813,,0.00035276500000000016,1.62,,0.00035276500000000016,1.62,,0.00035276500000000016,2.08920735110764
0.0003683900000000002,1.121723903443654,,0.0003683900000000002,1.6178011927731957,,0.0003683900000000002,1.6178011927731957,,0.0003683900000000002,1.6178011927731957,,0.0003683900000000002,2.104099442559714,,0.0003683900000000002,2.104099442559714,,0.0003683900000000002,2.104099442559714,,0.0003683900000000002,2.1040995016891966,,0.0003683900000000002,2.593596300177395,,0.0003683900000000002,2.593596300177395,,0.0003683900000000002,2.5933356571855675,,0.0003683900000000002,1.62,,0.0003683900000000002,1.62,,0.0003683900000000002,2.106796523510288
0.0003840150000000002,1.1232049900295173,,0.0003840150000000002,1.6178232333757576,,0.0003840150000000002,1.6178232333757576,,0.0003840150000000002,1.6178232333757576,,0.0003840150000000002,2.102583939434434,,0.0003840150000000002,2.102583939434434,,0.0003840150000000002,2.102583939434434,,0.0003840150000000002,2.102583997387175,,0.0003840150000000002,2.590478051584658,,0.0003840150000000002,2.590478051584658,,0.0003840150000000002,2.5908160013835495,,0.0003840150000000002,1.62,,0.0003840150000000002,1.62,,0.0003840150000000002,2.105237421028551
0.0003996400000000002,1.1437776302426954,,0.0003996400000000002,1.6178621221690472,,0.0003996400000000002,1.6178621221690472,,0.0003996400000000002,1.6178621221690472,,0.0003996400000000002,2.0820123569783995,,0.0003996400000000002,2.0820123569783995,,0.0003996400000000002,2.0820123569783995,,0.0003996400000000002,2.082012412806731,,0.0003996400000000002,2.5491770280324704,,0.0003996400000000002,2.5491770280324704,,0.0003996400000000002,2.550088658029252,,0.0003996400000000002,1.62,,0.0003996400000000002,1.62,,0.0003996400000000002,2.084586948902693
0.0004152650000000002,1.1826512290570645,,0.0004152650000000002,1.617919855499987,,0.0004152650000000002,1.617919855499987,,0.0004152650000000002,1.617919855499987,,0.0004152650000000002,2.0431822287904198,,0.0004152650000000002,2.0431822287904198,,0.0004152650000000002,2.0431822287904198,,0.0004152650000000002,2.043182281520134,,0.0004152650000000002,2.471286345711307,,0.0004152650000000002,2.471286345711307,,0.0004152650000000002,2.472747660993027,,0.0004152650000000002,1.62,,0.0004152650000000002,1.62,,0.0004152650000000002,2.0456416657075254
0.00043089000000000023,1.2383318958707545,,0.00043089000000000023,1.6179907429929046,,0.00043089000000000023,1.6179907429929046,,0.00043089000000000023,1.6179907429929046,,0.00043089000000000023,1.9875788290810723,,0.00043089000000000023,1.9875788290810723,,0.00043089000000000023,1.9875788290810723,,0.00043089000000000023,1.9875788779650376,,0.00043089000000000023,2.359793412132862,,0.00043089000000000023,2.359793412132862,,0.00043089000000000023,2.361738049112458,,0.00043089000000000023,1.62,,0.00043089000000000023,1.62,,0.00043089000000000023,1.9898952709713609
0.00044651500000000025,1.308679853884193,,0.00044651500000000025,1.6180755132204416,,0.00044651500000000025,1.6180755132204416,,0.00044651500000000025,1.6180755132204416,,0.00044651500000000025,1.917345868376494,,0.00044651500000000025,1.917345868376494,,0.00044651500000000025,1.917345868376494,,0.00044651500000000025,1.9173459127075805,,0.00044651500000000025,2.218988655935484,,0.00044651500000000025,2.218988655935484,,0.00044651500000000025,2.221351308541648,,0.00044651500000000025,1.62,,0.00044651500000000025,1.62,,0.00044651500000000025,1.9194929782404366
0.00046214000000000026,1.390991670522512,,0.00046214000000000026,1.6181674746395946,,0.00046214000000000026,1.6181674746395946,,0.00046214000000000026,1.6181674746395946,,0.00046214000000000026,1.835175489821141,,0.00046214000000000026,1.835175489821141,,0.00046214000000000026,1.835175489821141,,0.00046214000000000026,1.8351755291747343,,0.00046214000000000026,2.0542773554452403,,0.00046214000000000026,2.0542773554452403,,0.00046214000000000026,2.056958535913549,,0.00046214000000000026,1.62,,0.00046214000000000026,1.62,,0.00046214000000000026,1.837137421405449
0.0004777650000000003,1.4821041488333004,,0.0004777650000000003,1.618266508353623,,0.0004777650000000003,1.618266508353623,,0.0004777650000000003,1.618266508353623,,0.0004777650000000003,1.7442322828198384,,0.0004777650000000003,1.7442322828198384,,0.0004777650000000003,1.7442322828198384,,0.0004777650000000003,1.744232316855317,,0.0004777650000000003,1.8719949778342786,,0.0004777650000000003,1.8719949778342786,,0.0004777650000000003,1.8748996549282828,,0.0004777650000000003,1.62,,0.0004777650000000003,1.62,,0.0004777650000000003,1.7459963324497745
