X--Trace 1::[transient: TIME],Y--Trace 1::[PR1: V(1)],,X--Trace 2::[transient: TIME],Y--Trace 2::[PR2: V(2)],,X--Trace 3::[transient: TIME],Y--Trace 3::[PR3: V(2)],,X--Trace 4::[transient: TIME],Y--Trace 4::[PR4: V(2)],,X--Trace 5::[transient: TIME],Y--Trace 5::[PR5: V(3)],,X--Trace 6::[transient: TIME],Y--Trace 6::[PR6: V(3)],,X--Trace 7::[transient: TIME],Y--Trace 7::[PR7: V(3)],,X--Trace 8::[transient: TIME],Y--Trace 8::[PR8: V(5)],,X--Trace 9::[transient: TIME],Y--Trace 9::[PR9: V(7)],,X--Trace 10::[transient: TIME],Y--Trace 10::[PR14: V(7)],,X--Trace 11::[transient: TIME],Y--Trace 11::[PR10: V(8)],,X--Trace 12::[transient: TIME],Y--Trace 12::[PR11: V(4)],,X--Trace 13::[transient: TIME],Y--Trace 13::[PR12: V(4)],,X--Trace 14::[transient: TIME],Y--Trace 14::[PR13: V(6)]
0,1.62,,0,1.6183075931279718,,0,1.6183075931279718,,0,1.6183075931279718,,0,1.6064053551665798,,0,1.6064053551665798,,0,1.6064053551665798,,0,1.6064054731768829,,0,1.5961775088559274,,0,1.5961775088559274,,0,1.5961775087745222,,0,1.62,,0,1.62,,0,1.6080876402641362
1e-7,1.6206283183653514,,1e-7,1.6183904253846695,,1e-7,1.6183904253846695,,1e-7,1.6183904253846695,,1e-7,1.6059427026884374,,1e-7,1.6059427026884374,,1e-7,1.6059427026884374,,1e-7,1.60594279412103,,1e-7,1.5947203214837506,,1e-7,1.5947203214837506,,1e-7,1.5957485457565195,,1e-7,1.62,,1e-7,1.62,,1e-7,1.6073591794760358
2e-7,1.6212566357385019,,2e-7,1.6184051219055964,,2e-7,1.6184051219055964,,2e-7,1.6184051219055964,,2e-7,1.605343780491543,,2e-7,1.605343780491543,,2e-7,1.605343780491543,,2e-7,1.6053438806095794,,2e-7,1.59369627819736,,2e-7,1.59369627819736,,2e-7,1.5951444045611964,,2e-7,1.62,,2e-7,1.62,,2e-7,1.6068471144137353
4e-7,1.6225132635394095,,4e-7,1.618411791838497,,4e-7,1.618411791838497,,4e-7,1.618411791838497,,4e-7,1.604100498141893,,4e-7,1.604100498141893,,4e-7,1.604100498141893,,4e-7,1.6041005865404256,,4e-7,1.5909751578842573,,4e-7,1.5909751578842573,,4e-7,1.5934907768887216,,4e-7,1.62,,4e-7,1.62,,4e-7,1.6054866128745258
8e-7,1.6250264635783653,,8e-7,1.6184106897518904,,8e-7,1.6184106897518904,,8e-7,1.6184106897518904,,8e-7,1.6015851127404654,,8e-7,1.6015851127404654,,8e-7,1.6015851127404654,,8e-7,1.6015852216109574,,8e-7,1.5863540215524616,,8e-7,1.5863540215524616,,8e-7,1.5891003404534079,,8e-7,1.62,,8e-7,1.62,,8e-7,1.603175942384516
0.0000016,1.6300524191627288,,0.0000016,1.61841866284418,,0.0000016,1.61841866284418,,0.0000016,1.61841866284418,,0.0000016,1.5965751713657983,,0.0000016,1.5965751713657983,,0.0000016,1.5965751713657983,,0.0000016,1.5965752529154607,,0.0000016,1.5757872940081903,,0.0000016,1.5757872940081903,,0.0000016,1.5790585299123796,,0.0000016,1.62,,0.0000016,1.62,,0.0000016,1.5978927152944074
0.0000032,1.6401007746814766,,0.0000032,1.6184259300273187,,0.0000032,1.6184259300273187,,0.0000032,1.6184259300273187,,0.0000032,1.5865416079527632,,0.0000032,1.5865416079527632,,0.0000032,1.5865416079527632,,0.0000032,1.5865417176943426,,0.0000032,1.5562841428528131,,0.0000032,1.5562841428528131,,0.0000032,1.5590176541799203,,0.0000032,1.62,,0.0000032,1.62,,0.0000032,1.5881409989048316
0.0000064,1.6601690500666972,,0.0000064,1.6184483092503799,,0.0000064,1.6184483092503799,,0.0000064,1.6184483092503799,,0.0000064,1.5665190926076125,,0.0000064,1.5665190926076125,,0.0000064,1.5665190926076125,,0.0000064,1.5665191660815052,,0.0000064,1.5155129221611068,,0.0000064,1.5155129221611068,,0.0000064,1.5188039293309652,,0.0000064,1.62,,0.0000064,1.62,,0.0000064,1.5677555702013506
0.000012479999999999999,1.698093113473714,,0.000012479999999999999,1.6184841258766103,,0.000012479999999999999,1.6184841258766103,,0.000012479999999999999,1.6184841258766103,,0.000012479999999999999,1.5286703425329682,,0.000012479999999999999,1.5286703425329682,,0.000012479999999999999,1.5286703425329682,,0.000012479999999999999,1.5286704255609973,,0.000012479999999999999,1.4400058612752804,,0.000012479999999999999,1.4400058612752804,,0.000012479999999999999,1.4429801248548697,,0.000012479999999999999,1.62,,0.000012479999999999999,1.62,,0.000012479999999999999,1.5300019925545236
0.000024639999999999998,1.7723556843138335,,0.000024639999999999998,1.6185549913595367,,0.000024639999999999998,1.6185549913595367,,0.000024639999999999998,1.6185549913595367,,0.000024639999999999998,1.4545637307068549,,0.000024639999999999998,1.4545637307068549,,0.000024639999999999998,1.4545637307068549,,0.000024639999999999998,1.4545637990099753,,0.000024639999999999998,1.2914964783951348,,0.000024639999999999998,1.2914964783951348,,0.000024639999999999998,1.2943840255994736,,0.000024639999999999998,1.62,,0.000024639999999999998,1.62,,0.000024639999999999998,1.455747375852062
0.000040264999999999995,1.8623345880280056,,0.000040264999999999995,1.6186373247416481,,0.000040264999999999995,1.6186373247416481,,0.000040264999999999995,1.6186373247416481,,0.000040264999999999995,1.3647806469510668,,0.000040264999999999995,1.3647806469510668,,0.000040264999999999995,1.3647806469510668,,0.000040264999999999995,1.3647806990777638,,0.000040264999999999995,1.111604789939342,,0.000040264999999999995,1.111604789939342,,0.000040264999999999995,1.1142653004891565,,0.000040264999999999995,1.62,,0.000040264999999999995,1.62,,0.000040264999999999995,1.365801613854744
0.000055889999999999995,1.9430007094270643,,0.000055889999999999995,1.618705647342835,,0.000055889999999999995,1.618705647342835,,0.000055889999999999995,1.618705647342835,,0.000055889999999999995,1.2842958379373723,,0.000055889999999999995,1.2842958379373723,,0.000055889999999999995,1.2842958379373723,,0.000055889999999999995,1.2842958763511905,,0.000055889999999999995,0.9503591376641995,,0.000055889999999999995,0.9503591376641995,,0.000055889999999999995,0.9526570274005669,,0.000055889999999999995,1.62,,0.000055889999999999995,1.62,,0.000055889999999999995,1.2851788574901506
0.000071515,2.0112540947037254,,0.000071515,1.6187606234583465,,0.000071515,1.6187606234583465,,0.000071515,1.6187606234583465,,0.000071515,1.21620878521215,,0.000071515,1.21620878521215,,0.000071515,1.21620878521215,,0.000071515,1.2162088127906412,,0.000071515,0.8139668318659824,,0.000071515,0.8139668318659824,,0.000071515,0.815865912315999,,0.000071515,1.62,,0.000071515,1.62,,0.000071515,1.2169827597900769
0.00008714,2.0644718045387465,,0.00008714,1.6187962196163612,,0.00008714,1.6187962196163612,,0.00008714,1.6187962196163612,,0.00008714,1.163128192072236,,0.00008714,1.163128192072236,,0.00008714,1.163128192072236,,0.00008714,1.1631282124803481,,0.00008714,0.7076610887531658,,0.00008714,0.7076610887531658,,0.00008714,0.7090396100994658,,0.00008714,1.62,,0.00008714,1.62,,0.00008714,1.1638299248825192
0.000102765,2.1006087121880035,,0.000102765,1.6188149668714291,,0.000102765,1.6188149668714291,,0.000102765,1.6188149668714291,,0.000102765,1.1271017115040576,,0.000102765,1.1271017115040576,,0.000102765,1.1271017115040576,,0.000102765,1.1271017283069313,,0.000102765,0.6355352579763598,,0.000102765,0.6355352579763598,,0.000102765,0.6363858695669651,,0.000102765,1.62,,0.000102765,1.62,,0.000102765,1.1277670280610634
0.00011839,2.1182760965563463,,0.00011839,1.6188122674313294,,0.00011839,1.6188122674313294,,0.00011839,1.6188122674313294,,0.00011839,1.109506063846353,,0.00011839,1.109506063846353,,0.00011839,1.109506063846353,,0.00011839,1.109506081126969,,0.00011839,0.6003531707958496,,0.00011839,0.6003531707958496,,0.00011839,0.6006005111936255,,0.00011839,1.62,,0.00011839,1.62,,0.00011839,1.1101759823460007
0.000134015,2.116795009970483,,0.000134015,1.6187920808753666,,0.000134015,1.6187920808753666,,0.000134015,1.6187920808753666,,0.000134015,1.1110251492246952,,0.000134015,1.1110251492246952,,0.000134015,1.1110251492246952,,0.000134015,1.1110251706648484,,0.000134015,0.6034746126401209,,0.000134015,0.6034746126401209,,0.000134015,0.6031490780714357,,0.000134015,1.62,,0.000134015,1.62,,0.000134015,1.1117366824472623
0.00014963999999999998,2.0962223697573052,,0.00014963999999999998,1.6187513484999878,,0.00014963999999999998,1.6187513484999878,,0.00014963999999999998,1.6187513484999878,,0.00014963999999999998,1.1315929187032492,,0.00014963999999999998,1.1315929187032492,,0.00014963999999999998,1.1315929187032492,,0.00014963999999999998,1.1315929482108686,,0.00014963999999999998,0.6447720097083273,,0.00014963999999999998,0.6447720097083273,,0.00014963999999999998,0.6438488112790336,,0.00014963999999999998,1.62,,0.00014963999999999998,1.62,,0.00014963999999999998,1.1323853403346982
0.000165265,2.0573487709429363,,0.000165265,1.618695448852447,,0.000165265,1.618695448852447,,0.000165265,1.618695448852447,,0.000165265,1.1704265884573821,,0.000165265,1.1704265884573821,,0.000165265,1.1704265884573821,,0.000165265,1.170426629241579,,0.000165265,0.7226657939242241,,0.000165265,0.7226657939242241,,0.000165265,0.7212152656766536,,0.000165265,1.62,,0.000165265,1.62,,0.000165265,1.1713321754761101
0.00018089,2.0016681041292466,,0.00018089,1.6186227380137008,,0.00018089,1.6186227380137008,,0.00018089,1.6186227380137008,,0.00018089,1.2260262157014061,,0.00018089,1.2260262157014061,,0.00018089,1.2260262157014061,,0.00018089,1.2260262709292047,,0.00018089,0.8341552074330503,,0.00018089,0.8341552074330503,,0.00018089,0.8322005301120942,,0.00018089,1.62,,0.00018089,1.62,,0.00018089,1.2270768091770519
0.00019651500000000003,1.9313201461158085,,0.00019651500000000003,1.6185397813592637,,0.00019651500000000003,1.6185397813592637,,0.00019651500000000003,1.6185397813592637,,0.00019651500000000003,1.2962626777914086,,0.00019651500000000003,1.2962626777914086,,0.00019651500000000003,1.2962626777914086,,0.00019651500000000003,1.2962627496813386,,0.00019651500000000003,0.9749629810258638,,0.00019651500000000003,0.9749629810258638,,0.00019651500000000003,0.9726096808553308,,0.00019651500000000003,1.62,,0.00019651500000000003,1.62,,0.00019651500000000003,1.297480611607594
0.00021214000000000004,1.8490083294774893,,0.00021214000000000004,1.6184460165792731,,0.00021214000000000004,1.6184460165792731,,0.00021214000000000004,1.6184460165792731,,0.00021214000000000004,1.3784293238911318,,0.00021214000000000004,1.3784293238911318,,0.00021214000000000004,1.3784293238911318,,0.00021214000000000004,1.37842941441672,,0.00021214000000000004,1.139670855816704,,0.00021214000000000004,1.139670855816704,,0.00021214000000000004,1.1369809813853071,,0.00021214000000000004,1.62,,0.00021214000000000004,1.62,,0.00021214000000000004,1.3798344545903385
0.00022776500000000005,1.757895851166701,,0.00022776500000000005,1.6183487765776967,,0.00022776500000000005,1.6183487765776967,,0.00022776500000000005,1.6183487765776967,,0.00022776500000000005,1.4693759925962242,,0.00022776500000000005,1.4693759925962242,,0.00022776500000000005,1.4693759925962242,,0.00022776500000000005,1.4693761026179162,,0.00022776500000000005,1.3219561709275551,,0.00022776500000000005,1.3219561709275551,,0.00022776500000000005,1.319059582427944,,0.00022776500000000005,1.62,,0.00022776500000000005,1.62,,0.00022776500000000005,1.4709770132990732
0.00024339000000000007,1.6614841126284605,,0.00024339000000000007,1.6182480892491962,,0.00024339000000000007,1.6182480892491962,,0.00024339000000000007,1.6182480892491962,,0.00024339000000000007,1.5656002340521482,,0.00024339000000000007,1.5656002340521482,,0.00024339000000000007,1.5656002340521482,,0.00024339000000000007,1.5656003640794427,,0.00024339000000000007,1.5148069333311132,,0.00024339000000000007,1.5148069333311132,,0.00024339000000000007,1.5117902368399436,,0.00024339000000000007,1.62,,0.00024339000000000007,1.62,,0.00024339000000000007,1.5674022930275036
0.0002590150000000001,1.5634781629064667,,0.0002590150000000001,1.618151512481415,,0.0002590150000000001,1.618151512481415,,0.0002590150000000001,1.618151512481415,,0.0002590150000000001,1.663411579257531,,0.0002590150000000001,1.663411579257531,,0.0002590150000000001,1.663411579257531,,0.0002590150000000001,1.6634117286317271,,0.0002590150000000001,1.710818753103651,,0.0002590150000000001,1.710818753103651,,0.0002590150000000001,1.7078209145882188,,0.0002590150000000001,1.62,,0.0002590150000000001,1.62,,0.0002590150000000001,1.665408104710106
0.0002746400000000001,1.467644315686166,,0.0002746400000000001,1.618059089471428,,0.0002746400000000001,1.618059089471428,,0.0002746400000000001,1.618059089471428,,0.0002746400000000001,1.75904385427078,,0.0002746400000000001,1.75904385427078,,0.0002746400000000001,1.75904385427078,,0.0002746400000000001,1.759044021989976,,0.0002746400000000001,1.9024523387769796,,0.0002746400000000001,1.9024523387769796,,0.0002746400000000001,1.8995670974251069,,0.0002746400000000001,1.62,,0.0002746400000000001,1.62,,0.0002746400000000001,1.7612248043854914
0.0002902650000000001,1.377665411971994,,0.0002902650000000001,1.6179780199778484,,0.0002902650000000001,1.6179780199778484,,0.0002902650000000001,1.6179780199778484,,0.0002902650000000001,1.8488292579581915,,0.0002902650000000001,1.8488292579581915,,0.0002902650000000001,1.8488292579581915,,0.0002902650000000001,1.8488294419145193,,0.0002902650000000001,2.0823498820466733,,0.0002902650000000001,2.0823498820466733,,0.0002902650000000001,2.0797081087427594,,0.0002902650000000001,1.62,,0.0002902650000000001,1.62,,0.0002902650000000001,1.8511734934862285
0.0003058900000000001,1.2969992905729355,,0.0003058900000000001,1.617907791545229,,0.0003058900000000001,1.617907791545229,,0.0003058900000000001,1.617907791545229,,0.0003058900000000001,1.929310129377011,,0.0003058900000000001,1.929310129377011,,0.0003058900000000001,1.929310129377011,,0.0003058900000000001,1.929310327240088,,0.0003058900000000001,2.2435915387831096,,0.0003058900000000001,2.2435915387831096,,0.0003058900000000001,2.2412761459754935,,0.0003058900000000001,1.62,,0.0003058900000000001,1.62,,0.0003058900000000001,1.9317942511120485
0.00032151500000000014,1.2287459052962744,,0.00032151500000000014,1.6178547109746375,,0.00032151500000000014,1.6178547109746375,,0.00032151500000000014,1.6178547109746375,,0.00032151500000000014,1.9974008472724416,,0.00032151500000000014,1.9974008472724416,,0.00032151500000000014,1.9974008472724416,,0.00032151500000000014,1.9974010557756774,,0.00032151500000000014,2.3799872692895403,,0.00032151500000000014,2.3799872692895403,,0.00032151500000000014,2.3781045475750515,,0.00032151500000000014,1.62,,0.00032151500000000014,1.62,,0.00032151500000000014,1.9999920621420144
0.00033714000000000015,1.175528195461253,,0.00033714000000000015,1.6178172299950677,,0.00033714000000000015,1.6178172299950677,,0.00033714000000000015,1.6178172299950677,,0.00033714000000000015,2.0504775448768187,,0.00033714000000000015,2.0504775448768187,,0.00033714000000000015,2.0504775448768187,,0.00033714000000000015,2.0504777607466442,,0.00033714000000000015,2.486289147826092,,0.00033714000000000015,2.486289147826092,,0.00033714000000000015,2.484895356412152,,0.00033714000000000015,1.62,,0.00033714000000000015,1.62,,0.00033714000000000015,2.053142963780504
0.00035276500000000016,1.1393912878119965,,0.00035276500000000016,1.6178003574059936,,0.00035276500000000016,1.6178003574059936,,0.00035276500000000016,1.6178003574059936,,0.00035276500000000016,2.0865076488970007,,0.00035276500000000016,2.0865076488970007,,0.00035276500000000016,2.0865076488970007,,0.00035276500000000016,2.086507868174856,,0.00035276500000000016,2.55841827903924,,0.00035276500000000016,2.55841827903924,,0.00035276500000000016,2.5575819298251843,,0.00035276500000000016,1.62,,0.00035276500000000016,1.62,,0.00035276500000000016,2.0892075118061437
0.0003683900000000002,1.121723903443654,,0.0003683900000000002,1.6178011927732001,,0.0003683900000000002,1.6178011927732001,,0.0003683900000000002,1.6178011927732001,,0.0003683900000000002,2.1040994425558486,,0.0003683900000000002,2.1040994425558486,,0.0003683900000000002,2.1040994425558486,,0.0003683900000000002,2.104099661553932,,0.0003683900000000002,2.593596619923791,,0.0003683900000000002,2.593596619923791,,0.0003683900000000002,2.5933359774864266,,0.0003683900000000002,1.62,,0.0003683900000000002,1.62,,0.0003683900000000002,2.106796683383509
0.0003840150000000002,1.1232049900295173,,0.0003840150000000002,1.617823233375762,,0.0003840150000000002,1.617823233375762,,0.0003840150000000002,1.617823233375762,,0.0003840150000000002,2.1025839394302284,,0.0003840150000000002,2.1025839394302284,,0.0003840150000000002,2.1025839394302284,,0.0003840150000000002,2.10258415407007,,0.0003840150000000002,2.5904783661830058,,0.0003840150000000002,2.5904783661830058,,0.0003840150000000002,2.590816315613693,,0.0003840150000000002,1.62,,0.0003840150000000002,1.62,,0.0003840150000000002,2.1052375783274635
0.0003996400000000002,1.1437776302426954,,0.0003996400000000002,1.6178621221690512,,0.0003996400000000002,1.6178621221690512,,0.0003996400000000002,1.6178621221690512,,0.0003996400000000002,2.0820123569739653,,0.0003996400000000002,2.0820123569739653,,0.0003996400000000002,2.0820123569739653,,0.0003996400000000002,2.0820125637455598,,0.0003996400000000002,2.5491773298582427,,0.0003996400000000002,2.5491773298582427,,0.0003996400000000002,2.5500889605815242,,0.0003996400000000002,1.62,,0.0003996400000000002,1.62,,0.0003996400000000002,2.084587099815698
0.0004152650000000002,1.1826512290570645,,0.0004152650000000002,1.6179198554999918,,0.0004152650000000002,1.6179198554999918,,0.0004152650000000002,1.6179198554999918,,0.0004152650000000002,2.043182228785873,,0.0004152650000000002,2.043182228785873,,0.0004152650000000002,2.043182228785873,,0.0004152650000000002,2.043182424081168,,0.0004152650000000002,2.471286631999458,,0.0004152650000000002,2.471286631999458,,0.0004152650000000002,2.47274794706046,,0.0004152650000000002,1.62,,0.0004152650000000002,1.62,,0.0004152650000000002,2.045641808851404
0.00043089000000000023,1.2383318958707545,,0.00043089000000000023,1.6179907429929095,,0.00043089000000000023,1.6179907429929095,,0.00043089000000000023,1.6179907429929095,,0.00043089000000000023,1.9875788290764111,,0.00043089000000000023,1.9875788290764111,,0.00043089000000000023,1.9875788290764111,,0.00043089000000000023,1.9875790101281252,,0.00043089000000000023,2.3597936763034135,,0.00043089000000000023,2.3597936763034135,,0.00043089000000000023,2.36173831414899,,0.00043089000000000023,1.62,,0.00043089000000000023,1.62,,0.00043089000000000023,1.989895403056699
0.00044651500000000025,1.308679853884193,,0.00044651500000000025,1.6180755132204474,,0.00044651500000000025,1.6180755132204474,,0.00044651500000000025,1.6180755132204474,,0.00044651500000000025,1.917345868371606,,0.00044651500000000025,1.917345868371606,,0.00044651500000000025,1.917345868371606,,0.00044651500000000025,1.917346032560867,,0.00044651500000000025,2.218988896713566,,0.00044651500000000025,2.218988896713566,,0.00044651500000000025,2.22135154920166,,0.00044651500000000025,1.62,,0.00044651500000000025,1.62,,0.00044651500000000025,1.919493098629244
0.00046214000000000026,1.390991670522512,,0.00046214000000000026,1.6181674746396,,0.00046214000000000026,1.6181674746396,,0.00046214000000000026,1.6181674746396,,0.00046214000000000026,1.8351754898161388,,0.00046214000000000026,1.8351754898161388,,0.00046214000000000026,1.8351754898161388,,0.00046214000000000026,1.8351756355701723,,0.00046214000000000026,2.054277567955297,,0.00046214000000000026,2.054277567955297,,0.00046214000000000026,2.0569587493761357,,0.00046214000000000026,1.62,,0.00046214000000000026,1.62,,0.00046214000000000026,1.8371375276606763
0.0004777650000000003,1.4821041488333004,,0.0004777650000000003,1.6182665083536283,,0.0004777650000000003,1.6182665083536283,,0.0004777650000000003,1.6182665083536283,,0.0004777650000000003,1.7442322828148369,,0.0004777650000000003,1.7442322828148369,,0.0004777650000000003,1.7442322828148369,,0.0004777650000000003,1.7442324088722123,,0.0004777650000000003,1.871995162832757,,0.0004777650000000003,1.871995162832757,,0.0004777650000000003,1.8748998398499133,,0.0004777650000000003,1.62,,0.0004777650000000003,1.62,,0.0004777650000000003,1.7459964249487545
