X--Trace 1::[transient: TIME],Y--Trace 1::[PR1: V(1)],,X--Trace 2::[transient: TIME],Y--Trace 2::[PR2: V(2)],,X--Trace 3::[transient: TIME],Y--Trace 3::[PR3: V(2)],,X--Trace 4::[transient: TIME],Y--Trace 4::[PR4: V(2)],,X--Trace 5::[transient: TIME],Y--Trace 5::[PR5: V(3)],,X--Trace 6::[transient: TIME],Y--Trace 6::[PR6: V(3)],,X--Trace 7::[transient: TIME],Y--Trace 7::[PR7: V(3)],,X--Trace 8::[transient: TIME],Y--Trace 8::[PR8: V(5)],,X--Trace 9::[transient: TIME],Y--Trace 9::[PR9: V(7)],,X--Trace 10::[transient: TIME],Y--Trace 10::[PR14: V(7)],,X--Trace 11::[transient: TIME],Y--Trace 11::[PR10: V(8)],,X--Trace 12::[transient: TIME],Y--Trace 12::[PR11: V(4)],,X--Trace 13::[transient: TIME],Y--Trace 13::[PR12: V(4)],,X--Trace 14::[transient: TIME],Y--Trace 14::[PR13: V(6)]
0,1.62,,0,1.6183075931279718,,0,1.6183075931279718,,0,1.6183075931279718,,0,1.6064053551665793,,0,1.6064053551665793,,0,1.6064053551665793,,0,1.6064053870293569,,0,1.596177336215334,,0,1.596177336215334,,0,1.5961773361339289,,0,1.62,,0,1.62,,0,1.6080875539438828
1e-7,1.6206283183653514,,1e-7,1.6183430576081814,,1e-7,1.6183430576081814,,1e-7,1.6183430576081814,,1e-7,1.6062432018691657,,1e-7,1.6062432018691657,,1e-7,1.6062432018691657,,1e-7,1.6062432312169659,,1e-7,1.595666633603961,,1e-7,1.595666633603961,,1e-7,1.5960269968312013,,1e-7,1.62,,1e-7,1.62,,1e-7,1.6078322492150892
2e-7,1.6212566357385019,,2e-7,1.6183421366255022,,2e-7,1.6183421366255022,,2e-7,1.6183421366255022,,2e-7,1.6060325350188118,,2e-7,1.6060325350188118,,2e-7,1.6060325350188118,,2e-7,1.6060325651766436,,2e-7,1.5953053296541257,,2e-7,1.5953053296541257,,2e-7,1.595814554305896,,2e-7,1.62,,2e-7,1.62,,2e-7,1.6076515822424438
4e-7,1.6225132635394095,,4e-7,1.6183411930565361,,4e-7,1.6183411930565361,,4e-7,1.6183411930565361,,4e-7,1.6056124016316755,,4e-7,1.6056124016316755,,4e-7,1.6056124016316755,,4e-7,1.6056124309609667,,4e-7,1.5944036487387168,,4e-7,1.5944036487387168,,4e-7,1.5952493113321853,,4e-7,1.62,,4e-7,1.62,,4e-7,1.6072007571346936
8e-7,1.6250264635783653,,8e-7,1.6183430045932248,,8e-7,1.6183430045932248,,8e-7,1.6183430045932248,,8e-7,1.6047770857878472,,8e-7,1.6047770857878472,,8e-7,1.6047770857878472,,8e-7,1.6047771166583793,,8e-7,1.5928472264327442,,8e-7,1.5928472264327442,,8e-7,1.5937720551777388,,8e-7,1.62,,8e-7,1.62,,8e-7,1.6064225174521796
0.0000016,1.6300524191627288,,0.0000016,1.6183438574519189,,0.0000016,1.6183438574519189,,0.0000016,1.6183438574519189,,0.0000016,1.6031029120301967,,0.0000016,1.6031029120301967,,0.0000016,1.6031029120301967,,0.0000016,1.6031029408023172,,0.0000016,1.589343325588501,,0.0000016,1.589343325588501,,0.0000016,1.5904245119564626,,0.0000016,1.62,,0.0000016,1.62,,0.0000016,1.6046706059154159
0.0000032,1.6401007746814766,,0.0000032,1.618347925460096,,0.0000032,1.618347925460096,,0.0000032,1.618347925460096,,0.0000032,1.5997589129787173,,0.0000032,1.5997589129787173,,0.0000032,1.5997589129787173,,0.0000032,1.599758943886066,,0.0000032,1.5828135089129884,,0.0000032,1.5828135089129884,,0.0000032,1.583736282987862,,0.0000032,1.62,,0.0000032,1.62,,0.0000032,1.6014056580857785
0.0000064,1.6601690500666972,,0.0000064,1.6183538228470464,,0.0000064,1.6183538228470464,,0.0000064,1.6183538228470464,,0.0000064,1.5930774626409823,,0.0000064,1.5930774626409823,,0.0000064,1.5930774626409823,,0.0000064,1.5930774907093668,,0.0000064,1.569240069946042,,0.0000064,1.569240069946042,,0.0000064,1.5703262815506274,,0.0000064,1.62,,0.0000064,1.62,,0.0000064,1.5946189912769708
0.000012479999999999999,1.698093113473714,,0.000012479999999999999,1.618366528694274,,0.000012479999999999999,1.618366528694274,,0.000012479999999999999,1.618366528694274,,0.000012479999999999999,1.580453458944763,,0.000012479999999999999,1.580453458944763,,0.000012479999999999999,1.580453458944763,,0.000012479999999999999,1.5804534876510594,,0.000012479999999999999,1.5440390873441991,,0.000012479999999999999,1.5440390873441991,,0.000012479999999999999,1.5450315553870613,,0.000012479999999999999,1.62,,0.000012479999999999999,1.62,,0.000012479999999999999,1.5820184883519963
0.000024639999999999998,1.7723556843138335,,0.000024639999999999998,1.618390186837805,,0.000024639999999999998,1.618390186837805,,0.000024639999999999998,1.618390186837805,,0.000024639999999999998,1.5557323958156644,,0.000024639999999999998,1.5557323958156644,,0.000024639999999999998,1.5557323958156644,,0.000024639999999999998,1.5557324232021847,,0.000024639999999999998,1.494498653215858,,0.000024639999999999998,1.494498653215858,,0.000024639999999999998,1.495461798303015,,0.000024639999999999998,1.62,,0.000024639999999999998,1.62,,0.000024639999999999998,1.5572482960993856
0.000040264999999999995,1.8623345880280056,,0.000040264999999999995,1.6184176454189425,,0.000040264999999999995,1.6184176454189425,,0.000040264999999999995,1.6184176454189425,,0.000040264999999999995,1.5257795046330374,,0.000040264999999999995,1.5257795046330374,,0.000040264999999999995,1.5257795046330374,,0.000040264999999999995,1.5257795305597253,,0.000040264999999999995,1.4344840781377897,,0.000040264999999999995,1.4344840781377897,,0.000040264999999999995,1.4353717449105412,,0.000040264999999999995,1.62,,0.000040264999999999995,1.62,,0.000040264999999999995,1.5272410360442328
0.000055889999999999995,1.9430007094270643,,0.000055889999999999995,1.6184404392945824,,0.000055889999999999995,1.6184404392945824,,0.000055889999999999995,1.6184404392945824,,0.000055889999999999995,1.498926157483947,,0.000055889999999999995,1.498926157483947,,0.000055889999999999995,1.498926157483947,,0.000055889999999999995,1.4989261821764048,,0.000055889999999999995,1.3806853733355056,,0.000055889999999999995,1.3806853733355056,,0.000055889999999999995,1.3814520489623017,,0.000055889999999999995,1.62,,0.000055889999999999995,1.62,,0.000055889999999999995,1.5003417069023626
0.000071515,2.0112540947037254,,0.000071515,1.6184587826395307,,0.000071515,1.6184587826395307,,0.000071515,1.6184587826395307,,0.000071515,1.4762057577685945,,0.000071515,1.4762057577685945,,0.000071515,1.4762057577685945,,0.000071515,1.4762057814832896,,0.000071515,1.335171653767946,,0.000071515,1.335171653767946,,0.000071515,1.3358054875414596,,0.000071515,1.62,,0.000071515,1.62,,0.000071515,1.4775848655665018
0.00008714,2.0644718045387465,,0.00008714,1.6184706563053552,,0.00008714,1.6184706563053552,,0.00008714,1.6184706563053552,,0.00008714,1.4584896853175444,,0.00008714,1.4584896853175444,,0.00008714,1.4584896853175444,,0.00008714,1.458489708387199,,0.00008714,1.2996913480608314,,0.00008714,1.2996913480608314,,0.00008714,1.3001514374559866,,0.00008714,1.62,,0.00008714,1.62,,0.00008714,1.4598447249241193
0.000102765,2.1006087121880035,,0.000102765,1.618476921131765,,0.000102765,1.618476921131765,,0.000102765,1.618476921131765,,0.000102765,1.446460514954205,,0.000102765,1.446460514954205,,0.000102765,1.446460514954205,,0.000102765,1.4464605376970132,,0.000102765,1.275608542795507,,0.000102765,1.275608542795507,,0.000102765,1.2758927486552814,,0.000102765,1.62,,0.000102765,1.62,,0.000102765,1.4478033285247285
0.00011839,2.1182760965563463,,0.00011839,1.618476016342727,,0.00011839,1.618476016342727,,0.00011839,1.618476016342727,,0.00011839,1.4405787608296237,,0.00011839,1.4405787608296237,,0.00011839,1.4405787608296237,,0.00011839,1.4405787836162551,,0.00011839,1.2638481646074031,,0.00011839,1.2638481646074031,,0.00011839,1.2639309652711757,,0.00011839,1.62,,0.00011839,1.62,,0.00011839,1.441923138707357
0.000134015,2.116795009970483,,0.000134015,1.6184692995863152,,0.000134015,1.6184692995863152,,0.000134015,1.6184692995863152,,0.000134015,1.4410722192034728,,0.000134015,1.4410722192034728,,0.000134015,1.4410722192034728,,0.000134015,1.4410722423624365,,0.000134015,1.2648626859222067,,0.000134015,1.2648626859222067,,0.000134015,1.2647546142606363,,0.000134015,1.62,,0.000134015,1.62,,0.000134015,1.4424303924621469
0.00014963999999999998,2.0962223697573052,,0.00014963999999999998,1.6184557032804585,,0.00014963999999999998,1.6184557032804585,,0.00014963999999999998,1.6184557032804585,,0.00014963999999999998,1.4479201590526356,,0.00014963999999999998,1.4479201590526356,,0.00014963999999999998,1.4479201590526356,,0.00014963999999999998,1.4479201829391355,,0.00014963999999999998,1.2786126227776344,,0.00014963999999999998,1.2786126227776344,,0.00014963999999999998,1.278304948378246,,0.00014963999999999998,1.62,,0.00014963999999999998,1.62,,0.00014963999999999998,1.449305347313981
0.000165265,2.0573487709429363,,0.000165265,1.6184370784238242,,0.000165265,1.6184370784238242,,0.000165265,1.6184370784238242,,0.000165265,1.460861189133411,,0.000165265,1.460861189133411,,0.000165265,1.460861189133411,,0.000165265,1.4608612140331934,,0.000165265,1.3045700396578577,,0.000165265,1.3045700396578577,,0.000165265,1.3040866888762797,,0.000165265,1.62,,0.000165265,1.62,,0.000165265,1.4622840367951075
0.00018089,2.0016681041292466,,0.00018089,1.6184128094912438,,0.00018089,1.6184128094912438,,0.00018089,1.6184128094912438,,0.00018089,1.479396217802868,,0.00018089,1.479396217802868,,0.00018089,1.479396217802868,,0.00018089,1.479396244004704,,0.00018089,1.3417369674961586,,0.00018089,1.3417369674961586,,0.00018089,1.3410851462723885,,0.00018089,1.62,,0.00018089,1.62,,0.00018089,1.4808674763236596
0.00019651500000000003,1.9313201461158085,,0.00019651500000000003,1.618385163131403,,0.00019651500000000003,1.618385163131403,,0.00019651500000000003,1.618385163131403,,0.00019651500000000003,1.5028147328906323,,0.00019651500000000003,1.5028147328906323,,0.00019651500000000003,1.5028147328906323,,0.00019651500000000003,1.5028147605908537,,0.00019651500000000003,1.38868551674554,,0.00019651500000000003,1.38868551674554,,0.00019651500000000003,1.3879009539454308,,0.00019651500000000003,1.62,,0.00019651500000000003,1.62,,0.00019651500000000003,1.5043417228486573
0.00021214000000000004,1.8490083294774893,,0.00021214000000000004,1.6183538650609808,,0.00021214000000000004,1.6183538650609808,,0.00021214000000000004,1.6183538650609808,,0.00021214000000000004,1.5302149916151009,,0.00021214000000000004,1.5302149916151009,,0.00021214000000000004,1.5302149916151009,,0.00021214000000000004,1.5302150209952696,,0.00021214000000000004,1.4436110891660583,,0.00021214000000000004,1.4436110891660583,,0.00021214000000000004,1.4427139028487346,,0.00021214000000000004,1.62,,0.00021214000000000004,1.62,,0.00021214000000000004,1.5318044775371238
0.00022776500000000005,1.757895851166701,,0.00022776500000000005,1.6183214574467062,,0.00022776500000000005,1.6183214574467062,,0.00022776500000000005,1.6183214574467062,,0.00022776500000000005,1.5605458031759982,,0.00022776500000000005,1.5605458031759982,,0.00022776500000000005,1.5605458031759982,,0.00022776500000000005,1.5605458343099197,,0.00022776500000000005,1.504403295875394,,0.00022776500000000005,1.504403295875394,,0.00022776500000000005,1.503437388349717,,0.00022776500000000005,1.62,,0.00022776500000000005,1.62,,0.00022776500000000005,1.5622005479592962
0.00024339000000000007,1.6614841126284605,,0.00024339000000000007,1.6182878436423664,,0.00024339000000000007,1.6182878436423664,,0.00024339000000000007,1.6182878436423664,,0.00024339000000000007,1.5926397820011735,,0.00024339000000000007,1.5926397820011735,,0.00024339000000000007,1.5926397820011735,,0.00024339000000000007,1.5926398149388161,,0.00024339000000000007,1.5687255757609184,,0.00024339000000000007,1.5687255757609184,,0.00024339000000000007,1.5677192138720215,,0.00024339000000000007,1.62,,0.00024339000000000007,1.62,,0.00024339000000000007,1.5943616540177477
0.0002590150000000001,1.5634781629064667,,0.0002590150000000001,1.6182556600855407,,0.0002590150000000001,1.6182556600855407,,0.0002590150000000001,1.6182556600855407,,0.0002590150000000001,1.6252653672973671,,0.0002590150000000001,1.6252653672973671,,0.0002590150000000001,1.6252653672973671,,0.0002590150000000001,1.6252654019754849,,0.0002590150000000001,1.6341063918741865,,0.0002590150000000001,1.6341063918741865,,0.0002590150000000001,1.63310656504606,,0.0002590150000000001,1.62,,0.0002590150000000001,1.62,,0.0002590150000000001,1.6270520293533355
0.0002746400000000001,1.467644315686166,,0.0002746400000000001,1.6182247962976042,,0.0002746400000000001,1.6182247962976042,,0.0002746400000000001,1.6182247962976042,,0.0002746400000000001,1.6571669796618493,,0.0002746400000000001,1.6571669796618493,,0.0002746400000000001,1.6571669796618493,,0.0002746400000000001,1.6571670159945278,,0.0002746400000000001,1.6980328802324742,,0.0002746400000000001,1.6980328802324742,,0.0002746400000000001,1.6970702002217553,,0.0002746400000000001,1.62,,0.0002746400000000001,1.62,,0.0002746400000000001,1.659015242413325
0.0002902650000000001,1.377665411971994,,0.0002902650000000001,1.6181977882003242,,0.0002902650000000001,1.6181977882003242,,0.0002902650000000001,1.6181977882003242,,0.0002902650000000001,1.6871204577241101,,0.0002902650000000001,1.6871204577241101,,0.0002902650000000001,1.6871204577241101,,0.0002902650000000001,1.6871204955173353,,0.0002902650000000001,1.7580486819824932,,0.0002902650000000001,1.7580486819824932,,0.0002902650000000001,1.7571674810845272,,0.0002902650000000001,1.62,,0.0002902650000000001,1.62,,0.0002902650000000001,1.6890231157912834
0.0003058900000000001,1.2969992905729355,,0.0003058900000000001,1.6181743213152724,,0.0003058900000000001,1.6181743213152724,,0.0003058900000000001,1.6181743213152724,,0.0003058900000000001,1.7139729028509387,,0.0003058900000000001,1.7139729028509387,,0.0003058900000000001,1.7139729028509387,,0.0003058900000000001,1.7139729418993643,,0.0003058900000000001,1.8118471368957618,,0.0003058900000000001,1.8118471368957618,,0.0003058900000000001,1.811074387472708,,0.0003058900000000001,1.62,,0.0003058900000000001,1.62,,0.0003058900000000001,1.7159223196002529
0.00032151500000000014,1.2287459052962744,,0.00032151500000000014,1.6181566523594528,,0.00032151500000000014,1.6181566523594528,,0.00032151500000000014,1.6181566523594528,,0.00032151500000000014,1.7366941970759624,,0.00032151500000000014,1.7366941970759624,,0.00032151500000000014,1.7366941970759624,,0.00032151500000000014,1.736694237080947,,0.00032151500000000014,1.8573610740290136,,0.00032151500000000014,1.8573610740290136,,0.00032151500000000014,1.8567329456465431,,0.00032151500000000014,1.62,,0.00032151500000000014,1.62,,0.00032151500000000014,1.7386792701116194
0.00033714000000000015,1.175528195461253,,0.00033714000000000015,1.618144102957884,,0.00033714000000000015,1.618144102957884,,0.00033714000000000015,1.618144102957884,,0.00033714000000000015,1.754409363870248,,0.00033714000000000015,1.754409363870248,,0.00033714000000000015,1.754409363870248,,0.00033714000000000015,1.7544094045416951,,0.00033714000000000015,1.8928411560435134,,0.00033714000000000015,1.8928411560435134,,0.00033714000000000015,1.8923757072794631,,0.00033714000000000015,1.62,,0.00033714000000000015,1.62,,0.00033714000000000015,1.7564192985109968
0.00035276500000000016,1.1393912878119965,,0.00035276500000000016,1.618138515218151,,0.00035276500000000016,1.618138515218151,,0.00035276500000000016,1.618138515218151,,0.00035276500000000016,1.7664394323406927,,0.00035276500000000016,1.7664394323406927,,0.00035276500000000016,1.7664394323406927,,0.00035276500000000016,1.7664394733173585,,0.00035276500000000016,1.9169241546535774,,0.00035276500000000016,1.9169241546535774,,0.00035276500000000016,1.9166449830130212,,0.00035276500000000016,1.62,,0.00035276500000000016,1.62,,0.00035276500000000016,1.7684607919832842
0.0003683900000000002,1.121723903443654,,0.0003683900000000002,1.6181387416025519,,0.0003683900000000002,1.6181387416025519,,0.0003683900000000002,1.6181387416025519,,0.0003683900000000002,1.7723202772504592,,0.0003683900000000002,1.7723202772504592,,0.0003683900000000002,1.7723202772504592,,0.0003683900000000002,1.7723203182051213,,0.0003683900000000002,1.9286843315199975,,0.0003683900000000002,1.9286843315199975,,0.0003683900000000002,1.9285968020339734,,0.0003683900000000002,1.62,,0.0003683900000000002,1.62,,0.0003683900000000002,1.7743408807357348
0.0003840150000000002,1.1232049900295173,,0.0003840150000000002,1.618146138086004,,0.0003840150000000002,1.618146138086004,,0.0003840150000000002,1.618146138086004,,0.0003840150000000002,1.7718277205045028,,0.0003840150000000002,1.7718277205045028,,0.0003840150000000002,1.7718277205045028,,0.0003840150000000002,1.771827761064832,,0.0003840150000000002,1.9276699829197044,,0.0003840150000000002,1.9276699829197044,,0.0003840150000000002,1.927782496408531,,0.0003840150000000002,1.62,,0.0003840150000000002,1.62,,0.0003840150000000002,1.7738337137456375
0.0003996400000000002,1.1437776302426954,,0.0003996400000000002,1.6181590533752601,,0.0003996400000000002,1.6181590533752601,,0.0003996400000000002,1.6181590533752601,,0.0003996400000000002,1.7649788679582914,,0.0003996400000000002,1.7649788679582914,,0.0003996400000000002,1.7649788679582914,,0.0003996400000000002,1.7649789078132543,,0.0003996400000000002,1.9139198637416102,,0.0003996400000000002,1.9139198637416102,,0.0003996400000000002,1.914223365876183,,0.0003996400000000002,1.62,,0.0003996400000000002,1.62,,0.0003996400000000002,1.76695866732182
0.0004152650000000002,1.1826512290570645,,0.0004152650000000002,1.6181783605426225,,0.0004152650000000002,1.6181783605426225,,0.0004152650000000002,1.6181783605426225,,0.0004152650000000002,1.7520387429509792,,0.0004152650000000002,1.7520387429509792,,0.0004152650000000002,1.7520387429509792,,0.0004152650000000002,1.75203878177033,,0.0004152650000000002,1.8879626021120082,,0.0004152650000000002,1.8879626021120082,,0.0004152650000000002,1.8884498718187712,,0.0004152650000000002,1.62,,0.0004152650000000002,1.62,,0.0004152650000000002,1.7539800558795293
0.00043089000000000023,1.2383318958707545,,0.00043089000000000023,1.6182019459030619,,0.00043089000000000023,1.6182019459030619,,0.00043089000000000023,1.6182019459030619,,0.00043089000000000023,1.7335027981775417,,0.00043089000000000023,1.7335027981775417,,0.00043089000000000023,1.7335027981775417,,0.00043089000000000023,1.7335028357173172,,0.00043089000000000023,1.850795507977762,,0.00043089000000000023,1.850795507977762,,0.00043089000000000023,1.8514436482299281,,0.00043089000000000023,1.62,,0.00043089000000000023,1.62,,0.00043089000000000023,1.735396532786783
0.00044651500000000025,1.308679853884193,,0.00044651500000000025,1.6182302771011476,,0.00044651500000000025,1.6182302771011476,,0.00044651500000000025,1.6182302771011476,,0.00044651500000000025,1.71008519153354,,0.00044651500000000025,1.71008519153354,,0.00044651500000000025,1.71008519153354,,0.00044651500000000025,1.7100852275523115,,0.00044651500000000025,1.803847099304475,,0.00044651500000000025,1.803847099304475,,0.00044651500000000025,1.8046351194232833,,0.00044651500000000025,1.62,,0.00044651500000000025,1.62,,0.00044651500000000025,1.711922356968731
0.00046214000000000026,1.390991670522512,,0.00046214000000000026,1.6182608890998083,,0.00046214000000000026,1.6182608890998083,,0.00046214000000000026,1.6182608890998083,,0.00046214000000000026,1.6826840133729422,,0.00046214000000000026,1.6826840133729422,,0.00046214000000000026,1.6826840133729422,,0.00046214000000000026,1.682684047734515,,0.00046214000000000026,1.7489213739963083,,0.00046214000000000026,1.7489213739963083,,0.00046214000000000026,1.7498153130669265,,0.00046214000000000026,1.62,,0.00046214000000000026,1.62,,0.00046214000000000026,1.684459525415081
0.0004777650000000003,1.4821041488333004,,0.0004777650000000003,1.6182939840241755,,0.0004777650000000003,1.6182939840241755,,0.0004777650000000003,1.6182939840241755,,0.0004777650000000003,1.652354113552149,,0.0004777650000000003,1.652354113552149,,0.0004777650000000003,1.652354113552149,,0.0004777650000000003,1.6523541461370972,,0.0004777650000000003,1.6881292956480363,,0.0004777650000000003,1.6881292956480363,,0.0004777650000000003,1.6890982529536065,,0.0004777650000000003,1.62,,0.0004777650000000003,1.62,,0.0004777650000000003,1.6540635195970987
