X--Trace 1::[transient: TIME],Y--Trace 1::[PR1: V(1)],,X--Trace 2::[transient: TIME],Y--Trace 2::[PR2: V(2)],,X--Trace 3::[transient: TIME],Y--Trace 3::[PR3: V(2)],,X--Trace 4::[transient: TIME],Y--Trace 4::[PR4: V(2)],,X--Trace 5::[transient: TIME],Y--Trace 5::[PR5: V(3)],,X--Trace 6::[transient: TIME],Y--Trace 6::[PR6: V(3)],,X--Trace 7::[transient: TIME],Y--Trace 7::[PR7: V(3)],,X--Trace 8::[transient: TIME],Y--Trace 8::[PR8: V(5)],,X--Trace 9::[transient: TIME],Y--Trace 9::[PR9: V(7)],,X--Trace 10::[transient: TIME],Y--Trace 10::[PR14: V(7)],,X--Trace 11::[transient: TIME],Y--Trace 11::[PR10: V(8)],,X--Trace 12::[transient: TIME],Y--Trace 12::[PR11: V(4)],,X--Trace 13::[transient: TIME],Y--Trace 13::[PR12: V(4)],,X--Trace 14::[transient: TIME],Y--Trace 14::[PR13: V(6)]
0,1.62,,0,1.6183075931279718,,0,1.6183075931279718,,0,1.6183075931279718,,0,1.6064053551665793,,0,1.6064053551665793,,0,1.6064053551665793,,0,1.6064053870293569,,0,1.596177336215334,,0,1.596177336215334,,0,1.5961773361339289,,0,1.62,,0,1.62,,0,1.6080875539438828
1e-7,1.6206283183653514,,1e-7,1.6183556544095166,,1e-7,1.6183556544095166,,1e-7,1.6183556544095166,,1e-7,1.6061632882915924,,1e-7,1.6061632882915924,,1e-7,1.6061632882915924,,1e-7,1.6061633163999431,,1e-7,1.5954149453963733,,1e-7,1.5954149453963733,,1e-7,1.5959529055131019,,1e-7,1.62,,1e-7,1.62,,1e-7,1.6077064280657192
2e-7,1.6212566357385019,,2e-7,1.6183582991954621,,2e-7,1.6183582991954621,,2e-7,1.6183582991954621,,2e-7,1.6058530973389475,,2e-7,1.6058530973389475,,2e-7,1.6058530973389475,,2e-7,1.6058531267232015,,2e-7,1.5948891184387517,,2e-7,1.5948891184387517,,2e-7,1.5956397506247506,,2e-7,1.62,,2e-7,1.62,,2e-7,1.6074434909632505
4e-7,1.6225132635394095,,4e-7,1.618358720660191,,4e-7,1.618358720660191,,4e-7,1.618358720660191,,4e-7,1.605225417061771,,4e-7,1.605225417061771,,4e-7,1.605225417061771,,4e-7,1.6052254449853343,,4e-7,1.5935254889635553,,4e-7,1.5935254889635553,,4e-7,1.5947963905982834,,4e-7,1.62,,4e-7,1.62,,4e-7,1.6067617032854398
8e-7,1.6250264635783653,,8e-7,1.6183600080767953,,8e-7,1.6183600080767953,,8e-7,1.6183600080767953,,8e-7,1.6039707529207128,,8e-7,1.6039707529207128,,8e-7,1.6039707529207128,,8e-7,1.603970783486285,,8e-7,1.5912119430485236,,8e-7,1.5912119430485236,,8e-7,1.592587907838654,,8e-7,1.62,,8e-7,1.62,,8e-7,1.6056048814196773
0.0000016,1.6300524191627288,,0.0000016,1.6183625385891218,,0.0000016,1.6183625385891218,,0.0000016,1.6183625385891218,,0.0000016,1.601461588015694,,0.0000016,1.601461588015694,,0.0000016,1.601461588015694,,0.0000016,1.6014616150185728,,0.0000016,1.5859295206762682,,0.0000016,1.5859295206762682,,0.0000016,1.5875640828490005,,0.0000016,1.62,,0.0000016,1.62,,0.0000016,1.6029637362483093
0.0000032,1.6401007746814766,,0.0000032,1.618367471046027,,0.0000032,1.618367471046027,,0.0000032,1.618367471046027,,0.0000032,1.5964448736109245,,0.0000032,1.5964448736109245,,0.0000032,1.5964448736109245,,0.0000032,1.5964449042863733,,0.0000032,1.5761681769612441,,0.0000032,1.5761681769612441,,0.0000032,1.5775377535448487,,0.0000032,1.62,,0.0000032,1.62,,0.0000032,1.5980829964541439
0.0000064,1.6601690500666972,,0.0000064,1.618377444297066,,0.0000064,1.618377444297066,,0.0000064,1.618377444297066,,0.0000064,1.5864259467302235,,0.0000064,1.5864259467302235,,0.0000064,1.5864259467302235,,0.0000064,1.5864259726469787,,0.0000064,1.5557774409487968,,0.0000064,1.5557774409487968,,0.0000064,1.5574215264734441,,0.0000064,1.62,,0.0000064,1.62,,0.0000064,1.587887716723896
0.000012479999999999999,1.698093113473714,,0.000012479999999999999,1.6183959492101263,,0.000012479999999999999,1.6183959492101263,,0.000012479999999999999,1.6183959492101263,,0.000012479999999999999,1.5674925936693855,,0.000012479999999999999,1.5674925936693855,,0.000012479999999999999,1.5674925936693855,,0.000012479999999999999,1.5674926208047135,,0.000012479999999999999,1.518000667823459,,0.000012479999999999999,1.518000667823459,,0.000012479999999999999,1.5194887050506105,,0.000012479999999999999,1.62,,0.000012479999999999999,1.62,,0.000012479999999999999,1.568999307878614
0.000024639999999999998,1.7723556843138335,,0.000024639999999999998,1.6184314208013433,,0.000024639999999999998,1.6184314208013433,,0.000024639999999999998,1.6184314208013433,,0.000024639999999999998,1.5304180761238593,,0.000024639999999999998,1.5304180761238593,,0.000024639999999999998,1.5304180761238593,,0.000024639999999999998,1.530418101271434,,0.000024639999999999998,1.4437035715384587,,0.000024639999999999998,1.4437035715384587,,0.000024639999999999998,1.44514816819551,,0.000024639999999999998,1.62,,0.000024639999999999998,1.62,,0.000024639999999999998,1.5318507971031965
0.000040264999999999995,1.8623345880280056,,0.000040264999999999995,1.6184726062819814,,0.000040264999999999995,1.6184726062819814,,0.000040264999999999995,1.6184726062819814,,0.000040264999999999995,1.4854981972113983,,0.000040264999999999995,1.4854981972113983,,0.000040264999999999995,1.4854981972113983,,0.000040264999999999995,1.4854982201730609,,0.000040264999999999995,1.3537009092136654,,0.000040264999999999995,1.3537009092136654,,0.000040264999999999995,1.35503206213777,,0.000040264999999999995,1.62,,0.000040264999999999995,1.62,,0.000040264999999999995,1.4868495070953323
0.000055889999999999995,1.9430007094270643,,0.000055889999999999995,1.6185067919920775,,0.000055889999999999995,1.6185067919920775,,0.000055889999999999995,1.6185067919920775,,0.000055889999999999995,1.445227590517869,,0.000055889999999999995,1.445227590517869,,0.000055889999999999995,1.445227590517869,,0.000055889999999999995,1.4452276116270966,,0.000055889999999999995,1.2730215994552976,,0.000055889999999999995,1.2730215994552976,,0.000055889999999999995,1.2741713814574642,,0.000055889999999999995,1.62,,0.000055889999999999995,1.62,,0.000055889999999999995,1.4465098871252469
0.000071515,2.0112540947037254,,0.000071515,1.6185343022524732,,0.000071515,1.6185343022524732,,0.000071515,1.6185343022524732,,0.000071515,1.4111562692028685,,0.000071515,1.4111562692028685,,0.000071515,1.4111562692028685,,0.000071515,1.411156288847549,,0.000071515,1.204769732263556,,0.000071515,1.204769732263556,,0.000071515,1.2057201436333393,,0.000071515,1.62,,0.000071515,1.62,,0.000071515,1.412383981162184
0.00008714,2.0644718045387465,,0.00008714,1.6185521138525154,,0.00008714,1.6185521138525154,,0.00008714,1.6185521138525154,,0.00008714,1.384590625724065,,0.00008714,1.384590625724065,,0.00008714,1.384590625724065,,0.00008714,1.3845906443999367,,0.00008714,1.1515661117542033,,0.00008714,1.1515661117542033,,0.00008714,1.1522560637766928,,0.00008714,1.62,,0.00008714,1.62,,0.00008714,1.38578218924725
0.000102765,2.1006087121880035,,0.000102765,1.6185615063609462,,0.000102765,1.6185615063609462,,0.000102765,1.6185615063609462,,0.000102765,1.366554508646462,,0.000102765,1.366554508646462,,0.000102765,1.366554508646462,,0.000102765,1.3665545268341048,,0.000102765,1.1154573321752281,,0.000102765,1.1154573321752281,,0.000102765,1.115883353000029,,0.000102765,1.62,,0.000102765,1.62,,0.000102765,1.3677278087698126
0.00011839,2.1182760965563463,,0.00011839,1.618560156728364,,0.00011839,1.618560156728364,,0.00011839,1.618560156728364,,0.00011839,1.357738092380816,,0.00011839,1.357738092380816,,0.00011839,1.357738092380816,,0.00011839,1.3577381106327242,,0.00011839,1.0978290859624567,,0.00011839,1.0978290859624567,,0.00011839,1.0979531910806946,,0.00011839,1.62,,0.00011839,1.62,,0.00011839,1.358913684605525
0.000134015,2.116795009970483,,0.000134015,1.6185500769557422,,0.000134015,1.6185500769557422,,0.000134015,1.6185500769557422,,0.000134015,1.3584831267594142,,0.000134015,1.3584831267594142,,0.000134015,1.3584831267594142,,0.000134015,1.3584831455717514,,0.000134015,1.0993607047782492,,0.000134015,1.0993607047782492,,0.000134015,1.099198394708335,,0.000134015,1.62,,0.000134015,1.62,,0.000134015,1.3596794836237642
0.00014963999999999998,2.0962223697573052,,0.00014963999999999998,1.6185296962425575,,0.00014963999999999998,1.6185296962425575,,0.00014963999999999998,1.6185296962425575,,0.00014963999999999998,1.3687580429854254,,0.00014963999999999998,1.3687580429854254,,0.00014963999999999998,1.3687580429854254,,0.00014963999999999998,1.3687580628873373,,0.00014963999999999998,1.119991494811606,,0.00014963999999999998,1.119991494811606,,0.00014963999999999998,1.119529998629498,,0.00014963999999999998,1.62,,0.00014963999999999998,1.62,,0.00014963999999999998,1.3699948583085702
0.000165265,2.0573487709429363,,0.000165265,1.6185017539867965,,0.000165265,1.6185017539867965,,0.000165265,1.6185017539867965,,0.000165265,1.3881709157549837,,0.000165265,1.3881709157549837,,0.000165265,1.3881709157549837,,0.000165265,1.388170937178615,,0.000165265,1.1589304085420216,,0.000165265,1.1589304085420216,,0.000165265,1.158205284943397,,0.000165265,1.62,,0.000165265,1.62,,0.000165265,1.3894642867020253
0.00018089,2.0016681041292466,,0.00018089,1.6184653698064484,,0.00018089,1.6184653698064484,,0.00018089,1.6184653698064484,,0.00018089,1.4159727876708414,,0.00018089,1.4159727876708414,,0.00018089,1.4159727876708414,,0.00018089,1.4159728110455525,,0.00018089,1.2146793098323452,,0.00018089,1.2146793098323452,,0.00018089,1.2137017140701087,,0.00018089,1.62,,0.00018089,1.62,,0.00018089,1.4173387007983267
0.00019651500000000003,1.9313201461158085,,0.00019651500000000003,1.6184238941140465,,0.00019651500000000003,1.6184238941140465,,0.00019651500000000003,1.6184238941140465,,0.00019651500000000003,1.4510981763666677,,0.00019651500000000003,1.4510981763666677,,0.00019651500000000003,1.4510981763666677,,0.00019651500000000003,1.4510982019906222,,0.00019651500000000003,1.2850974892236906,,0.00019651500000000003,1.2850974892236906,,0.00019651500000000003,1.2839206553885913,,0.00019651500000000003,1.62,,0.00019651500000000003,1.62,,0.00019651500000000003,1.4525477483136593
0.00021214000000000004,1.8490083294774893,,0.00021214000000000004,1.6183769706159594,,0.00021214000000000004,1.6183769706159594,,0.00021214000000000004,1.6183769706159594,,0.00021214000000000004,1.4921943072789041,,0.00021214000000000004,1.4921943072789041,,0.00021214000000000004,1.4921943072789041,,0.00021214000000000004,1.4921943354205296,,0.00021214000000000004,1.3674771666383378,,0.00021214000000000004,1.3674771666383378,,0.00021214000000000004,1.3661316359180713,,0.00021214000000000004,1.62,,0.00021214000000000004,1.62,,0.00021214000000000004,1.493737539780039
0.00022776500000000005,1.757895851166701,,0.00022776500000000005,1.6183283507226547,,0.00022776500000000005,1.6183283507226547,,0.00022776500000000005,1.6183283507226547,,0.00022776500000000005,1.5376848010903665,,0.00022776500000000005,1.5376848010903665,,0.00022776500000000005,1.5376848010903665,,0.00022776500000000005,1.5376848318641914,,0.00022776500000000005,1.4586541459081372,,0.00022776500000000005,1.4586541459081372,,0.00022776500000000005,1.457205388050973,,0.00022776500000000005,1.62,,0.00022776500000000005,1.62,,0.00022776500000000005,1.5393259799871621
0.00024339000000000007,1.6614841126284605,,0.00024339000000000007,1.6182779567262673,,0.00024339000000000007,1.6182779567262673,,0.00024339000000000007,1.6182779567262673,,0.00024339000000000007,1.5858185641179703,,0.00024339000000000007,1.5858185641179703,,0.00024339000000000007,1.5858185641179703,,0.00024339000000000007,1.5858185975949257,,0.00024339000000000007,1.555122973511383,,0.00024339000000000007,1.555122973511383,,0.00024339000000000007,1.5536137678687776,,0.00024339000000000007,1.62,,0.00024339000000000007,1.62,,0.00024339000000000007,1.5875603430077732
0.0002590150000000001,1.5634781629064667,,0.0002590150000000001,1.6182296693525788,,0.0002590150000000001,1.6182296693525788,,0.0002590150000000001,1.6182296693525788,,0.0002590150000000001,1.6347487587080092,,0.0002590150000000001,1.6347487587080092,,0.0002590150000000001,1.6347487587080092,,0.0002590150000000001,1.634748794797212,,0.0002590150000000001,1.6531779445470844,,0.0002590150000000001,1.6531779445470844,,0.0002590150000000001,1.6516783710958483,,0.0002590150000000001,1.62,,0.0002590150000000001,1.62,,0.0002590150000000001,1.6365877794157684
0.0002746400000000001,1.467644315686166,,0.0002746400000000001,1.6181834021848904,,0.0002746400000000001,1.6181834021848904,,0.0002746400000000001,1.6181834021848904,,0.0002746400000000001,1.682592111510241,,0.0002746400000000001,1.682592111510241,,0.0002746400000000001,1.682592111510241,,0.0002746400000000001,1.6825921500787022,,0.0002746400000000001,1.7490493540211611,,0.0002746400000000001,1.7490493540211611,,0.0002746400000000001,1.7476057226690067,,0.0002746400000000001,1.62,,0.0002746400000000001,1.62,,0.0002746400000000001,1.6845234375220404
0.0002902650000000001,1.377665411971994,,0.0002902650000000001,1.6181428732719807,,0.0002902650000000001,1.6181428732719807,,0.0002902650000000001,1.6181428732719807,,0.0002902650000000001,1.7275129390453046,,0.0002902650000000001,1.7275129390453046,,0.0002902650000000001,1.7275129390453046,,0.0002902650000000001,1.72751297980616,,0.0002902650000000001,1.8390543939976718,,0.0002902650000000001,1.8390543939976718,,0.0002902650000000001,1.8377327827600836,,0.0002902650000000001,1.62,,0.0002902650000000001,1.62,,0.0002902650000000001,1.7295259162357703
0.0003058900000000001,1.2969992905729355,,0.0003058900000000001,1.618107702144588,,0.0003058900000000001,1.618107702144588,,0.0003058900000000001,1.618107702144588,,0.0003058900000000001,1.7677820518415164,,0.0003058900000000001,1.7677820518415164,,0.0003058900000000001,1.7677820518415164,,0.0003058900000000001,1.767782094482538,,0.0003058900000000001,1.9197327711502306,,0.0003058900000000001,1.9197327711502306,,0.0003058900000000001,1.918574042986485,,0.0003058900000000001,1.62,,0.0003058900000000001,1.62,,0.0003058900000000001,1.7698650693893878
0.00032151500000000014,1.2287459052962744,,0.00032151500000000014,1.6180811763208451,,0.00032151500000000014,1.6180811763208451,,0.00032151500000000014,1.6180811763208451,,0.00032151500000000014,1.8018548340410332,,0.00032151500000000014,1.8018548340410332,,0.00032151500000000014,1.8018548340410332,,0.00032151500000000014,1.801854878118586,,0.00032151500000000014,1.9879854838192876,,0.00032151500000000014,1.9879854838192876,,0.00032151500000000014,1.9870434605033611,,0.00032151500000000014,1.62,,0.00032151500000000014,1.62,,0.00032151500000000014,1.8039913986099134
0.00033714000000000015,1.175528195461253,,0.00033714000000000015,1.618062381331837,,0.00033714000000000015,1.618062381331837,,0.00033714000000000015,1.618062381331837,,0.00033714000000000015,1.82841898666745,,0.00033714000000000015,1.82841898666745,,0.00033714000000000015,1.82841898666745,,0.00033714000000000015,1.8284190317420874,,0.00033714000000000015,2.041188218191552,,0.00033714000000000015,2.041188218191552,,0.00033714000000000015,2.0404904035735716,,0.00033714000000000015,1.62,,0.00033714000000000015,1.62,,0.00033714000000000015,1.830592746932649
0.00035276500000000016,1.1393912878119965,,0.00035276500000000016,1.6180539712236357,,0.00035276500000000016,1.6180539712236357,,0.00035276500000000016,1.6180539712236357,,0.00035276500000000016,1.8464565615775645,,0.00035276500000000016,1.8464565615775645,,0.00035276500000000016,1.8464565615775645,,0.00035276500000000016,1.8464566071119117,,0.00035276500000000016,2.077297799818807,,0.00035276500000000016,2.077297799818807,,0.00035276500000000016,2.076879149286341,,0.00035276500000000016,1.62,,0.00035276500000000016,1.62,,0.00035276500000000016,1.848647528962431
0.0003683900000000002,1.121723903443654,,0.0003683900000000002,1.6180543395116862,,0.0003683900000000002,1.6180543395116862,,0.0003683900000000002,1.6180543395116862,,0.0003683900000000002,1.8552714900602272,,0.0003683900000000002,1.8552714900602272,,0.0003683900000000002,1.8552714900602272,,0.0003683900000000002,1.8552715355590494,,0.0003683900000000002,2.09492520048797,,0.0003683900000000002,2.09492520048797,,0.0003683900000000002,2.0947941887333825,,0.0003683900000000002,1.62,,0.0003683900000000002,1.62,,0.0003683900000000002,1.8574612298226687
0.0003840150000000002,1.1232049900295173,,0.0003840150000000002,1.6180653996321532,,0.0003840150000000002,1.6180653996321532,,0.0003840150000000002,1.6180653996321532,,0.0003840150000000002,1.8545279104379324,,0.0003840150000000002,1.8545279104379324,,0.0003840150000000002,1.8545279104379324,,0.0003840150000000002,1.8545279553473781,,0.0003840150000000002,2.0933943458109967,,0.0003840150000000002,2.0933943458109967,,0.0003840150000000002,2.0935631282570877,,0.0003840150000000002,1.62,,0.0003840150000000002,1.62,,0.0003840150000000002,1.8566958134099627
0.0003996400000000002,1.1437776302426954,,0.0003996400000000002,1.6180848010610624,,0.0003996400000000002,1.6180848010610624,,0.0003996400000000002,1.6180848010610624,,0.0003996400000000002,1.8442515095215948,,0.0003996400000000002,1.8442515095215948,,0.0003996400000000002,1.8442515095215948,,0.0003996400000000002,1.8442515533706005,,0.0003996400000000002,2.0727627456409414,,0.0003996400000000002,2.0727627456409414,,0.0003996400000000002,2.073218178590049,,0.0003996400000000002,1.62,,0.0003996400000000002,1.62,,0.0003996400000000002,1.8463800331172402
0.0004152650000000002,1.1826512290570645,,0.0004152650000000002,1.6181137215965997,,0.0004152650000000002,1.6181137215965997,,0.0004152650000000002,1.6181137215965997,,0.0004152650000000002,1.8248400884086895,,0.0004152650000000002,1.8248400884086895,,0.0004152650000000002,1.8248400884086895,,0.0004152650000000002,1.824840130706666,,0.0004152650000000002,2.033824563012001,,0.0004152650000000002,2.033824563012001,,0.0004152650000000002,2.034555366780222,,0.0004152650000000002,1.62,,0.0004152650000000002,1.62,,0.0004152650000000002,1.8269109708172702
0.00043089000000000023,1.2383318958707545,,0.00043089000000000023,1.6181491285684744,,0.00043089000000000023,1.6181491285684744,,0.00043089000000000023,1.6181491285684744,,0.00043089000000000023,1.7970367349189051,,0.00043089000000000023,1.7970367349189051,,0.00043089000000000023,1.7970367349189051,,0.00043089000000000023,1.7970367752952687,,0.00043089000000000023,1.9780748824154908,,0.00043089000000000023,1.9780748824154908,,0.00043089000000000023,1.9790471590683105,,0.00043089000000000023,1.62,,0.00043089000000000023,1.62,,0.00043089000000000023,1.7990361665222294
0.00044651500000000025,1.308679853884193,,0.00044651500000000025,1.618191580457175,,0.00044651500000000025,1.618191580457175,,0.00044651500000000025,1.618191580457175,,0.00044651500000000025,1.7619127947571753,,0.00044651500000000025,1.7619127947571753,,0.00044651500000000025,1.7619127947571753,,0.00044651500000000025,1.761912832854682,,0.00044651500000000025,1.9076574053888509,,0.00044651500000000025,1.9076574053888509,,0.00044651500000000025,1.9088392204279376,,0.00044651500000000025,1.62,,0.00044651500000000025,1.62,,0.00044651500000000025,1.7638274707376003
0.00046214000000000026,1.390991670522512,,0.00046214000000000026,1.6182375288378634,,0.00046214000000000026,1.6182375288378634,,0.00046214000000000026,1.6182375288378634,,0.00046214000000000026,1.7208151854099396,,0.00046214000000000026,1.7208151854099396,,0.00046214000000000026,1.7208151854099396,,0.00046214000000000026,1.720815221019519,,0.00046214000000000026,1.8252769754577223,,0.00046214000000000026,1.8252769754577223,,0.00046214000000000026,1.8266178436227145,,0.00046214000000000026,1.62,,0.00046214000000000026,1.62,,0.00046214000000000026,1.7226373024621047
0.0004777650000000003,1.4821041488333004,,0.0004777650000000003,1.6182871228288545,,0.0004777650000000003,1.6182871228288545,,0.0004777650000000003,1.6182871228288545,,0.0004777650000000003,1.6753261369869588,,0.0004777650000000003,1.6753261369869588,,0.0004777650000000003,1.6753261369869588,,0.0004777650000000003,1.6753261699344737,,0.0004777650000000003,1.7341006736112594,,0.0004777650000000003,1.7341006736112594,,0.0004777650000000003,1.7355537959496816,,0.0004777650000000003,1.62,,0.0004777650000000003,1.62,,0.0004777650000000003,1.6770492015197511
