X--Trace 1::[transient: TIME],Y--Trace 1::[PR10: V(8)],,X--Trace 2::[transient: TIME],Y--Trace 2::[PR8: V(5)],,X--Trace 3::[transient: TIME],Y--Trace 3::[PR1: V(1)],,X--Trace 4::[transient: TIME],Y--Trace 4::[PR2: V(2)],,X--Trace 5::[transient: TIME],Y--Trace 5::[PR3: V(2)],,X--Trace 6::[transient: TIME],Y--Trace 6::[PR4: V(2)],,X--Trace 7::[transient: TIME],Y--Trace 7::[PR5: V(3)],,X--Trace 8::[transient: TIME],Y--Trace 8::[PR6: V(3)],,X--Trace 9::[transient: TIME],Y--Trace 9::[PR7: V(3)],,X--Trace 10::[transient: TIME],Y--Trace 10::[PR9: V(7)],,X--Trace 11::[transient: TIME],Y--Trace 11::[PR14: V(7)],,X--Trace 12::[transient: TIME],Y--Trace 12::[PR11: V(4)],,X--Trace 13::[transient: TIME],Y--Trace 13::[PR12: V(4)],,X--Trace 14::[transient: TIME],Y--Trace 14::[PR13: V(6)]
0,1.6051228730589673,,0,1.60640538727167,,0,1.62,,0,1.6183075931279802,,0,1.6183075931279802,,0,1.6183075931279802,,0,1.606405355167121,,0,1.606405355167121,,0,1.606405355167121,,0,1.6051228731408285,,0,1.6051228731408285,,0,1.62,,0,1.62,,0,1.6080965086865668
1.5625e-7,1.6046592921840224,,1.5625e-7,1.6056008959276704,,1.5625e-7,1.6209817470734227,,1.5625e-7,1.6183962214276386,,1.5625e-7,1.6183962214276386,,1.5625e-7,1.6183962214276386,,1.5625e-7,1.6056008674733393,,1.5625e-7,1.6056008674733393,,1.5625e-7,1.6056008674733393,,1.5625e-7,1.6039481221172245,,1.5625e-7,1.6039481221172245,,1.5625e-7,1.62,,1.5625e-7,1.62,,1.5625e-7,1.6071568160438656
3.125e-7,1.6039065255449985,,3.125e-7,1.604641919820318,,3.125e-7,1.6219634903619031,,3.125e-7,1.6184076027558716,,3.125e-7,1.6184076027558716,,3.125e-7,1.6184076027558716,,3.125e-7,1.6046418913156686,,3.125e-7,1.6046418913156686,,3.125e-7,1.6046418913156686,,3.125e-7,1.6027517213812037,,3.125e-7,1.6027517213812037,,3.125e-7,1.62,,3.125e-7,1.62,,3.125e-7,1.6061996939871248
6.25e-7,1.6020305518702282,,6.25e-7,1.602687941680778,,6.25e-7,1.6239269504443559,,6.25e-7,1.6184123377047597,,6.25e-7,1.6184123377047597,,6.25e-7,1.6184123377047597,,6.25e-7,1.6026879132141514,,6.25e-7,1.6026879132141514,,6.25e-7,1.6026879132141514,,6.25e-7,1.600307462502533,,6.25e-7,1.600307462502533,,6.25e-7,1.62,,6.25e-7,1.62,,6.25e-7,1.604244288057705
0.00000125,1.597307129486932,,0.00000125,1.598764782212465,,0.00000125,1.6278536586559105,,0.00000125,1.618414090658742,,0.00000125,1.618414090658742,,0.00000125,1.618414090658742,,0.00000125,1.5987647536659584,,0.00000125,1.5987647536659584,,0.00000125,1.5987647536659584,,0.00000125,1.5954071651129096,,0.00000125,1.5954071651129096,,0.00000125,1.62,,0.00000125,1.62,,0.00000125,1.6003240478733025
0.0000025,1.587469805813234,,0.0000025,1.5909326362299951,,0.0000025,1.6357053795390644,,0.0000025,1.6184237984394,,0.0000025,1.6184237984394,,0.0000025,1.6184237984394,,0.0000025,1.5909326081135144,,0.0000025,1.5909326081135144,,0.0000025,1.5909326081135144,,0.0000025,1.5855969599743434,,0.0000025,1.5855969599743434,,0.0000025,1.62,,0.0000025,1.62,,0.0000025,1.5924758966921788
0.000005,1.567885742007962,,0.000005,1.5752708198220917,,0.000005,1.6513952597646568,,0.000005,1.6184375223070477,,0.000005,1.6184375223070477,,0.000005,1.6184375223070477,,0.000005,1.575270792058387,,0.000005,1.575270792058387,,0.000005,1.575270792058387,,0.000005,1.5660031479324765,,0.000005,1.5660031479324765,,0.000005,1.62,,0.000005,1.62,,0.000005,1.5768008578874178
0.00001,1.5288064998419062,,0.00001,1.544066667739657,,0.00001,1.6826666167821522,,0.00001,1.6184699167712604,,0.00001,1.6184699167712604,,0.00001,1.6184699167712604,,0.00001,1.544066641171431,,0.00001,1.544066641171431,,0.00001,1.544066641171431,,0.00001,1.5269421763364415,,0.00001,1.5269421763364415,,0.00001,1.62,,0.00001,1.62,,0.00001,1.5455521167818158
0.0000195,1.455548711802874,,0.0000195,1.485554079417071,,0.0000195,1.7412996153977038,,0.0000195,1.6185256768301968,,0.0000195,1.6185256768301968,,0.0000195,1.6185256768301968,,0.0000195,1.4855540546616648,,0.0000195,1.4855540546616648,,0.0000195,1.4855540546616648,,0.0000195,1.4537167137641205,,0.0000195,1.4537167137641205,,0.0000195,1.62,,0.0000195,1.62,,0.0000195,1.4869718018424523
0.000035125,1.3401717510381923,,0.000035125,1.3934519244871328,,0.000035125,1.8336000323534736,,0.000035125,1.6186115724416652,,0.000035125,1.6186115724416652,,0.000035125,1.6186115724416652,,0.000035125,1.3934519026095338,,0.000035125,1.3934519026095338,,0.000035125,1.3934519026095338,,0.000035125,1.3384545276917927,,0.000035125,1.3384545276917927,,0.000035125,1.62,,0.000035125,1.62,,0.000035125,1.3947621404651789
0.00005075,1.2349689318231167,,0.00005075,1.309546209300325,,0.00005075,1.9176919198541775,,0.00005075,1.6186844527116442,,0.00005075,1.6186844527116442,,0.00005075,1.6186844527116442,,0.00005075,1.3095461898608813,,0.00005075,1.3095461898608813,,0.00005075,1.3095461898608813,,0.00005075,1.2334583644828192,,0.00005075,1.2334583644828192,,0.00005075,1.62,,0.00005075,1.62,,0.00005075,1.3107652841548099
0.000066375,1.1440449897099396,,0.000066375,1.2370676177198314,,0.000066375,1.9903436738224376,,0.000066375,1.618744661857621,,0.000066375,1.618744661857621,,0.000066375,1.618744661857621,,0.000066375,1.2370676002951726,,0.000066375,1.2370676002951726,,0.000066375,1.2370676002951726,,0.000066375,1.1427658651492272,,0.000066375,1.1427658651492272,,0.000066375,1.62,,0.000066375,1.62,,0.000066375,1.2382113461259139
0.000082,1.0708264584219616,,0.000082,1.1787941724899464,,0.000082,2.0487633280968263,,0.000082,1.6187862427777409,,0.000082,1.6187862427777409,,0.000082,1.6187862427777409,,0.000082,1.178794156451051,,0.000082,1.178794156451051,,0.000082,1.178794156451051,,0.000082,1.069859121406067,,0.000082,1.069859121406067,,0.000082,1.62,,0.000082,1.62,,0.000082,1.1798859935904746
0.000097625,1.018190582301933,,0.000097625,1.136972533090022,,0.000097625,2.0907058481256984,,0.000097625,1.618811220649679,,0.000097625,1.618811220649679,,0.000097625,1.618811220649679,,0.000097625,1.136972517883823,,0.000097625,1.136972517883823,,0.000097625,1.136972517883823,,0.000097625,1.017542966527603,,0.000097625,1.017542966527603,,0.000097625,1.62,,0.000097625,1.62,,0.000097625,1.138033095364393
0.00011325,0.988100495531299,,0.00011325,1.1132026733104212,,0.00011325,2.114559406385981,,0.00011325,1.618815032551353,,0.00011325,1.618815032551353,,0.00011325,1.618815032551353,,0.00011325,1.113202658221731,,0.00011325,1.113202658221731,,0.00011325,1.113202658221731,,0.00011325,0.9878248994016879,,0.00011325,0.9878248994016879,,0.00011325,1.62,,0.00011325,1.62,,0.00011325,1.1142586457159427
0.000128875,0.9817685337392981,,0.000128875,1.1084052191702023,,0.000128875,2.1194073240109605,,0.000128875,1.6188011150922492,,0.000128875,1.6188011150922492,,0.000128875,1.6188011150922492,,0.000128875,1.1084052036102825,,0.000128875,1.1084052036102825,,0.000128875,1.1084052036102825,,0.000128875,0.9818498552504549,,0.000128875,0.9818498552504549,,0.000128875,1.62,,0.000128875,1.62,,0.000128875,1.1094785965474652
0.0001445,0.9993854509864258,,0.0001445,1.122757405307414,,0.0001445,2.105063298245053,,0.0001445,1.6187664398367647,,0.0001445,1.6187664398367647,,0.0001445,1.6187664398367647,,0.0001445,1.1227573885738893,,0.0001445,1.1227573885738893,,0.0001445,1.1227573885738893,,0.0001445,0.9998446447845172,,0.0001445,0.9998446447845172,,0.0001445,1.62,,0.0001445,1.62,,0.0001445,1.1238743930559953
0.000160125,1.0403236022131328,,0.000160125,1.1557147698694996,,0.000160125,2.0720785619542195,,0.000160125,1.618715882921584,,0.000160125,1.618715882921584,,0.000160125,1.618715882921584,,0.000160125,1.1557147514375634,,0.000160125,1.1557147514375634,,0.000160125,1.1557147514375634,,0.000160125,1.0411204564997438,,0.000160125,1.0411204564997438,,0.000160125,1.62,,0.000160125,1.62,,0.000160125,1.1568949913130289
0.00017575000000000002,1.1029634044966514,,0.00017575000000000002,1.2060037295194468,,0.00017575000000000002,2.021720700056064,,0.00017575000000000002,1.618647863211066,,0.00017575000000000002,1.618647863211066,,0.00017575000000000002,1.618647863211066,,0.00017575000000000002,1.2060037087964282,,0.00017575000000000002,1.2060037087964282,,0.00017575000000000002,1.2060037087964282,,0.00017575000000000002,1.10408843967709,,0.00017575000000000002,1.10408843967709,,0.00017575000000000002,1.62,,0.00017575000000000002,1.62,,0.00017575000000000002,1.2072693087625679
0.00019137500000000003,1.184941157760978,,0.00019137500000000003,1.2716987143090606,,0.00019137500000000003,1.9559249369423177,,0.00019137500000000003,1.6185684992292524,,0.00019137500000000003,1.6185684992292524,,0.00019137500000000003,1.6185684992292524,,0.00019137500000000003,1.2716986909240813,,0.00019137500000000003,1.2716986909240813,,0.00019137500000000003,1.2716986909240813,,0.00019137500000000003,1.1863313313317774,,0.00019137500000000003,1.1863313313317774,,0.00019137500000000003,1.62,,0.00019137500000000003,1.62,,0.00019137500000000003,1.273063541635187
0.00020700000000000004,1.283065647548104,,0.00020700000000000004,1.3502681300733397,,0.00020700000000000004,1.877219766890753,,0.00020700000000000004,1.6184773556579808,,0.00020700000000000004,1.6184773556579808,,0.00020700000000000004,1.6184773556579808,,0.00020700000000000004,1.3502681036235056,,0.00020700000000000004,1.3502681036235056,,0.00020700000000000004,1.3502681036235056,,0.00020700000000000004,1.2846860904490256,,0.00020700000000000004,1.2846860904490256,,0.00020700000000000004,1.62,,0.00020700000000000004,1.62,,0.00020700000000000004,1.3517472562309927
0.00022262500000000006,1.3936043518825063,,0.00022262500000000006,1.438699527722354,,0.00022262500000000006,1.7886297854480842,,0.00022262500000000006,1.6183814011219462,,0.00022262500000000006,1.6183814011219462,,0.00022262500000000006,1.6183814011219462,,0.00022262500000000006,1.4386994980573862,,0.00022262500000000006,1.4386994980573862,,0.00022262500000000006,1.4386994980573862,,0.00022262500000000006,1.395375413429001,,0.00022262500000000006,1.395375413429001,,0.00022262500000000006,1.62,,0.00022262500000000006,1.62,,0.00022262500000000006,1.4402986172274286
0.00023825000000000007,1.512273328194345,,0.00023825000000000007,1.5335876420899188,,0.00023825000000000007,1.6935594559193186,,0.00023825000000000007,1.618280876164869,,0.00023825000000000007,1.618280876164869,,0.00023825000000000007,1.618280876164869,,0.00023825000000000007,1.5335876090477816,,0.00023825000000000007,1.5335876090477816,,0.00023825000000000007,1.5335876090477816,,0.00023825000000000007,1.5141432208596592,,0.00023825000000000007,1.5141432208596592,,0.00023825000000000007,1.62,,0.00023825000000000007,1.62,,0.00023825000000000007,1.53531276082844
0.0002538750000000001,1.6345459813902457,,0.0002538750000000001,1.6312928295354931,,0.0002538750000000001,1.5956622777521914,,0.0002538750000000001,1.618183071875257,,0.0002538750000000001,1.618183071875257,,0.0002538750000000001,1.618183071875257,,0.0002538750000000001,1.6312927932196846,,0.0002538750000000001,1.6312927932196846,,0.0002538750000000001,1.6312927932196846,,0.0002538750000000001,1.6364276095217143,,0.0002538750000000001,1.6364276095217143,,0.0002538750000000001,1.62,,0.0002538750000000001,1.62,,0.0002538750000000001,1.6331401724134702
0.0002695000000000001,1.7556917243609964,,0.0002695000000000001,1.7280535139941637,,0.0002695000000000001,1.4987003846022962,,0.0002695000000000001,1.6180883377023363,,0.0002695000000000001,1.6180883377023363,,0.0002695000000000001,1.6180883377023363,,0.0002695000000000001,1.7280534744978344,,0.0002695000000000001,1.7280534744978344,,0.0002695000000000001,1.7280534744978344,,0.0002695000000000001,1.7575270416299609,,0.0002695000000000001,1.7575270416299609,,0.0002695000000000001,1.62,,0.0002695000000000001,1.62,,0.0002695000000000001,1.7300196215382635
0.0002851250000000001,1.8710847555779584,,0.0002851250000000001,1.8201580148366847,,0.0002851250000000001,1.406399967646526,,0.0002851250000000001,1.6180037046130529,,0.0002851250000000001,1.6180037046130529,,0.0002851250000000001,1.6180037046130529,,0.0002851250000000001,1.8201579725117316,,0.0002851250000000001,1.8201579725117316,,0.0002851250000000001,1.8201579725117316,,0.0002851250000000001,1.8727898813205457,,0.0002851250000000001,1.8727898813205457,,0.0002851250000000001,1.62,,0.0002851250000000001,1.62,,0.0002851250000000001,1.8222298072674752
0.00030075000000000013,1.976262650409762,,0.00030075000000000013,1.9040600619468402,,0.00030075000000000013,1.322308080145822,,0.00030075000000000013,1.6179290532457413,,0.00030075000000000013,1.6179290532457413,,0.00030075000000000013,1.6179290532457413,,0.00030075000000000013,1.9040600171170068,,0.00030075000000000013,1.9040600171170068,,0.00030075000000000013,1.9040600171170068,,0.00030075000000000013,1.9777845509614609,,0.00030075000000000013,1.9777845509614609,,0.00030075000000000013,1.62,,0.00030075000000000013,1.62,,0.00030075000000000013,1.9062254667463203
0.00031637500000000014,2.067209688847392,,0.00031637500000000014,1.9765420506811504,,0.00031637500000000014,1.2496563261775622,,0.00031637500000000014,1.6178706056779513,,0.00031637500000000014,1.6178706056779513,,0.00031637500000000014,1.6178706056779513,,0.00031637500000000014,1.9765420039036032,,0.00031637500000000014,1.9765420039036032,,0.00031637500000000014,1.9765420039036032,,0.00031637500000000014,2.068478189156438,,0.00031637500000000014,2.068478189156438,,0.00031637500000000014,1.62,,0.00031637500000000014,1.62,,0.00031637500000000014,1.9787803178515817
0.00033200000000000016,2.140406231254715,,0.00033200000000000016,2.0348118668352453,,0.00033200000000000016,1.1912366719031735,,0.00033200000000000016,1.6178272731405345,,0.00033200000000000016,1.6178272731405345,,0.00033200000000000016,1.6178272731405345,,0.00033200000000000016,2.03481181860456,,0.00033200000000000016,2.03481181860456,,0.00033200000000000016,2.03481181860456,,0.00033200000000000016,2.1413835181957817,,0.00033200000000000016,2.1413835181957817,,0.00033200000000000016,1.62,,0.00033200000000000016,1.62,,0.00033200000000000016,2.0371045366276035
0.00034762500000000017,2.193062445621357,,0.00034762500000000017,2.076636864710852,,0.00034762500000000017,1.1492941518743014,,0.00034762500000000017,1.6178040374880729,,0.00034762500000000017,1.6178040374880729,,0.00034762500000000017,1.6178040374880729,,0.00034762500000000017,2.076636815715141,,0.00034762500000000017,2.076636815715141,,0.00034762500000000017,2.076636815715141,,0.00034762500000000017,2.1937007358080085,,0.00034762500000000017,2.1937007358080085,,0.00034762500000000017,1.62,,0.00034762500000000017,1.62,,0.00034762500000000017,2.078958287045723
0.0003632500000000002,2.2231331350716723,,0.0003632500000000002,2.100403133930567,,0.0003632500000000002,1.125440593614019,,0.0003632500000000002,1.6177984932071114,,0.0003632500000000002,1.6177984932071114,,0.0003632500000000002,1.6177984932071114,,0.0003632500000000002,2.10040308474942,,0.0003632500000000002,2.10040308474942,,0.0003632500000000002,2.10040308474942,,0.0003632500000000002,2.2234174619756852,,0.0003632500000000002,2.2234174619756852,,0.0003632500000000002,1.62,,0.0003632500000000002,1.62,,0.0003632500000000002,2.1027316619150005
0.0003788750000000002,2.2294830002025674,,0.0003788750000000002,2.1052039083490293,,0.0003788750000000002,1.1205926759890397,,0.0003788750000000002,1.6178141337674488,,0.0003788750000000002,1.6178141337674488,,0.0003788750000000002,1.6178141337674488,,0.0003788750000000002,2.105203859707291,,0.0003788750000000002,2.105203859707291,,0.0003788750000000002,2.105203859707291,,0.0003788750000000002,2.2293934975476377,,0.0003788750000000002,2.2293934975476377,,0.0003788750000000002,1.62,,0.0003788750000000002,1.62,,0.0003788750000000002,2.107512506240227
0.0003945000000000002,2.2118489735416658,,0.0003945000000000002,2.090848169690148,,0.0003945000000000002,1.1349367017549474,,0.0003945000000000002,1.6178470956427373,,0.0003945000000000002,1.6178470956427373,,0.0003945000000000002,1.6178470956427373,,0.0003945000000000002,2.0908481221536204,,0.0003945000000000002,2.0908481221536204,,0.0003945000000000002,2.0908481221536204,,0.0003945000000000002,2.2113974362707043,,0.0003945000000000002,2.2113974362707043,,0.0003945000000000002,1.62,,0.0003945000000000002,1.62,,0.0003945000000000002,2.0931156903108605
0.0004101250000000002,2.170926576062911,,0.0004101250000000002,2.0578940876837786,,0.0004101250000000002,1.1679214380457812,,0.0004101250000000002,1.6178993567782858,,0.0004101250000000002,1.6178993567782858,,0.0004101250000000002,1.6178993567782858,,0.0004101250000000002,2.057894041914271,,0.0004101250000000002,2.057894041914271,,0.0004101250000000002,2.057894041914271,,0.0004101250000000002,2.17012254892691,,0.0004101250000000002,2.17012254892691,,0.0004101250000000002,1.62,,0.0004101250000000002,1.62,,0.0004101250000000002,2.060095833583866
0.00042575000000000024,2.108271684186379,,0.00042575000000000024,2.0076016130788066,,0.00042575000000000024,1.2182792999439371,,0.00042575000000000024,1.6179656818718529,,0.00042575000000000024,1.6179656818718529,,0.00042575000000000024,1.6179656818718529,,0.00042575000000000024,2.0076015695315927,,0.00042575000000000024,2.0076015695315927,,0.00042575000000000024,2.0076015695315927,,0.00042575000000000024,2.10715335921002,,0.00042575000000000024,2.10715335921002,,0.00042575000000000024,1.62,,0.00042575000000000024,1.62,,0.00042575000000000024,2.0097205488643977
0.00044137500000000025,2.0263077869748427,,0.00044137500000000025,1.9419098735911884,,0.00044137500000000025,1.2840750630576836,,0.00044137500000000025,1.6180467314274938,,0.00044137500000000025,1.6180467314274938,,0.00044137500000000025,1.6180467314274938,,0.00044137500000000025,1.9419098327749043,,0.00044137500000000025,1.9419098327749043,,0.00044137500000000025,1.9419098327749043,,0.00044137500000000025,2.0249113286533795,,0.00044137500000000025,2.0249113286533795,,0.00044137500000000025,1.62,,0.00044137500000000025,1.62,,0.00044137500000000025,1.9439270069139372
0.00045700000000000027,1.928169990731653,,0.00045700000000000027,1.8633369799725994,,0.00045700000000000027,1.3627802331092482,,0.00045700000000000027,1.6181361989122443,,0.00045700000000000027,1.6181361989122443,,0.00045700000000000027,1.6181361989122443,,0.00045700000000000027,1.8633369421520518,,0.00045700000000000027,1.8633369421520518,,0.00045700000000000027,1.8633369421520518,,0.00045700000000000027,1.9265554246455792,,0.00045700000000000027,1.9265554246455792,,0.00045700000000000027,1.62,,0.00045700000000000027,1.62,,0.00045700000000000027,1.8652423743577373
0.0004726250000000003,1.8176434671446147,,0.0004726250000000003,1.774908790834461,,0.0004726250000000003,1.4513702145519174,,0.0004726250000000003,1.618233820606881,,0.0004726250000000003,1.618233820606881,,0.0004726250000000003,1.618233820606881,,0.0004726250000000003,1.7749087562983172,,0.0004726250000000003,1.7749087562983172,,0.0004726250000000003,1.7749087562983172,,0.0004726250000000003,1.8158669028356367,,0.0004726250000000003,1.8158669028356367,,0.0004726250000000003,1.62,,0.0004726250000000003,1.62,,0.0004726250000000003,1.7766916563496131
0.0004882500000000003,1.6989627585553289,,0.0004882500000000003,1.6800172352536809,,0.0004882500000000003,1.5464405440806832,,0.0004882500000000003,1.618332687778043,,0.0004882500000000003,1.618332687778043,,0.0004882500000000003,1.618332687778043,,0.0004882500000000003,1.6800172040253145,,0.0004882500000000003,1.6800172040253145,,0.0004882500000000003,1.6800172040253145,,0.0004882500000000003,1.6970980090150005,,0.0004882500000000003,1.6970980090150005,,0.0004882500000000003,1.62,,0.0004882500000000003,1.62,,0.0004882500000000003,1.6816766415807665
