X--Trace 1::[transient: TIME],Y--Trace 1::[PR10: V(8)],,X--Trace 2::[transient: TIME],Y--Trace 2::[PR8: V(5)],,X--Trace 3::[transient: TIME],Y--Trace 3::[PR1: V(1)],,X--Trace 4::[transient: TIME],Y--Trace 4::[PR2: V(2)],,X--Trace 5::[transient: TIME],Y--Trace 5::[PR3: V(2)],,X--Trace 6::[transient: TIME],Y--Trace 6::[PR4: V(2)],,X--Trace 7::[transient: TIME],Y--Trace 7::[PR5: V(3)],,X--Trace 8::[transient: TIME],Y--Trace 8::[PR6: V(3)],,X--Trace 9::[transient: TIME],Y--Trace 9::[PR7: V(3)],,X--Trace 10::[transient: TIME],Y--Trace 10::[PR9: V(7)],,X--Trace 11::[transient: TIME],Y--Trace 11::[PR14: V(7)],,X--Trace 12::[transient: TIME],Y--Trace 12::[PR11: V(4)],,X--Trace 13::[transient: TIME],Y--Trace 13::[PR12: V(4)],,X--Trace 14::[transient: TIME],Y--Trace 14::[PR13: V(6)]
0,1.568260503299871,,0,1.6064053862750962,,0,1.62,,0,1.6183075931279436,,0,1.6183075931279436,,0,1.6183075931279436,,0,1.6064053551668287,,0,1.6064053551668287,,0,1.6064053551668287,,0,1.5682605033798525,,0,1.5682605033798525,,0,1.62,,0,1.62,,0,1.6080596083840646
1.5625e-7,1.565514047841976,,1.5625e-7,1.605600876830713,,1.5625e-7,1.6209817470734227,,1.5625e-7,1.6183962213710776,,1.5625e-7,1.6183962213710776,,1.5625e-7,1.6183962213710776,,1.5625e-7,1.6056008673600004,,1.5625e-7,1.6056008673600004,,1.5625e-7,1.6056008673600004,,1.5625e-7,1.5613007655329696,,1.5625e-7,1.5613007655329696,,1.5625e-7,1.62,,1.5625e-7,1.62,,1.5625e-7,1.6064536999803705
3.125e-7,1.563402053529642,,3.125e-7,1.6046419196754813,,3.125e-7,1.6219634903619031,,3.125e-7,1.6184076028040741,,3.125e-7,1.6184076028040741,,3.125e-7,1.6184076028040741,,3.125e-7,1.6046418914118565,,3.125e-7,1.6046418914118565,,3.125e-7,1.6046418914118565,,3.125e-7,1.5601620853747105,,3.125e-7,1.5601620853747105,,3.125e-7,1.62,,3.125e-7,1.62,,3.125e-7,1.606190767016403
6.25e-7,1.5550103034732294,,6.25e-7,1.6026879018132068,,6.25e-7,1.6239269504443559,,6.25e-7,1.6184123375508375,,6.25e-7,1.6184123375508375,,6.25e-7,1.6184123375508375,,6.25e-7,1.6026879129060885,,6.25e-7,1.6026879129060885,,6.25e-7,1.6026879129060885,,6.25e-7,1.5453766558606583,,6.25e-7,1.5453766558606583,,6.25e-7,1.62,,6.25e-7,1.62,,6.25e-7,1.6027790812215068
0.00000125,1.5417217053044552,,0.00000125,1.5987648227391666,,0.00000125,1.6278536586559105,,0.00000125,1.6184140909178064,,0.00000125,1.6184140909178064,,0.00000125,1.6184140909178064,,0.00000125,1.5987647541838739,,0.00000125,1.5987647541838739,,0.00000125,1.5987647541838739,,0.00000125,1.541162466735583,,0.00000125,1.541162466735583,,0.00000125,1.62,,0.00000125,1.62,,0.00000125,1.6018058952987166
0.00000249132467668118,1.5031708433446032,,0.00000249132467668118,1.59098693124962,,0.00000249132467668118,1.6356508976785682,,0.00000249132467668118,1.6184237435079531,,0.00000249132467668118,1.6184237435079531,,0.00000249132467668118,1.6184237435079531,,0.00000249132467668118,1.5909869786608526,,0.00000249132467668118,1.5909869786608526,,0.00000249132467668118,1.5909869786608526,,0.00000249132467668118,1.4888417264509866,,0.00000249132467668118,1.4888417264509866,,0.00000249132467668118,1.62,,0.00000249132467668118,1.62,,0.00000249132467668118,1.5897328695505155
0.0000042640268770099375,1.4605738823851324,,0.0000042640268770099375,1.5798779796499098,,0.0000042640268770099375,1.6467788522694544,,0.0000042640268770099375,1.6184329766918293,,0.0000042640268770099375,1.6184329766918293,,0.0000042640268770099375,1.6184329766918293,,0.0000042640268770099375,1.5798778857745857,,0.0000042640268770099375,1.5798778857745857,,0.0000042640268770099375,1.5798778857745857,,0.0000042640268770099375,1.463383307583078,,0.0000042640268770099375,1.463383307583078,,0.0000042640268770099375,1.62,,0.0000042640268770099375,1.62,,0.0000042640268770099375,1.583856642287119
0.0000070825611888963624,1.3772340701737333,,0.0000070825611888963624,1.562253552332417,,0.0000070825611888963624,1.6644423161114237,,0.0000070825611888963624,1.618452059358618,,0.0000070825611888963624,1.618452059358618,,0.0000070825611888963624,1.618452059358618,,0.0000070825611888963624,1.5622536251572186,,0.0000070825611888963624,1.5622536251572186,,0.0000070825611888963624,1.5622536251572186,,0.0000070825611888963624,1.3602495095524822,,0.0000070825611888963624,1.3602495095524822,,0.0000070825611888963624,1.62,,0.0000070825611888963624,1.62,,0.0000070825611888963624,1.5600579599871938
0.000010395198671660172,1.291089658756952,,0.000010395198671660172,1.5416072746667326,,0.000010395198671660172,1.685129360326303,,0.000010395198671660172,1.618471467238554,,0.000010395198671660172,1.618471467238554,,0.000010395198671660172,1.618471467238554,,0.000010395198671660172,1.5416072569392716,,0.000010395198671660172,1.5416072569392716,,0.000010395198671660172,1.5416072569392716,,0.000010395198671660172,1.2853178441133002,,0.000010395198671660172,1.2853178441133002,,0.000010395198671660172,1.62,,0.000010395198671660172,1.62,,0.000010395198671660172,1.5427652633700322
0.000013927659190671474,1.1954384676453431,,0.000013927659190671474,1.5197177336734229,,0.000013927659190671474,1.7070639786635422,,0.000013927659190671474,1.61849264017603,,0.000013927659190671474,1.61849264017603,,0.000013927659190671474,1.61849264017603,,0.000013927659190671474,1.5197177273009281,,0.000013927659190671474,1.5197177273009281,,0.000013927659190671474,1.5197177273009281,,0.000013927659190671474,1.1886393946860518,,0.000013927659190671474,1.1886393946860518,,0.000013927659190671474,1.62,,0.000013927659190671474,1.62,,0.000013927659190671474,1.5204549491682218
0.00002024427725363392,1.0272307139236465,,0.00002024427725363392,1.4810316460897284,,0.00002024427725363392,1.7458309748550351,,0.00002024427725363392,1.6185296741545834,,0.00002024427725363392,1.6185296741545834,,0.00002024427725363392,1.6185296741545834,,0.00002024427725363392,1.4810316380624238,,0.00002024427725363392,1.4810316380624238,,0.00002024427725363392,1.4810316380624238,,0.00002024427725363392,1.0212636522814202,,0.00002024427725363392,1.0212636522814202,,0.00002024427725363392,1.62,,0.00002024427725363392,1.62,,0.00002024427725363392,1.4818297639679492
0.00003287751337955881,0.7013971351440836,,0.00003287751337955881,1.4062745478103476,,0.00003287751337955881,1.8207486042756755,,0.00003287751337955881,1.6185994879278827,,0.00003287751337955881,1.6185994879278827,,0.00003287751337955881,1.6185994879278827,,0.00003287751337955881,1.4062745541937582,,0.00003287751337955881,1.4062745541937582,,0.00003287751337955881,1.4062745541937582,,0.00003287751337955881,0.6949996201254948,,0.00003287751337955881,0.6949996201254948,,0.00003287751337955881,1.62,,0.00003287751337955881,1.62,,0.00003287751337955881,1.4065381879281795
0.00004850251337955881,0.33000111242418123,,0.00004850251337955881,1.3209838663167437,,0.00004850251337955881,1.9062290113624472,,0.00004850251337955881,1.6186751017423084,,0.00004850251337955881,1.6186751017423084,,0.00004850251337955881,1.6186751017423084,,0.00004850251337955881,1.3209838751879328,,0.00004850251337955881,1.3209838751879328,,0.00004850251337955881,1.3209838751879328,,0.00004850251337955881,0.32500360328468847,,0.00004850251337955881,0.32500360328468847,,0.00004850251337955881,1.62,,0.00004850251337955881,1.62,,0.00004850251337955881,1.3211545135881357
0.00006412751337955881,-0.0449807053020407,,0.00006412751337955881,1.2466770053446823,,0.00006412751337955881,1.9807097980616388,,0.00006412751337955881,1.6187366908843357,,0.00006412751337955881,1.6187366908843357,,0.00006412751337955881,1.6187366908843357,,0.00006412751337955881,1.2466773536659945,,0.00006412751337955881,1.2466773536659945,,0.00006412751337955881,1.2466773536659945,,0.00006412751337955881,-0.05148823828676078,,0.00006412751337955881,-0.05148823828676078,,0.00006412751337955881,1.62,,0.00006412751337955881,1.62,,0.00006412751337955881,1.2342746827733486
0.00006608063837955881,-0.055088303618827515,,0.00006608063837955881,1.238307882733978,,0.00006608063837955881,1.9890985373859456,,0.00006608063837955881,1.6187427846974676,,0.00006608063837955881,1.6187427846974676,,0.00006608063837955881,1.6187427846974676,,0.00006608063837955881,1.2383080024818611,,0.00006608063837955881,1.2383080024818611,,0.00006608063837955881,1.2383080024818611,,0.00006608063837955881,-0.051061708947341564,,0.00006608063837955881,-0.051061708947341564,,0.00006608063837955881,1.62,,0.00006608063837955881,1.62,,0.00006608063837955881,1.2343711590207251
0.00006614167353580881,-0.054086950349788,,0.00006614167353580881,1.238050498117346,,0.00006614167353580881,1.9893571289469554,,0.00006614167353580881,1.6187432683272196,,0.00006614167353580881,1.6187432683272196,,0.00006614167353580881,1.6187432683272196,,0.00006614167353580881,1.2380506058511704,,0.00006614167353580881,1.2380506058511704,,0.00006614167353580881,1.2380506058511704,,0.00006614167353580881,-0.050248426189244993,,0.00006614167353580881,-0.050248426189244993,,0.00006614167353580881,1.62,,0.00006614167353580881,1.62,,0.00006614167353580881,1.2345587369726736
0.00006626374384830881,-0.05244237550214327,,0.00006626374384830881,1.237535080247498,,0.00006626374384830881,1.9898736600671318,,0.00006626374384830881,1.6187435887590231,,0.00006626374384830881,1.6187435887590231,,0.00006626374384830881,1.6187435887590231,,0.00006626374384830881,1.2375351714133291,,0.00006626374384830881,1.2375351714133291,,0.00006626374384830881,1.2375351714133291,,0.00006626374384830881,-0.049822251649495775,,0.00006626374384830881,-0.049822251649495775,,0.00006626374384830881,1.62,,0.00006626374384830881,1.62,,0.00006626374384830881,1.2346569433373389
0.00006650788447330881,-0.04998150738322848,,0.00006650788447330881,1.2365073083873477,,0.00006650788447330881,1.9909041100487337,,0.00006650788447330881,1.6187444507854039,,0.00006650788447330881,1.6187444507854039,,0.00006650788447330881,1.6187444507854039,,0.00006650788447330881,1.236507359021666,,0.00006650788447330881,1.236507359021666,,0.00006650788447330881,1.236507359021666,,0.00006650788447330881,-0.047769415479352643,,0.00006650788447330881,-0.047769415479352643,,0.00006650788447330881,1.62,,0.00006650788447330881,1.62,,0.00006650788447330881,1.2351303283382191
0.00006654623236758204,-0.04963596272478399,,0.00006654623236758204,1.2363460906349923,,0.00006654623236758204,1.9910656488961067,,0.00006654623236758204,1.6187445365449162,,0.00006654623236758204,1.6187445365449162,,0.00006654623236758204,1.6187445365449162,,0.00006654623236758204,1.236346135415304,,0.00006654623236758204,1.236346135415304,,0.00006654623236758204,1.236346135415304,,0.00006654623236758204,-0.047528283955381945,,0.00006654623236758204,-0.047528283955381945,,0.00006654623236758204,1.62,,0.00006654623236758204,1.62,,0.00006654623236758204,1.2351859240403895
0.0000666229281561285,-0.048927970221777924,,0.0000666229281561285,1.2360241148069488,,0.0000666229281561285,1.991388468044895,,0.0000666229281561285,1.61874480718473,,0.0000666229281561285,1.61874480718473,,0.0000666229281561285,1.61874480718473,,0.0000666229281561285,1.23602414517692,,0.0000666229281561285,1.23602414517692,,0.0000666229281561285,1.23602414517692,,0.0000666229281561285,-0.046610222093717825,,0.0000666229281561285,-0.046610222093717825,,0.0000666229281561285,1.62,,0.0000666229281561285,1.62,,0.0000666229281561285,1.235397661304467
0.00006672907322690626,-0.04755324009852898,,0.00006672907322690626,1.2355790005043008,,0.00006672907322690626,1.991834672580473,,0.00006672907322690626,1.6187451378687245,,0.00006672907322690626,1.6187451378687245,,0.00006672907322690626,1.6187451378687245,,0.00006672907322690626,1.235579000493847,,0.00006672907322690626,1.235579000493847,,0.00006672907322690626,1.235579000493847,,0.00006672907322690626,-0.04366207418343788,,0.00006672907322690626,-0.04366207418343788,,0.00006672907322690626,1.62,,0.00006672907322690626,1.62,,0.00006672907322690626,1.2360777434660555
0.0000667556094946007,-0.04707770872530185,,0.0000667556094946007,1.2354678549843428,,0.0000667556094946007,1.9919461203766093,,0.0000667556094946007,1.618745233659438,,0.0000667556094946007,1.618745233659438,,0.0000667556094946007,1.618745233659438,,0.0000667556094946007,1.2354678439747007,,0.0000667556094946007,1.2354678439747007,,0.0000667556094946007,1.2354678439747007,,0.0000667556094946007,-0.0423780003387741,,0.0000667556094946007,-0.0423780003387741,,0.0000667556094946007,1.62,,0.0000667556094946007,1.62,,0.0000667556094946007,1.2363739741881696
0.00006680868202998957,-0.045675019523378844,,0.00006680868202998957,1.235245655542992,,0.00006680868202998957,1.9921688918768063,,0.00006680868202998957,1.6187454023927805,,0.00006680868202998957,1.6187454023927805,,0.00006680868202998957,1.6187454023927805,,0.00006680868202998957,1.2352456094215567,,0.00006680868202998957,1.2352456094215567,,0.00006680868202998957,1.2352456094215567,,0.00006680868202998957,-0.03770434767983745,,0.00006680868202998957,-0.03770434767983745,,0.00006680868202998957,1.62,,0.00006680868202998957,1.62,,0.00006680868202998957,1.237452209311895
0.00006689434070772615,-0.039642504075959616,,0.00006689434070772615,1.234887497221397,,0.00006689434070772615,1.992528094179077,,0.00006689434070772615,1.6187456841498313,,0.00006689434070772615,1.6187456841498313,,0.00006689434070772615,1.6187456841498313,,0.00006689434070772615,1.2348872928439847,,0.00006689434070772615,1.2348872928439847,,0.00006689434070772615,1.2348872928439847,,0.00006689434070772615,-0.013851413754391622,,0.00006689434070772615,-0.013851413754391622,,0.00006689434070772615,1.62,,0.00006689434070772615,1.62,,0.00006689434070772615,1.2429553798856994
0.00006697763211490462,-0.02046249906460839,,0.00006697763211490462,1.2345399858451924,,0.00006697763211490462,1.9928769556280659,,0.00006697763211490462,1.6187459547752114,,0.00006697763211490462,1.6187459547752114,,0.00006697763211490462,1.6187459547752114,,0.00006697763211490462,1.2345392862483977,,0.00006697763211490462,1.2345392862483977,,0.00006697763211490462,1.2345392862483977,,0.00006697763211490462,0.06414068432905574,,0.00006697763211490462,0.06414068432905574,,0.00006697763211490462,1.62,,0.00006697763211490462,1.62,,0.00006697763211490462,1.260949323639954
0.0000670807058571719,0.08436593012719917,,0.0000670807058571719,1.2341125666998178,,0.0000670807058571719,1.9933081087047568,,0.0000670807058571719,1.6187463036527279,,0.0000670807058571719,1.6187463036527279,,0.0000670807058571719,1.6187463036527279,,0.0000670807058571719,1.234109219416872,,0.0000670807058571719,1.234109219416872,,0.0000670807058571719,1.234109219416872,,0.0000670807058571719,0.4873238641379451,,0.0000670807058571719,0.4873238641379451,,0.0000670807058571719,1.62,,0.0000670807058571719,1.62,,0.0000670807058571719,1.3585843502731256
0.00006718900052428565,0.6566187882083834,,0.00006718900052428565,1.2336758411776085,,0.00006718900052428565,1.99376042598476,,0.00006718900052428565,1.6187467268512679,,0.00006718900052428565,1.6187467268512679,,0.00006718900052428565,1.6187467268512679,,0.00006718900052428565,1.233658157183717,,0.00006718900052428565,1.233658157183717,,0.00006718900052428565,1.233658157183717,,0.00006718900052428565,2.78691597635474,,0.00006718900052428565,2.78691597635474,,0.00006718900052428565,1.62,,0.00006718900052428565,1.62,,0.00006718900052428565,1.8891369146537045
0.00006726517877307061,1.2730637217367942,,0.00006726517877307061,1.2333601791319135,,0.00006726517877307061,1.9940781870848645,,0.00006726517877307061,1.6187468956041429,,0.00006726517877307061,1.6187468956041429,,0.00006726517877307061,1.6187468956041429,,0.00006726517877307061,1.2333410213429543,,0.00006726517877307061,1.2333410213429543,,0.00006726517877307061,1.2333410213429543,,0.00006726517877307061,3.0221376907724187,,0.00006726517877307061,3.0221376907724187,,0.00006726517877307061,1.62,,0.00006726517877307061,1.62,,0.00006726517877307061,1.943406251961306
0.00006733584168634529,1.7314797323419395,,0.00006733584168634529,1.233066848232358,,0.00006733584168634529,1.9943726356887703,,0.00006733584168634529,1.6187470979358178,,0.00006733584168634529,1.6187470979358178,,0.00006733584168634529,1.6187470979358178,,0.00006733584168634529,1.2330472445398017,,0.00006733584168634529,1.2330472445398017,,0.00006733584168634529,1.2330472445398017,,0.00006733584168634529,3.0924478675806975,,0.00006733584168634529,3.0924478675806975,,0.00006733584168634529,1.62,,0.00006733584168634529,1.62,,0.00006733584168634529,1.959627866162555
0.00006743407168709008,2.208476909805962,,0.00006743407168709008,1.2326596015147275,,0.00006743407168709008,1.9947814644320927,,0.00006743407168709008,1.6187474391164591,,0.00006743407168709008,1.6187474391164591,,0.00006743407168709008,1.6187474391164591,,0.00006743407168709008,1.232639469858582,,0.00006743407168709008,1.232639469858582,,0.00006743407168709008,1.232639469858582,,0.00006743407168709008,3.1754375657937186,,0.00006743407168709008,3.1754375657937186,,0.00006743407168709008,1.62,,0.00006743407168709008,1.62,,0.00006743407168709008,1.9787748223842028
0.00006763053168857965,2.797444011787067,,0.00006763053168857965,1.2318462072857623,,0.00006763053168857965,1.9955974080995804,,0.00006763053168857965,1.6187480432600625,,0.00006763053168857965,1.6187480432600625,,0.00006763053168857965,1.6187480432600625,,0.00006763053168857965,1.2318254790902985,,0.00006763053168857965,1.2318254790902985,,0.00006763053168857965,1.2318254790902985,,0.00006763053168857965,3.2676757949680737,,0.00006763053168857965,3.2676757949680737,,0.00006763053168857965,1.62,,0.00006763053168857965,1.62,,0.00006763053168857965,2.0000554688552894
0.00006799145776020106,3.233948457658407,,0.00006799145776020106,1.2303573902253815,,0.00006799145776020106,1.9970904476123699,,0.00006799145776020106,1.6187492121361866,,0.00006799145776020106,1.6187492121361866,,0.00006799145776020106,1.6187492121361866,,0.00006799145776020106,1.2303361494839398,,0.00006799145776020106,1.2303361494839398,,0.00006799145776020106,1.2303361494839398,,0.00006799145776020106,3.3435036389426522,,0.00006799145776020106,3.3435036389426522,,0.00006799145776020106,1.62,,0.00006799145776020106,1.62,,0.00006799145776020106,2.0175498212680325
0.00006839066759193994,3.3395248240254265,,0.00006839066759193994,1.2287191476270118,,0.00006839066759193994,1.998732818962909,,0.00006839066759193994,1.6187504511345248,,0.00006839066759193994,1.6187504511345248,,0.00006839066759193994,1.6187504511345248,,0.00006839066759193994,1.2286977801258177,,0.00006839066759193994,1.2286977801258177,,0.00006839066759193994,1.2286977801258177,,0.00006839066759193994,3.3567533693586364,,0.00006839066759193994,3.3567533693586364,,0.00006839066759193994,1.62,,0.00006839066759193994,1.62,,0.00006839066759193994,2.020606367937014
0.00006897545430308938,3.362784936883755,,0.00006897545430308938,1.226336567964274,,0.00006897545430308938,2.0011214450616914,,0.00006897545430308938,1.6187522955294102,,0.00006897545430308938,1.6187522955294102,,0.00006897545430308938,1.6187522955294102,,0.00006897545430308938,1.226315087114446,,0.00006897545430308938,1.226315087114446,,0.00006897545430308938,1.226315087114446,,0.00006897545430308938,3.364624708411329,,0.00006897545430308938,3.364624708411329,,0.00006897545430308938,1.62,,0.00006897545430308938,1.62,,0.00006897545430308938,2.022421862000704
0.00006977557267816571,3.3625685653990094,,0.00006977557267816571,1.2231098001160612,,0.00006977557267816571,2.0043562471365672,,0.00006977557267816571,1.6187547349649416,,0.00006977557267816571,1.6187547349649416,,0.00006977557267816571,1.6187547349649416,,0.00006977557267816571,1.2230882572392516,,0.00006977557267816571,1.2230882572392516,,0.00006977557267816571,1.2230882572392516,,0.00006977557267816571,3.360599152785086,,0.00006977557267816571,3.360599152785086,,0.00006977557267816571,1.62,,0.00006977557267816571,1.62,,0.00006977557267816571,2.0214923574920127
