X--Trace 1::[transient: TIME],Y--Trace 1::[PR10: V(8)],,X--Trace 2::[transient: TIME],Y--Trace 2::[PR8: V(5)],,X--Trace 3::[transient: TIME],Y--Trace 3::[PR1: V(1)],,X--Trace 4::[transient: TIME],Y--Trace 4::[PR2: V(2)],,X--Trace 5::[transient: TIME],Y--Trace 5::[PR3: V(2)],,X--Trace 6::[transient: TIME],Y--Trace 6::[PR4: V(2)],,X--Trace 7::[transient: TIME],Y--Trace 7::[PR5: V(3)],,X--Trace 8::[transient: TIME],Y--Trace 8::[PR6: V(3)],,X--Trace 9::[transient: TIME],Y--Trace 9::[PR7: V(3)],,X--Trace 10::[transient: TIME],Y--Trace 10::[PR9: V(7)],,X--Trace 11::[transient: TIME],Y--Trace 11::[PR14: V(7)],,X--Trace 12::[transient: TIME],Y--Trace 12::[PR11: V(4)],,X--Trace 13::[transient: TIME],Y--Trace 13::[PR12: V(4)],,X--Trace 14::[transient: TIME],Y--Trace 14::[PR13: V(6)]
0,1.5602601914913945,,0,1.6064053860585938,,0,1.62,,0,1.6183075931279356,,0,1.6183075931279356,,0,1.6183075931279356,,0,1.6064053551665514,,0,1.6064053551665514,,0,1.6064053551665514,,0,1.5602601915709677,,0,1.5602601915709677,,0,1.62,,0,1.62,,0,1.608051599839425
1.5625e-7,1.5565174794430687,,1.5625e-7,1.60560086871512,,1.5625e-7,1.6209817470734227,,1.5625e-7,1.6183962213464023,,1.5625e-7,1.6183962213464023,,1.5625e-7,1.6183962213464023,,1.5625e-7,1.6056008673103856,,1.5625e-7,1.6056008673103856,,1.5625e-7,1.6056008673103856,,1.5625e-7,1.550775859823355,,1.5625e-7,1.550775859823355,,1.5625e-7,1.62,,1.5625e-7,1.62,,1.5625e-7,1.6061549519235818
3.125e-7,1.5550355822614041,,3.125e-7,1.6046419295297036,,3.125e-7,1.6219634903619031,,3.125e-7,1.6184076028554062,,3.125e-7,1.6184076028554062,,3.125e-7,1.6184076028554062,,3.125e-7,1.6046418915142566,,3.125e-7,1.6046418915142566,,3.125e-7,1.6046418915142566,,3.125e-7,1.5527622335122626,,3.125e-7,1.5527622335122626,,3.125e-7,1.62,,3.125e-7,1.62,,3.125e-7,1.606551955471228
6.25e-7,1.541790065624499,,6.25e-7,1.6026878465329322,,6.25e-7,1.6239269504443559,,6.25e-7,1.6184123373158463,,6.25e-7,1.6184123373158463,,6.25e-7,1.6184123373158463,,6.25e-7,1.6026879124358382,,6.25e-7,1.6026879124358382,,6.25e-7,1.6026879124358382,,6.25e-7,1.5237437323692347,,6.25e-7,1.5237437323692347,,6.25e-7,1.62,,6.25e-7,1.62,,6.25e-7,1.6007490250353222
0.00000125,1.5346710176004668,,0.00000125,1.598764922027872,,0.00000125,1.6278536586559105,,0.00000125,1.6184140913694998,,0.00000125,1.6184140913694998,,0.00000125,1.6184140913694998,,0.00000125,1.598764755086996,,0.00000125,1.598764755086996,,0.00000125,1.598764755086996,,0.00000125,1.5472567564162767,,0.00000125,1.5472567564162767,,0.00000125,1.62,,0.00000125,1.62,,0.00000125,1.6054499050650204
0.0000019900915528477348,1.4907955669754294,,0.0000019900915528477348,1.59412840413363,,0.0000019900915528477348,1.6325028106761688,,0.0000019900915528477348,1.6184205676428178,,0.0000019900915528477348,1.6184205676428178,,0.0000019900915528477348,1.6184205676428178,,0.0000019900915528477348,1.5941286382502862,,0.0000019900915528477348,1.5941286382502862,,0.0000019900915528477348,1.5941286382502862,,0.0000019900915528477348,1.4497891674528283,,0.0000019900915528477348,1.4497891674528283,,0.0000019900915528477348,1.62,,0.0000019900915528477348,1.62,,0.0000019900915528477348,1.5859593581560953
0.000002979081828828928,1.4910066588221176,,0.000002979081828828928,1.5879272688026356,,0.000002979081828828928,1.638713751326205,,0.000002979081828828928,1.6184250820571202,,0.000002979081828828928,1.6184250820571202,,0.000002979081828828928,1.6184250820571202,,0.000002979081828828928,1.587926891047778,,0.000002979081828828928,1.587926891047778,,0.000002979081828828928,1.587926891047778,,0.000002979081828828928,1.532115382486985,,0.000002979081828828928,1.532115382486985,,0.000002979081828828928,1.62,,0.000002979081828828928,1.62,,0.000002979081828828928,1.6024200687279044
0.000004021086248288521,1.4131429671819746,,0.000004021086248288521,1.5814018158990553,,0.000004021086248288521,1.645254479672703,,0.000004021086248288521,1.6184330403062255,,0.000004021086248288521,1.6184330403062255,,0.000004021086248288521,1.6184330403062255,,0.000004021086248288521,1.5814023196619196,,0.000004021086248288521,1.5814023196619196,,0.000004021086248288521,1.5814023196619196,,0.000004021086248288521,1.3362111194296766,,0.000004021086248288521,1.3362111194296766,,0.000004021086248288521,1.62,,0.000004021086248288521,1.62,,0.000004021086248288521,1.5632457460470928
0.000004699927393125224,1.4263144285579124,,0.000004699927393125224,1.5771509042975203,,0.000004699927393125224,1.6495133496528058,,0.000004699927393125224,1.6184365854893534,,0.000004699927393125224,1.6184365854893534,,0.000004699927393125224,1.6184365854893534,,0.000004699927393125224,1.5771507336845092,,0.000004699927393125224,1.5771507336845092,,0.000004699927393125224,1.5771507336845092,,0.000004699927393125224,1.4398657475105476,,0.000004699927393125224,1.4398657475105476,,0.000004699927393125224,1.62,,0.000004699927393125224,1.62,,0.000004699927393125224,1.5839716762120115
0.000005391833564599248,1.3890591549335798,,0.000005391833564599248,1.5728206125604305,,0.000005391833564599248,1.6538519740214788,,0.000005391833564599248,1.61844078983699,,0.000005391833564599248,1.61844078983699,,0.000005391833564599248,1.61844078983699,,0.000005391833564599248,1.5728207453797816,,0.000005391833564599248,1.5728207453797816,,0.000005391833564599248,1.5728207453797816,,0.000005391833564599248,1.3620116555241057,,0.000005391833564599248,1.3620116555241057,,0.000005391833564599248,1.62,,0.000005391833564599248,1.62,,0.000005391833564599248,1.5684031055327872
0.000006052070317317208,1.3889067105555402,,0.000006052070317317208,1.5686918112127948,,0.000006052070317317208,1.6579896326151584,,0.000006052070317317208,1.6184448948188623,,0.000006052070317317208,1.6184448948188623,,0.000006052070317317208,1.6184448948188623,,0.000006052070317317208,1.5686915419417473,,0.000006052070317317208,1.5686915419417473,,0.000006052070317317208,1.5686915419417473,,0.000006052070317317208,1.415843519760339,,0.000006052070317317208,1.415843519760339,,0.000006052070317317208,1.62,,0.000006052070317317208,1.62,,0.000006052070317317208,1.579166499897838
0.000007028522085280907,1.3258628075818728,,0.000007028522085280907,1.5625890503360997,,0.000007028522085280907,1.6641041121031277,,0.000007028522085280907,1.6184508643622464,,0.000007028522085280907,1.6184508643622464,,0.000007028522085280907,1.6184508643622464,,0.000007028522085280907,1.5625894146581722,,0.000007028522085280907,1.5625894146581722,,0.000007028522085280907,1.5625894146581722,,0.000007028522085280907,1.2679738838518357,,0.000007028522085280907,1.2679738838518357,,0.000007028522085280907,1.62,,0.000007028522085280907,1.62,,0.000007028522085280907,1.549597266128993
0.000007962005577700708,1.3443864813280706,,0.000007962005577700708,1.5567627087309335,,0.000007962005577700708,1.6699433310425615,,0.000007962005577700708,1.6184566105572893,,0.000007962005577700708,1.6184566105572893,,0.000007962005577700708,1.6184566105572893,,0.000007962005577700708,1.556762139328422,,0.000007962005577700708,1.556762139328422,,0.000007962005577700708,1.556762139328422,,0.000007962005577700708,1.4117884274020076,,0.000007962005577700708,1.4117884274020076,,0.000007962005577700708,1.62,,0.000007962005577700708,1.62,,0.000007962005577700708,1.578353258257256
0.000008938716317666966,1.2434144604501576,,0.000008938716317666966,1.5506714762751126,,0.000008938716317666966,1.6760455790169826,,0.000008938716317666966,1.6184625408842235,,0.000008938716317666966,1.6184625408842235,,0.000008938716317666966,1.6184625408842235,,0.000008938716317666966,1.5506722829475084,,0.000008938716317666966,1.5506722829475084,,0.000008938716317666966,1.5506722829475084,,0.000008938716317666966,1.1264523071426646,,0.000008938716317666966,1.1264523071426646,,0.000008938716317666966,1.62,,0.000008938716317666966,1.62,,0.000008938716317666966,1.5212962275932564
0.000009956313920593792,1.3134261726331853,,0.000009956313920593792,1.544337805617046,,0.000009956313920593792,1.6823942840382855,,0.000009956313920593792,1.6184687545444234,,0.000009956313920593792,1.6184687545444234,,0.000009956313920593792,1.6184687545444234,,0.000009956313920593792,1.5443366223128996,,0.000009956313920593792,1.5443366223128996,,0.000009956313920593792,1.5443366223128996,,0.000009956313920593792,1.4633715158152425,,0.000009956313920593792,1.4633715158152425,,0.000009956313920593792,1.62,,0.000009956313920593792,1.62,,0.000009956313920593792,1.5886653285039825
0.000010985190846718597,1.135118622214929,,0.000010985190846718597,1.5379393262774894,,0.000010985190846718597,1.688802983047049,,0.000010985190846718597,1.6184749481168486,,0.000010985190846718597,1.6184749481168486,,0.000010985190846718597,1.6184749481168486,,0.000010985190846718597,1.5379410005517298,,0.000010985190846718597,1.5379410005517298,,0.000010985190846718597,1.5379410005517298,,0.000010985190846718597,0.9020917778624772,,0.000010985190846718597,0.9020917778624772,,0.000010985190846718597,1.62,,0.000010985190846718597,1.62,,0.000010985190846718597,1.4764305486224756
0.00001207010574557639,1.3083533512431815,,0.00001207010574557639,1.5312120419846948,,0.00001207010574557639,1.6955482539831135,,0.00001207010574557639,1.6184815184343617,,0.00001207010574557639,1.6184815184343617,,0.00001207010574557639,1.6184815184343617,,0.00001207010574557639,1.5312096699097693,,0.00001207010574557639,1.5312096699097693,,0.00001207010574557639,1.5312096699097693,,0.00001207010574557639,1.6179288072137221,,0.00001207010574557639,1.6179288072137221,,0.00001207010574557639,1.62,,0.00001207010574557639,1.62,,0.00001207010574557639,1.6195679809768453
0.0000131798856005416,0.9840545416863269,,0.0000131798856005416,1.524335162288287,,0.0000131798856005416,1.7024335801727857,,0.0000131798856005416,1.6184881266975477,,0.0000131798856005416,1.6184881266975477,,0.0000131798856005416,1.6184881266975477,,0.0000131798856005416,1.524338454516339,,0.0000131798856005416,1.524338454516339,,0.0000131798856005416,1.524338454516339,,0.0000131798856005416,0.5343892755825125,,0.0000131798856005416,0.5343892755825125,,0.0000131798856005416,1.62,,0.0000131798856005416,1.62,,0.0000131798856005416,1.4029020333308584
0.000014354683604134972,1.347368144477006,,0.000014354683604134972,1.5170868952613803,,0.000014354683604134972,1.7097047967582537,,0.000014354683604134972,1.6184951797071458,,0.000014354683604134972,1.6184951797071458,,0.000014354683604134972,1.6184951797071458,,0.000014354683604134972,1.5170823744784077,,0.000014354683604134972,1.5170823744784077,,0.000014354683604134972,1.5170823744784077,,0.000014354683604134972,1.9452908478464557,,0.000014354683604134972,1.9452908478464557,,0.000014354683604134972,1.62,,0.000014354683604134972,1.62,,0.000014354683604134972,1.6850244725139174
0.000014508021981772973,1.9231667203544613,,0.000014508021981772973,1.5161475858145586,,0.000014508021981772973,1.7106524505299052,,0.000014508021981772973,1.618496083016938,,0.000014508021981772973,1.618496083016938,,0.000014508021981772973,1.618496083016938,,0.000014508021981772973,1.5161366681895254,,0.000014508021981772973,1.5161366681895254,,0.000014508021981772973,1.5161366681895254,,0.000014508021981772973,3.125431560072855,,0.000014508021981772973,3.125431560072855,,0.000014508021981772973,1.62,,0.000014508021981772973,1.62,,0.000014508021981772973,1.9210052300018847
0.000014759821181273207,2.801172887942825,,0.000014759821181273207,1.5145961465412419,,0.000014759821181273207,1.712207874884429,,0.000014759821181273207,1.6184975456509398,,0.000014759821181273207,1.6184975456509398,,0.000014759821181273207,1.6184975456509398,,0.000014759821181273207,1.514584403594208,,0.000014759821181273207,1.514584403594208,,0.000014759821181273207,1.514584403594208,,0.000014759821181273207,3.2705422616689406,,0.000014759821181273207,3.2705422616689406,,0.000014759821181273207,1.62,,0.000014759821181273207,1.62,,0.000014759821181273207,1.9500212567118418
0.000014945891806994885,3.0759612353195944,,0.000014945891806994885,1.5134500155569188,,0.000014945891806994885,1.7133566856929312,,0.000014945891806994885,1.6184986633390244,,0.000014945891806994885,1.6184986633390244,,0.000014945891806994885,1.6184986633390244,,0.000014945891806994885,1.5134380039796287,,0.000014945891806994885,1.5134380039796287,,0.000014945891806994885,1.5134380039796287,,0.000014945891806994885,3.3145678426343617,,0.000014945891806994885,3.3145678426343617,,0.000014945891806994885,1.62,,0.000014945891806994885,1.62,,0.000014945891806994885,1.958824383018255
0.000015153271704914925,3.227895106290788,,0.000015153271704914925,1.5121730593656455,,0.000015153271704914925,1.7146364594592047,,0.000015153271704914925,1.618499885604169,,0.000015153271704914925,1.618499885604169,,0.000015153271704914925,1.618499885604169,,0.000015153271704914925,1.5121608732361342,,0.000015153271704914925,1.5121608732361342,,0.000015153271704914925,1.5121608732361342,,0.000015153271704914925,3.340513948215786,,0.000015153271704914925,3.340513948215786,,0.000015153271704914925,1.62,,0.000015153271704914925,1.62,,0.000015153271704914925,1.9640123111369256
0.000015568031500755008,3.3404743860289634,,0.000015568031500755008,1.5096209239552023,,0.000015568031500755008,1.7171940701915647,,0.000015568031500755008,1.618502339163044,,0.000015568031500755008,1.618502339163044,,0.000015568031500755008,1.618502339163044,,0.000015568031500755008,1.50960857463182,,0.000015568031500755008,1.50960857463182,,0.000015568031500755008,1.50960857463182,,0.000015568031500755008,3.3579802750608447,,0.000015568031500755008,3.3579802750608447,,0.000015568031500755008,1.62,,0.000015568031500755008,1.62,,0.000015568031500755008,1.9675043676535842
0.000016257554504653952,3.364002210133641,,0.000016257554504653952,1.5053838355304041,,0.000016257554504653952,1.7214401273565425,,0.000016257554504653952,1.6185064047010664,,0.000016257554504653952,1.6185064047010664,,0.000016257554504653952,1.6185064047010664,,0.000016257554504653952,1.5053713455126099,,0.000016257554504653952,1.5053713455126099,,0.000016257554504653952,1.5053713455126099,,0.000016257554504653952,3.3628543527377897,,0.000016257554504653952,3.3628543527377897,,0.000016257554504653952,1.62,,0.000016257554504653952,1.62,,0.000016257554504653952,1.968478141012721
0.000017268061757309358,3.3615242535868095,,0.000017268061757309358,1.4991881124381468,,0.000017268061757309358,1.7276489452374713,,0.000017268061757309358,1.61851233478953,,0.000017268061757309358,1.61851233478953,,0.000017268061757309358,1.61851233478953,,0.000017268061757309358,1.4991754624983769,,0.000017268061757309358,1.4991754624983769,,0.000017268061757309358,1.4991754624983769,,0.000017268061757309358,3.3614965310758134,,0.000017268061757309358,3.3614965310758134,,0.000017268061757309358,1.62,,0.000017268061757309358,1.62,,0.000017268061757309358,1.9682053920865836
0.000019016775416929128,3.362388737607458,,0.000019016775416929128,1.4885078304629074,,0.000019016775416929128,1.7383519088348534,,0.000019016775416929128,1.6185225238739749,,0.000019016775416929128,1.6185225238739749,,0.000019016775416929128,1.6185225238739749,,0.000019016775416929128,1.4884948859641685,,0.000019016775416929128,1.4884948859641685,,0.000019016775416929128,1.4884948859641685,,0.000019016775416929128,3.362653453886351,,0.000019016775416929128,3.362653453886351,,0.000019016775416929128,1.62,,0.000019016775416929128,1.62,,0.000019016775416929128,1.9684345947508468
0.00002251420273616867,3.36207719147886,,0.00002251420273616867,1.4673237764121536,,0.00002251420273616867,1.75958124589175,,0.00002251420273616867,1.6185425914122331,,0.00002251420273616867,1.6185425914122331,,0.00002251420273616867,1.6185425914122331,,0.00002251420273616867,1.467310264823539,,0.00002251420273616867,1.467310264823539,,0.00002251420273616867,1.467310264823539,,0.00002251420273616867,3.361769771234742,,0.00002251420273616867,3.361769771234742,,0.00002251420273616867,1.62,,0.00002251420273616867,1.62,,0.00002251420273616867,1.9682536575978689
0.000029509057374647756,3.3625633390311886,,0.000029509057374647756,1.4258043452080846,,0.000029509057374647756,1.8011907255660282,,0.000029509057374647756,1.6185813634872528,,0.000029509057374647756,1.6185813634872528,,0.000029509057374647756,1.6185813634872528,,0.000029509057374647756,1.4257897066837442,,0.000029509057374647756,1.4257897066837442,,0.000029509057374647756,1.4257897066837442,,0.000029509057374647756,3.3629040782715633,,0.000029509057374647756,3.3629040782715633,,0.000029509057374647756,1.62,,0.000029509057374647756,1.62,,0.000029509057374647756,1.9684721714153544
0.000043498766651605924,3.3627949705484403,,0.000043498766651605924,1.3472684377675843,,0.000043498766651605924,1.8799020511787634,,0.000043498766651605924,1.618652395143036,,0.000043498766651605924,1.618652395143036,,0.000043498766651605924,1.618652395143036,,0.000043498766651605924,1.3472516815623792,,0.000043498766651605924,1.3472516815623792,,0.000043498766651605924,1.3472516815623792,,0.000043498766651605924,3.3624621692105303,,0.000043498766651605924,3.3624621692105303,,0.000043498766651605924,1.62,,0.000043498766651605924,1.62,,0.000043498766651605924,1.9683681032357123
0.000059123766651605924,3.363127131659073,,0.000059123766651605924,1.2691126734292861,,0.000059123766651605924,1.9582395216259647,,0.000059123766651605924,1.618718566401125,,0.000059123766651605924,1.618718566401125,,0.000059123766651605924,1.618718566401125,,0.000059123766651605924,1.2690938019774278,,0.000059123766651605924,1.2690938019774278,,0.000059123766651605924,1.2690938019774278,,0.000059123766651605924,3.363470124574337,,0.000059123766651605924,3.363470124574337,,0.000059123766651605924,1.62,,0.000059123766651605924,1.62,,0.000059123766651605924,1.9685540259703156
0.00007474876665160592,3.3634316815165177,,0.00007474876665160592,1.2039352754401988,,0.00007474876665160592,2.023578636943989,,0.00007474876665160592,1.6187692728449707,,0.00007474876665160592,1.6187692728449707,,0.00007474876665160592,1.6187692728449707,,0.00007474876665160592,1.2039146465417772,,0.00007474876665160592,1.2039146465417772,,0.00007474876665160592,1.2039146465417772,,0.00007474876665160592,3.363098033021214,,0.00007474876665160592,3.363098033021214,,0.00007474876665160592,1.62,,0.00007474876665160592,1.62,,0.00007474876665160592,1.9684665896677027
0.00009037376665160592,3.363481681018069,,0.00009037376665160592,1.1542396135647526,,0.00009037376665160592,2.073408451573763,,0.00009037376665160592,1.61880187987116,,0.00009037376665160592,1.61880187987116,,0.00009037376665160592,1.61880187987116,,0.00009037376665160592,1.1542176392574346,,0.00009037376665160592,1.1542176392574346,,0.00009037376665160592,1.1542176392574346,,0.00009037376665160592,3.3638168639211523,,0.00009037376665160592,3.3638168639211523,,0.00009037376665160592,1.62,,0.00009037376665160592,1.62,,0.00009037376665160592,1.9686003899547224
0.00010599876665160593,3.363728028322987,,0.00010599876665160593,1.1219368139579604,,0.00010599876665160593,2.1058140336839464,,0.00010599876665160593,1.6188158164447515,,0.00010599876665160593,1.6188158164447515,,0.00010599876665160593,1.6188158164447515,,0.00010599876665160593,1.121913969889165,,0.00010599876665160593,1.121913969889165,,0.00010599876665160593,1.121913969889165,,0.00010599876665160593,3.3634004040924625,,0.00010599876665160593,3.3634004040924625,,0.00010599876665160593,1.62,,0.00010599876665160593,1.62,,0.00010599876665160593,1.9685106553763376
0.00012162376665160593,3.363621350628606,,0.00012162376665160593,1.108266907739842,,0.00012162376665160593,2.1195500549273047,,0.00012162376665160593,1.6188098688892616,,0.00012162376665160593,1.6188098688892616,,0.00012162376665160593,1.6188098688892616,,0.00012162376665160593,1.1082436917096696,,0.00012162376665160593,1.1082436917096696,,0.00012162376665160593,1.1082436917096696,,0.00012162376665160593,3.363945702159877,,0.00012162376665160593,3.363945702159877,,0.00012162376665160593,1.62,,0.00012162376665160593,1.62,,0.00012162376665160593,1.9686169597472782
