X--Trace 1::[transient: TIME],Y--Trace 1::[PR1: V(1)],,X--Trace 2::[transient: TIME],Y--Trace 2::[PR2: V(2)],,X--Trace 3::[transient: TIME],Y--Trace 3::[PR3: V(2)],,X--Trace 4::[transient: TIME],Y--Trace 4::[PR4: V(2)],,X--Trace 5::[transient: TIME],Y--Trace 5::[PR5: V(3)],,X--Trace 6::[transient: TIME],Y--Trace 6::[PR6: V(3)],,X--Trace 7::[transient: TIME],Y--Trace 7::[PR7: V(3)],,X--Trace 8::[transient: TIME],Y--Trace 8::[PR8: V(5)],,X--Trace 9::[transient: TIME],Y--Trace 9::[PR9: V(7)],,X--Trace 10::[transient: TIME],Y--Trace 10::[PR14: V(7)],,X--Trace 11::[transient: TIME],Y--Trace 11::[PR10: V(8)],,X--Trace 12::[transient: TIME],Y--Trace 12::[PR11: V(4)],,X--Trace 13::[transient: TIME],Y--Trace 13::[PR12: V(4)],,X--Trace 14::[transient: TIME],Y--Trace 14::[PR13: V(6)]
0,1.62,,0,1.6183075931279796,,0,1.6183075931279796,,0,1.6183075931279796,,0,1.6064053551671493,,0,1.6064053551671493,,0,1.6064053551671493,,0,1.6064053872601938,,0,1.6046972001676671,,0,1.6046972001676671,,0,1.6046972000858277,,0,1.62,,0,1.62,,0,1.6080960825755928
1e-7,1.6206283183653514,,1e-7,1.6183904253995454,,1e-7,1.6183904253995454,,1e-7,1.6183904253995454,,1e-7,1.6059427027187443,,1e-7,1.6059427027187443,,1e-7,1.6059427027187443,,1e-7,1.6059427309854304,,1e-7,1.6039200011701573,,1e-7,1.6039200011701573,,1e-7,1.604468410272022,,1e-7,1.62,,1e-7,1.62,,1e-7,1.6074917047035817
2e-7,1.6212566357385019,,2e-7,1.6184051219000453,,2e-7,1.6184051219000453,,2e-7,1.6184051219000453,,2e-7,1.6053437804809931,,2e-7,1.6053437804809931,,2e-7,1.6053437804809931,,2e-7,1.605343808941503,,2e-7,1.6031591877028208,,2e-7,1.6031591877028208,,2e-7,1.6040830047227108,,2e-7,1.62,,2e-7,1.62,,2e-7,1.6068999553261185
4e-7,1.6225132635394095,,4e-7,1.6184117918535401,,4e-7,1.6184117918535401,,4e-7,1.6184117918535401,,4e-7,1.6041004981725258,,4e-7,1.6041004981725258,,4e-7,1.6041004981725258,,4e-7,1.604100526324792,,4e-7,1.6015459757772323,,4e-7,1.6015459757772323,,4e-7,1.6030642098657975,,4e-7,1.62,,4e-7,1.62,,4e-7,1.605645243848182
8e-7,1.6250264635783653,,8e-7,1.618410689729173,,8e-7,1.618410689729173,,8e-7,1.618410689729173,,8e-7,1.601585112695567,,8e-7,1.601585112695567,,8e-7,1.601585112695567,,8e-7,1.6015851414088789,,8e-7,1.5983386142939646,,8e-7,1.5983386142939646,,8e-7,1.600224169008956,,8e-7,1.62,,8e-7,1.62,,8e-7,1.6031506132577462
0.0000016,1.6300524191627288,,0.0000016,1.618418662872275,,0.0000016,1.618418662872275,,0.0000016,1.618418662872275,,0.0000016,1.5965751714225032,,0.0000016,1.5965751714225032,,0.0000016,1.5965751714225032,,0.0000016,1.596575199386092,,0.0000016,1.5918614668122968,,0.0000016,1.5918614668122968,,0.0000016,1.5938160045102556,,0.0000016,1.62,,0.0000016,1.62,,0.0000016,1.5981128535974254
0.0000032,1.6401007746814766,,0.0000032,1.6184259299966426,,0.0000032,1.6184259299966426,,0.0000032,1.6184259299966426,,0.0000032,1.586541607891864,,0.0000032,1.586541607891864,,0.0000032,1.586541607891864,,0.0000032,1.58654163614078,,0.0000032,1.5789746395126354,,0.0000032,1.5789746395126354,,0.0000032,1.5808923512583646,,0.0000032,1.62,,0.0000032,1.62,,0.0000032,1.5880897577123212
0.0000064,1.6601690500666972,,0.0000064,1.6184483092829567,,0.0000064,1.6184483092829567,,0.0000064,1.6184483092829567,,0.0000064,1.5665190926731187,,0.0000064,1.5665190926731187,,0.0000064,1.5665190926731187,,0.0000064,1.566519119585605,,0.0000064,1.553167456893399,,0.0000064,1.553167456893399,,0.0000064,1.5551119685693344,,0.0000064,1.62,,0.0000064,1.62,,0.0000064,1.5680175435299697
0.000012479999999999999,1.698093113473714,,0.000012479999999999999,1.6184841258759481,,0.000012479999999999999,1.6184841258759481,,0.000012479999999999999,1.6184841258759481,,0.000012479999999999999,1.5286703425319077,,0.000012479999999999999,1.5286703425319077,,0.000012479999999999999,1.5286703425319077,,0.000012479999999999999,1.528670368501661,,0.000012479999999999999,1.5044593621874962,,0.000012479999999999999,1.5044593621874962,,0.000012479999999999999,1.506374471631405,,0.000012479999999999999,1.62,,0.000012479999999999999,1.62,,0.000012479999999999999,1.530133497910423
0.000024639999999999998,1.7723556843138335,,0.000024639999999999998,1.6185549913601527,,0.000024639999999999998,1.6185549913601527,,0.000024639999999999998,1.6185549913601527,,0.000024639999999999998,1.454563730708426,,0.000024639999999999998,1.454563730708426,,0.000024639999999999998,1.454563730708426,,0.000024639999999999998,1.454563754227735,,0.000024639999999999998,1.4090616959602884,,0.000024639999999999998,1.4090616959602884,,0.000024639999999999998,1.4109148547385797,,0.000024639999999999998,1.62,,0.000024639999999999998,1.62,,0.000024639999999999998,1.4559353853865222
0.000040264999999999995,1.8623345880280056,,0.000040264999999999995,1.6186366754034285,,0.000040264999999999995,1.6186366754034285,,0.000040264999999999995,1.6186366754034285,,0.000040264999999999995,1.364779430150419,,0.000040264999999999995,1.364779430150419,,0.000040264999999999995,1.364779430150419,,0.000040264999999999995,1.3647794508601414,,0.000040264999999999995,1.2934896835157617,,0.000040264999999999995,1.2934896835157617,,0.000040264999999999995,1.295187233192682,,0.000040264999999999995,1.62,,0.000040264999999999995,1.62,,0.000040264999999999995,1.3660461254053964
0.000055889999999999995,1.9430007094270643,,0.000055889999999999995,1.6187062929174554,,0.000055889999999999995,1.6187062929174554,,0.000055889999999999995,1.6187062929174554,,0.000055889999999999995,1.2842972109469015,,0.000055889999999999995,1.2842972109469015,,0.000055889999999999995,1.2842972109469015,,0.000055889999999999995,1.2842972292549906,,0.000055889999999999995,1.1898970518233514,,0.000055889999999999995,1.1898970518233514,,0.000055889999999999995,1.1913843408415756,,0.000055889999999999995,1.62,,0.000055889999999999995,1.62,,0.000055889999999999995,1.2854741495956639
0.000071515,2.0112540947037254,,0.000071515,1.618759981299449,,0.000071515,1.618759981299449,,0.000071515,1.618759981299449,,0.000071515,1.2162075827443453,,0.000071515,1.2162075827443453,,0.000071515,1.2162075827443453,,0.000071515,1.216207599211317,,0.000071515,1.1022646238503813,,0.000071515,1.1022646238503813,,0.000071515,1.1034745478206696,,0.000071515,1.62,,0.000071515,1.62,,0.000071515,1.2173156491317472
0.00008714,2.0644718045387465,,0.00008714,1.618796858056632,,0.00008714,1.618796858056632,,0.00008714,1.618796858056632,,0.00008714,1.16312955078727,,0.00008714,1.16312955078727,,0.00008714,1.16312955078727,,0.00008714,1.1631295659837186,,0.00008714,1.0339602060722468,,0.00008714,1.0339602060722468,,0.00008714,1.0348556204741781,,0.00008714,1.62,,0.00008714,1.62,,0.00008714,1.1641900286984972
0.000102765,2.1006087121880035,,0.000102765,1.6188143318024562,,0.000102765,1.6188143318024562,,0.000102765,1.6188143318024562,,0.000102765,1.1271005231901887,,0.000102765,1.1271005231901887,,0.000102765,1.1271005231901887,,0.000102765,1.1271005377965928,,0.000102765,0.9876085863246676,,0.000102765,0.9876085863246676,,0.000102765,0.9881462888487618,,0.000102765,1.62,,0.000102765,1.62,,0.000102765,1.128138786733009
0.00011839,2.1182760965563463,,0.00011839,1.6188128988259605,,0.00011839,1.6188128988259605,,0.00011839,1.6188128988259605,,0.00011839,1.1095074084444625,,0.00011839,1.1095074084444625,,0.00011839,1.1095074084444625,,0.00011839,1.109507423102552,,0.00011839,0.9649911038237774,,0.00011839,0.9649911038237774,,0.00011839,0.9651586972892569,,0.00011839,1.62,,0.00011839,1.62,,0.00011839,1.1105474103761077
0.000134015,2.116795009970483,,0.000134015,1.6187914528080685,,0.000134015,1.6187914528080685,,0.000134015,1.6187914528080685,,0.000134015,1.1110239748885833,,0.000134015,1.1110239748885833,,0.000134015,1.1110239748885833,,0.000134015,1.111023990299872,,0.000134015,0.9669768900025137,,0.000134015,0.9669768900025137,,0.000134015,0.9667601609704263,,0.000134015,1.62,,0.000134015,1.62,,0.000134015,1.1120918890044884
0.00014963999999999998,2.0962223697573052,,0.00014963999999999998,1.6187519729365503,,0.00014963999999999998,1.6187519729365503,,0.00014963999999999998,1.6187519729365503,,0.00014963999999999998,1.1315942493595985,,0.00014963999999999998,1.1315942493595985,,0.00014963999999999998,1.1315942493595985,,0.00014963999999999998,1.1315942661345557,,0.00014963999999999998,0.9934896397055382,,0.00014963999999999998,0.9934896397055382,,0.00014963999999999998,0.9929042268655159,,0.00014963999999999998,1.62,,0.00014963999999999998,1.62,,0.00014963999999999998,1.1327128767878465
0.000165265,2.0573487709429363,,0.000165265,1.6186948276997144,,0.000165265,1.6186948276997144,,0.000165265,1.6186948276997144,,0.000165265,1.1704254279247963,,0.000165265,1.1704254279247963,,0.000165265,1.1704254279247963,,0.000165265,1.1704254466838981,,0.000165265,1.043510500258383,,0.000165265,1.043510500258383,,0.000165265,1.0425720254650837,,0.000165265,1.62,,0.000165265,1.62,,0.000165265,1.1716179324875802
0.00018089,2.0016681041292466,,0.00018089,1.6186233555786496,,0.00018089,1.6186233555786496,,0.00018089,1.6186233555786496,,0.00018089,1.2260275325890906,,0.00018089,1.2260275325890906,,0.00018089,1.2260275325890906,,0.00018089,1.2260275538138548,,0.00018089,1.1151171440712864,,0.00018089,1.1151171440712864,,0.00018089,1.1138681398902601,,0.00018089,1.62,,0.00018089,1.62,,0.00018089,1.2273119164603794
0.00019651500000000003,1.9313201461158085,,0.00019651500000000003,1.6185391670351215,,0.00019651500000000003,1.6185391670351215,,0.00019651500000000003,1.6185391670351215,,0.00019651500000000003,1.2962615308904961,,0.00019651500000000003,1.2962615308904961,,0.00019651500000000003,1.2962615308904961,,0.00019651500000000003,1.2962615550306777,,0.00019651500000000003,1.205557845282245,,0.00019651500000000003,1.205557845282245,,0.00019651500000000003,1.2040402254837141,,0.00019651500000000003,1.62,,0.00019651500000000003,1.62,,0.00019651500000000003,1.2976545984451517
0.00021214000000000004,1.8490083294774893,,0.00021214000000000004,1.6184466273579692,,0.00021214000000000004,1.6184466273579692,,0.00021214000000000004,1.6184466273579692,,0.00021214000000000004,1.378430627180501,,0.00021214000000000004,1.378430627180501,,0.00021214000000000004,1.378430627180501,,0.00021214000000000004,1.3784306545105556,,0.00021214000000000004,1.311356906113628,,0.00021214000000000004,1.311356906113628,,0.00021214000000000004,1.309634717808257,,0.00021214000000000004,1.62,,0.00021214000000000004,1.62,,0.00021214000000000004,1.3799426630611558
0.00022776500000000005,1.757895851166701,,0.00022776500000000005,1.6183481689972943,,0.00022776500000000005,1.6183481689972943,,0.00022776500000000005,1.6183481689972943,,0.00022776500000000005,1.4693748591567817,,0.00022776500000000005,1.4693748591567817,,0.00022776500000000005,1.4693748591567817,,0.00022776500000000005,1.4693748898920995,,0.00022776500000000005,1.4284486622733066,,0.00022776500000000005,1.4284486622733066,,0.00022776500000000005,1.4265826992516764,,0.00022776500000000005,1.62,,0.00022776500000000005,1.62,,0.00022776500000000005,1.4710139287450459
0.00024339000000000007,1.6614841126284605,,0.00024339000000000007,1.6182486933259232,,0.00024339000000000007,1.6182486933259232,,0.00024339000000000007,1.6182486933259232,,0.00024339000000000007,1.5656015239117371,,0.00024339000000000007,1.5656015239117371,,0.00024339000000000007,1.5656015239117371,,0.00024339000000000007,1.5656015580730795,,0.00024339000000000007,1.552333175223509,,0.00024339000000000007,1.552333175223509,,0.00024339000000000007,1.5504002184949006,,0.00024339000000000007,1.62,,0.00024339000000000007,1.62,,0.00024339000000000007,1.5673684489892672
0.0002590150000000001,1.5634781629064667,,0.0002590150000000001,1.6181509115610142,,0.0002590150000000001,1.6181509115610142,,0.0002590150000000001,1.6181509115610142,,0.0002590150000000001,1.6634104591123495,,0.0002590150000000001,1.6634104591123495,,0.0002590150000000001,1.6634104591123495,,0.0002590150000000001,1.66341049665282,,0.0002590150000000001,1.678249821323952,,0.0002590150000000001,1.678249821323952,,0.0002590150000000001,1.6763193766452908,,0.0002590150000000001,1.62,,0.0002590150000000001,1.62,,0.0002590150000000001,1.6653035185531628
0.0002746400000000001,1.467644315686166,,0.0002746400000000001,1.6180596869294077,,0.0002746400000000001,1.6180596869294077,,0.0002746400000000001,1.6180596869294077,,0.0002746400000000001,1.7590451308672357,,0.0002746400000000001,1.7590451308672357,,0.0002746400000000001,1.7590451308672357,,0.0002746400000000001,1.7590451715458508,,0.0002746400000000001,1.8013594731876033,,0.0002746400000000001,1.8013594731876033,,0.0002746400000000001,1.7995102253455164,,0.0002746400000000001,1.62,,0.0002746400000000001,1.62,,0.0002746400000000001,1.7610553773701418
0.0002902650000000001,1.377665411971994,,0.0002902650000000001,1.6179774256348085,,0.0002902650000000001,1.6179774256348085,,0.0002902650000000001,1.6179774256348085,,0.0002902650000000001,1.8488281509421336,,0.0002902650000000001,1.8488281509421336,,0.0002902650000000001,1.8488281509421336,,0.0002902650000000001,1.8488281944617593,,0.0002902650000000001,1.9169313368495466,,0.0002902650000000001,1.9169313368495466,,0.0002902650000000001,1.9152301131912541,,0.0002902650000000001,1.62,,0.0002902650000000001,1.62,,0.0002902650000000001,1.8509445207264243
0.0003058900000000001,1.2969992905729355,,0.0003058900000000001,1.617908382466634,,0.0003058900000000001,1.617908382466634,,0.0003058900000000001,1.617908382466634,,0.0003058900000000001,1.9293113928746803,,0.0003058900000000001,1.9293113928746803,,0.0003058900000000001,1.9293113928746803,,0.0003058900000000001,1.929311438764348,,0.0003058900000000001,2.0205237779277656,,0.0003058900000000001,2.0205237779277656,,0.0003058900000000001,2.019039949511371,,0.0003058900000000001,1.62,,0.0003058900000000001,1.62,,0.0003058900000000001,1.9315163491906688
0.00032151500000000014,1.2287459052962744,,0.00032151500000000014,1.617854123127397,,0.00032151500000000014,1.617854123127397,,0.00032151500000000014,1.617854123127397,,0.00032151500000000014,1.9973997532221033,,0.00032151500000000014,1.9973997532221033,,0.00032151500000000014,1.9973997532221033,,0.00032151500000000014,1.9973998009846223,,0.00032151500000000014,2.1081560881574526,,0.00032151500000000014,2.1081560881574526,,0.00032151500000000014,2.106942912804837,,0.00032151500000000014,1.62,,0.00032151500000000014,1.62,,0.00032151500000000014,1.9996747571622897
0.00033714000000000015,1.175528195461253,,0.00033714000000000015,1.6178178144610287,,0.00033714000000000015,1.6178178144610287,,0.00033714000000000015,1.6178178144610287,,0.00033714000000000015,2.0504787954376087,,0.00033714000000000015,2.0504787954376087,,0.00033714000000000015,2.0504787954376087,,0.00033714000000000015,2.050478844438764,,0.00033714000000000015,2.1764602851814345,,0.00033714000000000015,2.1764602851814345,,0.00033714000000000015,2.175567934839581,,0.00033714000000000015,1.62,,0.00033714000000000015,1.62,,0.00033714000000000015,2.0528002068164812
0.00035276500000000016,1.1393912878119965,,0.00035276500000000016,1.6177997759740503,,0.00035276500000000016,1.6177997759740503,,0.00035276500000000016,1.6177997759740503,,0.00035276500000000016,2.0865065676513583,,0.00035276500000000016,2.0865065676513583,,0.00035276500000000016,2.0865065676513583,,0.00035276500000000016,2.0865066172745745,,0.00035276500000000016,2.2228118166794206,,0.00035276500000000016,2.2228118166794206,,0.00035276500000000016,2.2222712348280584,,0.00035276500000000016,1.62,,0.00035276500000000016,1.62,,0.00035276500000000016,2.0888513792209915
0.0003683900000000002,1.121723903443654,,0.0003683900000000002,1.617801770863811,,0.0003683900000000002,1.617801770863811,,0.0003683900000000002,1.617801770863811,,0.0003683900000000002,2.1041006803403213,,0.0003683900000000002,2.1041006803403213,,0.0003683900000000002,2.1041006803403213,,0.0003683900000000002,2.1041007298796948,,0.0003683900000000002,2.245429049736048,,0.0003683900000000002,2.245429049736048,,0.0003683900000000002,2.2452641712805064,,0.0003683900000000002,1.62,,0.0003683900000000002,1.62,,0.0003683900000000002,2.1064425624921292
0.0003840150000000002,1.1232049900295173,,0.0003840150000000002,1.617822658279649,,0.0003840150000000002,1.617822658279649,,0.0003840150000000002,1.617822658279649,,0.0003840150000000002,2.1025828708307137,,0.0003840150000000002,2.1025828708307137,,0.0003840150000000002,2.1025828708307137,,0.0003840150000000002,2.102582919649163,,0.0003840150000000002,2.243443203442193,,0.0003840150000000002,2.243443203442193,,0.0003840150000000002,2.243657380578405,,0.0003840150000000002,1.62,,0.0003840150000000002,1.62,,0.0003840150000000002,2.104898036177835
0.0003996400000000002,1.1437776302426954,,0.0003996400000000002,1.6178626939633756,,0.0003996400000000002,1.6178626939633756,,0.0003996400000000002,1.6178626939633756,,0.0003996400000000002,2.082013582140366,,0.0003996400000000002,2.082013582140366,,0.0003996400000000002,2.082013582140366,,0.0003996400000000002,2.0820136295627423,,0.0003996400000000002,2.2169301768786545,,0.0003996400000000002,2.2169301768786545,,0.0003996400000000002,2.2175179976074832,,0.0003996400000000002,1.62,,0.0003996400000000002,1.62,,0.0003996400000000002,2.0842768339919298
0.0004152650000000002,1.1826512290570645,,0.0004152650000000002,1.6179192866612586,,0.0004152650000000002,1.6179192866612586,,0.0004152650000000002,1.6179192866612586,,0.0004152650000000002,2.043181172675439,,0.0004152650000000002,2.043181172675439,,0.0004152650000000002,2.043181172675439,,0.0004152650000000002,2.043181218146182,,0.0004152650000000002,2.1669092831509595,,0.0004152650000000002,2.1669092831509595,,0.0004152650000000002,2.1678454940826257,,0.0004152650000000002,1.62,,0.0004152650000000002,1.62,,0.0004152650000000002,2.0453717515530467
0.00043089000000000023,1.2383318958707545,,0.00043089000000000023,1.617991308568985,,0.00043089000000000023,1.617991308568985,,0.00043089000000000023,1.617991308568985,,0.00043089000000000023,1.9875800417804532,,0.00043089000000000023,1.9875800417804532,,0.00043089000000000023,1.9875800417804532,,0.00043089000000000023,1.9875800847529022,,0.00043089000000000023,2.095302336180292,,0.00043089000000000023,2.095302336180292,,0.00043089000000000023,2.0965534781472637,,0.00043089000000000023,1.62,,0.00043089000000000023,1.62,,0.00043089000000000023,1.9896775327309308
0.00044651500000000025,1.308679853884193,,0.00044651500000000025,1.6180749505616363,,0.00044651500000000025,1.6180749505616363,,0.00044651500000000025,1.6180749505616363,,0.00044651500000000025,1.9173448245953084,,0.00044651500000000025,1.9173448245953084,,0.00044651500000000025,1.9173448245953084,,0.00044651500000000025,1.9173448646850708,,0.00044651500000000025,2.0048616276869486,,0.00044651500000000025,2.0048616276869486,,0.00044651500000000025,2.0063772368749477,,0.00044651500000000025,1.62,,0.00044651500000000025,1.62,,0.00044651500000000025,1.9193348441391618
0.00046214000000000026,1.390991670522512,,0.00046214000000000026,1.6181680340744444,,0.00046214000000000026,1.6181680340744444,,0.00046214000000000026,1.6181680340744444,,0.00046214000000000026,1.8351766902122613,,0.00046214000000000026,1.8351766902122613,,0.00046214000000000026,1.8351766902122613,,0.00046214000000000026,1.8351767270793073,,0.00046214000000000026,1.8990622383824218,,0.00046214000000000026,1.8990622383824218,,0.00046214000000000026,1.9007863270539223,,0.00046214000000000026,1.62,,0.00046214000000000026,1.62,,0.00046214000000000026,1.8370465249902106
0.0004777650000000003,1.4821041488333004,,0.0004777650000000003,1.618265951798259,,0.0004777650000000003,1.618265951798259,,0.0004777650000000003,1.618265951798259,,0.0004777650000000003,1.7442312512198683,,0.0004777650000000003,1.7442312512198683,,0.0004777650000000003,1.7442312512198683,,0.0004777650000000003,1.744231284714586,,0.0004777650000000003,1.7819704999131074,,0.0004777650000000003,1.7819704999131074,,0.0004777650000000003,1.7838346748654765,,0.0004777650000000003,1.62,,0.0004777650000000003,1.62,,0.0004777650000000003,1.7459752721166424
