X--Trace 1::[transient: TIME],Y--Trace 1::[PR10: V(8)],,X--Trace 2::[transient: TIME],Y--Trace 2::[PR8: V(5)],,X--Trace 3::[transient: TIME],Y--Trace 3::[PR1: V(1)],,X--Trace 4::[transient: TIME],Y--Trace 4::[PR2: V(2)],,X--Trace 5::[transient: TIME],Y--Trace 5::[PR3: V(2)],,X--Trace 6::[transient: TIME],Y--Trace 6::[PR4: V(2)],,X--Trace 7::[transient: TIME],Y--Trace 7::[PR5: V(3)],,X--Trace 8::[transient: TIME],Y--Trace 8::[PR6: V(3)],,X--Trace 9::[transient: TIME],Y--Trace 9::[PR7: V(3)],,X--Trace 10::[transient: TIME],Y--Trace 10::[PR9: V(7)],,X--Trace 11::[transient: TIME],Y--Trace 11::[PR14: V(7)],,X--Trace 12::[transient: TIME],Y--Trace 12::[PR11: V(4)],,X--Trace 13::[transient: TIME],Y--Trace 13::[PR12: V(4)],,X--Trace 14::[transient: TIME],Y--Trace 14::[PR13: V(6)]
0,1.5961773361339289,,0,1.6064053870293569,,0,1.62,,0,1.6183075931279718,,0,1.6183075931279718,,0,1.6183075931279718,,0,1.6064053551665793,,0,1.6064053551665793,,0,1.6064053551665793,,0,1.596177336215334,,0,1.596177336215334,,0,1.62,,0,1.62,,0,1.6080875539438828
1.5625e-7,1.594032393089495,,1.5625e-7,1.6043137020848293,,1.5625e-7,1.6225525423908989,,1.5625e-7,1.6185380266838179,,1.5625e-7,1.6185380266838179,,1.5625e-7,1.6185380266838179,,1.5625e-7,1.6043136871162185,,1.5625e-7,1.6043136871162185,,1.5625e-7,1.6043136871162185,,1.5625e-7,1.5907418789451853,,1.5625e-7,1.5907418789451853,,1.5625e-7,1.62,,1.5625e-7,1.62,,1.5625e-7,1.6053701382012628
3.125e-7,1.5908396799073632,,3.125e-7,1.6018203666460915,,3.125e-7,1.625105074940948,,3.125e-7,1.6185676181636053,,3.125e-7,1.6185676181636053,,3.125e-7,1.6185676181636053,,3.125e-7,1.6018203491590404,,3.125e-7,1.6018203491590404,,3.125e-7,1.6018203491590404,,3.125e-7,1.5859418025500511,,3.125e-7,1.5859418025500511,,3.125e-7,1.62,,3.125e-7,1.62,,3.125e-7,1.6029700534023765
6.25e-7,1.5829140009232976,,6.25e-7,1.596740021837719,,6.25e-7,1.630210071155325,,6.25e-7,1.6185799290204348,,6.25e-7,1.6185799290204348,,6.25e-7,1.6185799290204348,,6.25e-7,1.5967400060745436,,6.25e-7,1.5967400060745436,,6.25e-7,1.5967400060745436,,6.25e-7,1.5756532528265954,,6.25e-7,1.5756532528265954,,6.25e-7,1.62,,6.25e-7,1.62,,6.25e-7,1.5978258105411185
0.00000125,1.563256269886968,,0.00000125,1.5865398095565681,,0.00000125,1.6404195125053669,,0.00000125,1.618584486717123,,0.00000125,1.618584486717123,,0.00000125,1.618584486717123,,0.00000125,1.5865397912819181,,0.00000125,1.5865397912819181,,0.00000125,1.5865397912819181,,0.00000125,1.5554387521300193,,0.00000125,1.5554387521300193,,0.00000125,1.62,,0.00000125,1.62,,0.00000125,1.587718513836113
0.0000025,1.522279069660105,,0.0000025,1.5661762266237385,,0.0000025,1.660833986801567,,0.0000025,1.6186097269261175,,0.0000025,1.6186097269261175,,0.0000025,1.6186097269261175,,0.0000025,1.5661762128041106,,0.0000025,1.5661762128041106,,0.0000025,1.5661762128041106,,0.0000025,1.51438101174341,,0.0000025,1.51438101174341,,0.0000025,1.62,,0.0000025,1.62,,0.0000025,1.5671897264503252
0.000005,1.4407774033908387,,0.000005,1.525455506383085,,0.000005,1.7016276753881074,,0.000005,1.618645409005061,,0.000005,1.618645409005061,,0.000005,1.618645409005061,,0.000005,1.5254554911069105,,0.000005,1.5254554911069105,,0.000005,1.5254554911069105,,0.000005,1.4330467019348554,,0.000005,1.4330467019348554,,0.000005,1.62,,0.000005,1.62,,0.000005,1.5265225451832432
0.00001,1.2780564403516659,,0.00001,1.4443247059590887,,0.00001,1.7829332036335956,,0.00001,1.618729634587597,,0.00001,1.618729634587597,,0.00001,1.618729634587597,,0.00001,1.4443246987521499,,0.00001,1.4443246987521499,,0.00001,1.4443246987521499,,0.00001,1.270185456010114,,0.00001,1.270185456010114,,0.00001,1.62,,0.00001,1.62,,0.00001,1.4450920728710936
0.00002,0.9572808890937533,,0.00002,1.284285493795252,,0.00002,1.9432968533143113,,0.00002,1.6188794772269972,,0.00002,1.6188794772269972,,0.00002,1.6188794772269972,,0.00002,1.2842854910401753,,0.00002,1.2842854910401753,,0.00002,1.2842854910401753,,0.00002,0.9497738936220032,,0.00002,0.9497738936220032,,0.00002,1.62,,0.00002,1.62,,0.00002,1.2848863765211995
0.000035625,0.47796492711438654,,0.000035625,1.0453709288199788,,0.000035625,2.182734355976538,,0.000035625,1.619105867033598,,0.000035625,1.619105867033598,,0.000035625,1.619105867033598,,0.000035625,1.0453709419091681,,0.000035625,1.0453709419091681,,0.000035625,1.0453709419091681,,0.000035625,0.470765742040268,,0.000035625,0.470765742040268,,0.000035625,1.62,,0.000035625,1.62,,0.000035625,1.0453825977322884
0.00005125,0.041809249907351125,,0.00005125,0.8280368552433733,,0.00005125,2.400546292923649,,0.00005125,1.6192917155620126,,0.00005125,1.6192917155620126,,0.00005125,1.6192917155620126,,0.00005125,0.8280368746306831,,0.00005125,0.8280368746306831,,0.00005125,0.8280368746306831,,0.00005125,0.03562648098218271,,0.00005125,0.03562648098218271,,0.00005125,1.62,,0.00005125,1.62,,0.00005125,0.8278130870974804
0.000053203125,-0.008916240326140173,,0.000053203125,0.8028244771510359,,0.000053203125,2.4258240241087323,,0.000053203125,1.61931656329474,,0.000053203125,1.61931656329474,,0.000053203125,1.61931656329474,,0.000053203125,0.8028245017387102,,0.000053203125,0.8028245017387102,,0.000053203125,0.8028245017387102,,0.000053203125,-0.01518418500847731,,0.000053203125,-0.01518418500847731,,0.000053203125,1.62,,0.000053203125,1.62,,0.000053203125,0.8024078507852969
0.00005369140625,-0.021362485417840922,,0.00005369140625,0.7965885365547185,,0.00005369140625,2.4320682018518207,,0.00005369140625,1.6193186829575803,,0.00005369140625,1.6193186829575803,,0.00005369140625,1.6193186829575803,,0.00005369140625,0.7965885565305673,,0.00005369140625,0.7965885565305673,,0.00005369140625,0.7965885565305673,,0.00005369140625,-0.02731440356602482,,0.00005369140625,-0.02731440356602482,,0.00005369140625,1.62,,0.00005369140625,1.62,,0.00005369140625,0.796342656194172
0.0000538134765625,-0.024627707566352665,,0.0000538134765625,0.7950397787638996,,0.0000538134765625,2.4336244782723093,,0.0000538134765625,1.6193219480621857,,0.0000538134765625,1.6193219480621857,,0.0000538134765625,1.6193219480621857,,0.0000538134765625,0.7950398134091539,,0.0000538134765625,0.7950398134091539,,0.0000538134765625,0.7950398134091539,,0.0000538134765625,-0.03149911612410186,,0.0000538134765625,-0.03149911612410186,,0.0000538134765625,1.62,,0.0000538134765625,1.62,,0.0000538134765625,0.7942505715994557
0.0000540576171875,-0.030531269426644338,,0.0000540576171875,0.7919383461783759,,0.0000540576171875,2.4367312838447517,,0.0000540576171875,1.61932361206643,,0.0000540576171875,1.61932361206643,,0.0000540576171875,1.61932361206643,,0.0000540576171875,0.7919383477676392,,0.0000540576171875,0.7919383477676392,,0.0000540576171875,0.7919383477676392,,0.0000540576171875,-0.035252227180362666,,0.0000540576171875,-0.035252227180362666,,0.0000540576171875,1.62,,0.0000540576171875,1.62,,0.0000540576171875,0.7923734039576247
0.000054104150329908504,-0.031002659441306982,,0.000054104150329908504,0.7913492008065622,,0.000054104150329908504,2.4373225688665725,,0.000054104150329908504,1.6193244540170035,,0.000054104150329908504,1.6193244540170035,,0.000054104150329908504,1.6193244540170035,,0.000054104150329908504,0.7913491309839915,,0.000054104150329908504,0.7913491309839915,,0.000054104150329908504,0.7913491309839915,,0.000054104150329908504,-0.031138119317660886,,0.000054104150329908504,-0.031138119317660886,,0.000054104150329908504,1.62,,0.000054104150329908504,1.62,,0.000054104150329908504,0.7944291354299964
0.00005411578361551063,-0.030955921528698808,,0.00005411578361551063,0.7912018222023736,,0.00005411578361551063,2.4374703464624563,,0.00005411578361551063,1.6193245883229708,,0.00005411578361551063,1.6193245883229708,,0.00005411578361551063,1.6193245883229708,,0.00005411578361551063,0.7912017181277697,,0.00005411578361551063,0.7912017181277697,,0.00005411578361551063,0.7912017181277697,,0.00005411578361551063,-0.028894423211106465,,0.00005411578361551063,-0.028894423211106465,,0.00005411578361551063,1.62,,0.00005411578361551063,1.62,,0.00005411578361551063,0.7955503491758865
0.000054139050186714876,-0.030398005765247104,,0.000054139050186714876,0.7909071368850464,,0.000054139050186714876,2.4377658492406313,,0.000054139050186714876,1.619324843418671,,0.000054139050186714876,1.619324843418671,,0.000054139050186714876,1.619324843418671,,0.000054139050186714876,0.7909069178483927,,0.000054139050186714876,0.7909069178483927,,0.000054139050186714876,0.7909069178483927,,0.000054139050186714876,-0.020963834412480477,,0.000054139050186714876,-0.020963834412480477,,0.000054139050186714876,1.62,,0.000054139050186714876,1.62,,0.000054139050186714876,0.7995135146101919
0.00005417901679986929,-0.02584767730686949,,0.00005417901679986929,0.790401446215653,,0.00005417901679986929,2.438273291794217,,0.00005417901679986929,1.6193252756455954,,0.00005417901679986929,1.6193252756455954,,0.00005417901679986929,1.6193252756455954,,0.00005417901679986929,0.7904006702500834,,0.00005417901679986929,0.7904006702500834,,0.00005417901679986929,0.7904006702500834,,0.00005417901679986929,0.01929939530025283,,0.00005417901679986929,0.01929939530025283,,0.00005417901679986929,1.62,,0.00005417901679986929,1.62,,0.00005417901679986929,0.8196348157694315
0.00005421852181961979,-0.008931118450484225,,0.00005421852181961979,0.7899030551799382,,0.00005421852181961979,2.4387746708136495,,0.00005421852181961979,1.6193257095381444,,0.00005421852181961979,1.6193257095381444,,0.00005421852181961979,1.6193257095381444,,0.00005421852181961979,0.7899004859007344,,0.00005421852181961979,0.7899004859007344,,0.00005421852181961979,0.7899004859007344,,0.00005421852181961979,0.151207070585049,,0.00005421852181961979,0.151207070585049,,0.00005421852181961979,1.62,,0.00005421852181961979,1.62,,0.00005421852181961979,0.8855554432433683
0.00005426621861351503,0.08134090419029161,,0.00005426621861351503,0.789308687485188,,0.00005426621861351503,2.4393797470569334,,0.00005426621861351503,1.619326288708112,,0.00005426621861351503,1.619326288708112,,0.00005426621861351503,1.619326288708112,,0.00005426621861351503,0.7892969629312263,,0.00005426621861351503,0.7892969629312263,,0.00005426621861351503,0.7892969629312263,,0.00005426621861351503,0.8285259148904945,,0.00005426621861351503,0.8285259148904945,,0.00005426621861351503,1.62,,0.00005426621861351503,1.62,,0.00005426621861351503,1.2240453198890222
0.00005431714765020183,0.4219001201305539,,0.00005431714765020183,0.7886925255409555,,0.00005431714765020183,2.4400255022078916,,0.00005431714765020183,1.6193270225419476,,0.00005431714765020183,1.6193270225419476,,0.00005431714765020183,1.6193270225419476,,0.00005431714765020183,0.788653097466368,,0.00005431714765020183,0.788653097466368,,0.00005431714765020183,0.788653097466368,,0.00005431714765020183,2.8804322944442142,,0.00005431714765020183,2.8804322944442142,,0.00005431714765020183,1.62,,0.00005431714765020183,1.62,,0.00005431714765020183,2.2494854712548253
0.00005435225474481271,0.761483707022116,,0.00005435225474481271,0.788249158031654,,0.00005435225474481271,2.440470447360796,,0.00005435225474481271,1.6193272573575732,,0.00005435225474481271,1.6193272573575732,,0.00005435225474481271,1.6193272573575732,,0.00005435225474481271,0.7882089130490455,,0.00005435225474481271,0.7882089130490455,,0.00005435225474481271,0.7882089130490455,,0.00005435225474481271,2.9400875122676924,,0.00005435225474481271,2.9400875122676924,,0.00005435225474481271,1.62,,0.00005435225474481271,1.62,,0.00005435225474481271,2.2792979519443404
0.000054387850953349404,1.0658430287466114,,0.000054387850953349404,0.7877995501098856,,0.000054387850953349404,2.4409214284723024,,0.000054387850953349404,1.6193274786677554,,0.000054387850953349404,1.6193274786677554,,0.000054387850953349404,1.6193274786677554,,0.000054387850953349404,0.7877586698779997,,0.000054387850953349404,0.7877586698779997,,0.000054387850953349404,0.7877586698779997,,0.000054387850953349404,2.986267317676602,,0.000054387850953349404,2.986267317676602,,0.000054387850953349404,1.62,,0.000054387850953349404,1.62,,0.000054387850953349404,2.302376090544753
0.00005443016819915907,1.3818830247744507,,0.00005443016819915907,0.7872657065008863,,0.00005443016819915907,2.441457347095971,,0.00005443016819915907,1.6193279587650384,,0.00005443016819915907,1.6193279587650384,,0.00005443016819915907,1.6193279587650384,,0.00005443016819915907,0.7872240627393661,,0.00005443016819915907,0.7872240627393661,,0.00005443016819915907,0.7872240627393661,,0.00005443016819915907,3.041785649899823,,0.00005443016819915907,3.041785649899823,,0.00005443016819915907,1.62,,0.00005443016819915907,1.62,,0.00005443016819915907,2.3301211169439084
0.00005451480269077839,1.8920593891628354,,0.00005451480269077839,0.786198102943702,,0.00005451480269077839,2.4425284873073663,,0.00005451480269077839,1.6193288200260452,,0.00005451480269077839,1.6193288200260452,,0.00005451480269077839,1.6193288200260452,,0.00005451480269077839,0.7861553483156458,,0.00005451480269077839,0.7861553483156458,,0.00005451480269077839,0.7861553483156458,,0.00005451480269077839,3.121977975488815,,0.00005451480269077839,3.121977975488815,,0.00005451480269077839,1.62,,0.00005451480269077839,1.62,,0.00005451480269077839,2.370196707740472
0.000054684071674017036,2.5635741294175722,,0.000054684071674017036,0.7840652221252012,,0.000054684071674017036,2.4446679753471563,,0.000054684071674017036,1.6193306242971837,,0.000054684071674017036,1.6193306242971837,,0.000054684071674017036,1.6193306242971837,,0.000054684071674017036,0.784020878085274,,0.000054684071674017036,0.784020878085274,,0.000054684071674017036,0.784020878085274,,0.000054684071674017036,3.235505252100093,,0.000054684071674017036,3.235505252100093,,0.000054684071674017036,1.62,,0.000054684071674017036,1.62,,0.000054684071674017036,2.4269309119362616
0.00005502260964049433,3.15888923927463,,0.00005502260964049433,0.7798087319424285,,0.00005502260964049433,2.448935748036191,,0.00005502260964049433,1.6193341560199854,,0.00005502260964049433,1.6193341560199854,,0.00005502260964049433,1.6193341560199854,,0.00005502260964049433,0.7797629982957452,,0.00005502260964049433,0.7797629982957452,,0.00005502260964049433,0.7797629982957452,,0.00005502260964049433,3.329977488197557,,0.00005502260964049433,3.329977488197557,,0.00005502260964049433,1.62,,0.00005502260964049433,1.62,,0.00005502260964049433,2.474141296075729
0.000055373695109951485,3.3157335925325224,,0.000055373695109951485,0.7754094544297077,,0.000055373695109951485,2.4533458530337793,,0.000055373695109951485,1.6193378410275032,,0.000055373695109951485,1.6193378410275032,,0.000055373695109951485,1.6193378410275032,,0.000055373695109951485,0.7753632129746545,,0.000055373695109951485,0.7753632129746545,,0.000055373695109951485,0.7753632129746545,,0.000055373695109951485,3.358813087959781,,0.000055373695109951485,3.358813087959781,,0.000055373695109951485,1.62,,0.000055373695109951485,1.62,,0.000055373695109951485,2.48854969197605
0.00005590135047615508,3.3633748056772266,,0.00005590135047615508,0.7688275470456717,,0.00005590135047615508,2.4599433772607346,,0.00005590135047615508,1.6193432972984192,,0.00005590135047615508,1.6193432972984192,,0.00005590135047615508,1.6193432972984192,,0.00005590135047615508,0.7687810636501435,,0.00005590135047615508,0.7687810636501435,,0.00005590135047615508,0.7687810636501435,,0.00005590135047615508,3.363579618956298,,0.00005590135047615508,3.363579618956298,,0.00005590135047615508,1.62,,0.00005590135047615508,1.62,,0.00005590135047615508,2.4909284771042652
0.00005656130128626328,3.3655919004609993,,0.00005656130128626328,0.7606473771397627,,0.00005656130128626328,2.468143041621308,,0.00005656130128626328,1.619350095919687,,0.00005656130128626328,1.619350095919687,,0.00005656130128626328,1.619350095919687,,0.00005656130128626328,0.7606006268678001,,0.00005656130128626328,0.7606006268678001,,0.00005656130128626328,0.7606006268678001,,0.00005656130128626328,3.3669976245879596,,0.00005656130128626328,3.3669976245879596,,0.00005656130128626328,1.62,,0.00005656130128626328,1.62,,0.00005656130128626328,2.4926325377877605
0.00005788120290647969,3.365453239614564,,0.00005788120290647969,0.744462099272833,,0.00005788120290647969,2.484366813358953,,0.00005788120290647969,1.619363433235102,,0.00005788120290647969,1.619363433235102,,0.00005788120290647969,1.619363433235102,,0.00005788120290647969,0.7444149526985133,,0.00005788120290647969,0.7444149526985133,,0.00005788120290647969,0.7444149526985133,,0.00005788120290647969,3.363997152979018,,0.00005788120290647969,3.363997152979018,,0.00005788120290647969,1.62,,0.00005788120290647969,1.62,,0.00005788120290647969,2.491124963146753
0.0000605210061469125,3.3655545103671383,,0.0000605210061469125,0.7128084068748363,,0.0000605210061469125,2.516096593349566,,0.0000605210061469125,1.6193892879562972,,0.0000605210061469125,1.6193892879562972,,0.0000605210061469125,1.6193892879562972,,0.0000605210061469125,0.7127603651600611,,0.0000605210061469125,0.7127603651600611,,0.0000605210061469125,0.7127603651600611,,0.0000605210061469125,3.3670289885646905,,0.0000605210061469125,3.3670289885646905,,0.0000605210061469125,1.62,,0.0000605210061469125,1.62,,0.0000605210061469125,2.4926243044077654
0.00006553663230373485,3.3661563024416545,,0.00006553663230373485,0.6554064388144893,,0.00006553663230373485,2.5736387574091797,,0.00006553663230373485,1.6194351888050904,,0.00006553663230373485,1.6194351888050904,,0.00006553663230373485,1.6194351888050904,,0.00006553663230373485,0.655356859219966,,0.00006553663230373485,0.655356859219966,,0.00006553663230373485,0.655356859219966,,0.00006553663230373485,3.366197880712524,,0.00006553663230373485,3.366197880712524,,0.00006553663230373485,1.62,,0.00006553663230373485,1.62,,0.00006553663230373485,2.4921802715185373
0.00007556788461737953,3.3663657374164604,,0.00007556788461737953,0.5521580418959466,,0.00007556788461737953,2.677148222660292,,0.00007556788461737953,1.6195134372918447,,0.00007556788461737953,1.6195134372918447,,0.00007556788461737953,1.6195134372918447,,0.00007556788461737953,0.5521056739251575,,0.00007556788461737953,0.5521056739251575,,0.00007556788461737953,0.5521056739251575,,0.00007556788461737953,3.3663486841226447,,0.00007556788461737953,3.3663486841226447,,0.00007556788461737953,1.62,,0.00007556788461737953,1.62,,0.00007556788461737953,2.4922040371420886
0.00009119288461737953,3.3665019895250787,,0.00009119288461737953,0.42521283620647804,,0.00009119288461737953,2.8044399897825434,,0.00009119288461737953,1.6195968346169767,,0.00009119288461737953,1.6195968346169767,,0.00009119288461737953,1.6195968346169767,,0.00009119288461737953,0.42515704023624,,0.00009119288461737953,0.42515704023624,,0.00009119288461737953,0.42515704023624,,0.00009119288461737953,3.366508580624478,,0.00009119288461737953,3.366508580624478,,0.00009119288461737953,1.62,,0.00009119288461737953,1.62,,0.00009119288461737953,2.4922205045562884
0.00010681788461737953,3.3666140326840135,,0.00010681788461737953,0.3436971186365855,,0.00010681788461737953,2.886214392339051,,0.00010681788461737953,1.6196284856263623,,0.00010681788461737953,1.6196284856263623,,0.00010681788461737953,1.6196284856263623,,0.00010681788461737953,0.34363912143953024,,0.00010681788461737953,0.34363912143953024,,0.00010681788461737953,0.34363912143953024,,0.00010681788461737953,3.366610879591388,,0.00010681788461737953,3.366610879591388,,0.00010681788461737953,1.62,,0.00010681788461737953,1.62,,0.00010681788461737953,2.49223089098764
