X--Trace 1::[transient: TIME],Y--Trace 1::[PR1: V(1)],,X--Trace 2::[transient: TIME],Y--Trace 2::[PR2: V(2)],,X--Trace 3::[transient: TIME],Y--Trace 3::[PR3: V(2)],,X--Trace 4::[transient: TIME],Y--Trace 4::[PR4: V(2)],,X--Trace 5::[transient: TIME],Y--Trace 5::[PR5: V(3)],,X--Trace 6::[transient: TIME],Y--Trace 6::[PR6: V(3)],,X--Trace 7::[transient: TIME],Y--Trace 7::[PR7: V(3)],,X--Trace 8::[transient: TIME],Y--Trace 8::[PR8: V(5)],,X--Trace 9::[transient: TIME],Y--Trace 9::[PR9: V(7)],,X--Trace 10::[transient: TIME],Y--Trace 10::[PR14: V(7)],,X--Trace 11::[transient: TIME],Y--Trace 11::[PR10: V(8)],,X--Trace 12::[transient: TIME],Y--Trace 12::[PR11: V(4)],,X--Trace 13::[transient: TIME],Y--Trace 13::[PR12: V(4)],,X--Trace 14::[transient: TIME],Y--Trace 14::[PR13: V(6)]
0,1.62,,0,1.6183075931279718,,0,1.6183075931279718,,0,1.6183075931279718,,0,1.6064053551665793,,0,1.6064053551665793,,0,1.6064053551665793,,0,1.6064053870293569,,0,1.596177336215334,,0,1.596177336215334,,0,1.5961773361339289,,0,1.62,,0,1.62,,0,1.6080875539438828
1e-7,1.6211309730576322,,1e-7,1.6184566911900296,,1e-7,1.6184566911900296,,1e-7,1.6184566911900296,,1e-7,1.605572580705932,,1e-7,1.605572580705932,,1e-7,1.605572580705932,,1e-7,1.6055725996524834,,1e-7,1.5935545089354057,,1e-7,1.5935545089354057,,1e-7,1.5954052350800905,,1e-7,1.62,,1e-7,1.62,,1e-7,1.60677637951044
1.8627217325716207e-7,1.6221066867240415,,1.8627217325716207e-7,1.6184822382166173,,1.8627217325716207e-7,1.6184822382166173,,1.8627217325716207e-7,1.6184822382166173,,1.8627217325716207e-7,1.604647964266225,,1.8627217325716207e-7,1.604647964266225,,1.8627217325716207e-7,1.604647964266225,,1.8627217325716207e-7,1.6046479879352986,,1.8627217325716207e-7,1.5920552583397392,,1.8627217325716207e-7,1.5920552583397392,,1.8627217325716207e-7,1.5945186263310094,,1.8627217325716207e-7,1.62,,1.8627217325716207e-7,1.62,,1.8627217325716207e-7,1.6060266667706158
3.5881651977148624e-7,1.6240581054818946,,3.5881651977148624e-7,1.6184947993511642,,3.5881651977148624e-7,1.6184947993511642,,3.5881651977148624e-7,1.6184947993511642,,3.5881651977148624e-7,1.6027216759055753,,3.5881651977148624e-7,1.6027216759055753,,3.5881651977148624e-7,1.6027216759055753,,3.5881651977148624e-7,1.6027216914640317,,3.5881651977148624e-7,1.5876015399408951,,3.5881651977148624e-7,1.5876015399408951,,3.5881651977148624e-7,1.5920359843571383,,3.5881651977148624e-7,1.62,,3.5881651977148624e-7,1.62,,3.5881651977148624e-7,1.60379995779971
7.039052128001345e-7,1.6279608765879037,,7.039052128001345e-7,1.618492110525254,,7.039052128001345e-7,1.618492110525254,,7.039052128001345e-7,1.618492110525254,,7.039052128001345e-7,1.598813553658287,,7.039052128001345e-7,1.598813553658287,,7.039052128001345e-7,1.598813553658287,,7.039052128001345e-7,1.5988135843710436,,7.039052128001345e-7,1.58090834953849,,7.039052128001345e-7,1.58090834953849,,7.039052128001345e-7,1.5855224958335135,,7.039052128001345e-7,1.62,,7.039052128001345e-7,1.62,,7.039052128001345e-7,1.6004530820163214
0.0000013940825988574312,1.6357658962896486,,0.0000013940825988574312,1.6185051326517397,,0.0000013940825988574312,1.6185051326517397,,0.0000013940825988574312,1.6185051326517397,,0.0000013940825988574312,1.5910346719533741,,0.0000013940825988574312,1.5910346719533741,,0.0000013940825988574312,1.5910346719533741,,0.0000013940825988574312,1.59103468195183,,0.0000013940825988574312,1.5638152290044929,,0.0000013940825988574312,1.5638152290044929,,0.0000013940825988574312,1.5699900099673172,,0.0000013940825988574312,1.62,,0.0000013940825988574312,1.62,,0.0000013940825988574312,1.5919069054718509
0.0000027744373709720244,1.6513717909076717,,0.0000027744373709720244,1.618515921849636,,0.0000027744373709720244,1.618515921849636,,0.0000027744373709720244,1.618515921849636,,0.0000027744373709720244,1.5754507062717111,,0.0000027744373709720244,1.5754507062717111,,0.0000027744373709720244,1.5754507062717111,,0.0000027744373709720244,1.5754507392466937,,0.0000027744373709720244,1.534349847400638,,0.0000027744373709720244,1.534349847400638,,0.0000027744373709720244,1.5389539519176383,,0.0000027744373709720244,1.62,,0.0000027744373709720244,1.62,,0.0000027744373709720244,1.5771737894039268
0.000005535146915201211,1.6825505702798778,,0.000005535146915201211,1.618551189883633,,0.000005535146915201211,1.618551189883633,,0.000005535146915201211,1.618551189883633,,0.000005535146915201211,1.5443438155414504,,0.000005535146915201211,1.5443438155414504,,0.000005535146915201211,1.5443438155414504,,0.000005535146915201211,1.5443438210711125,,0.000005535146915201211,1.4701013847333484,,0.000005535146915201211,1.4701013847333484,,0.000005535146915201211,1.4763657794162512,,0.000005535146915201211,1.62,,0.000005535146915201211,1.62,,0.000005535146915201211,1.545050066793741
0.000010780495049236666,1.741551930364093,,0.000010780495049236666,1.6186068733607668,,0.000010780495049236666,1.6186068733607668,,0.000010780495049236666,1.6186068733607668,,0.000010780495049236666,1.4854587768640606,,0.000010780495049236666,1.4854587768640606,,0.000010780495049236666,1.4854587768640606,,0.000010780495049236666,1.4854587929058822,,0.000010780495049236666,1.3531092168190968,,0.000010780495049236666,1.3531092168190968,,0.000010780495049236666,1.3584664523123404,,0.000010780495049236666,1.62,,0.000010780495049236666,1.62,,0.000010780495049236666,1.4865537890463476
0.000021271191317307574,1.8577169102398507,,0.000021271191317307574,1.6187184203511387,,0.000021271191317307574,1.6187184203511387,,0.000021271191317307574,1.6187184203511387,,0.000021271191317307574,1.36953605561144,,0.000021271191317307574,1.36953605561144,,0.000021271191317307574,1.36953605561144,,0.000021271191317307574,1.369536065093812,,0.000021271191317307574,1.120775311116087,,0.000021271191317307574,1.120775311116087,,0.000021271191317307574,1.126036206795432,,0.000021271191317307574,1.62,,0.000021271191317307574,1.62,,0.000021271191317307574,1.3703869594074178
0.00003689619131730757,2.0224951381987415,,0.00003689619131730757,1.6188710326471845,,0.00003689619131730757,1.6188710326471845,,0.00003689619131730757,1.6188710326471845,,0.00003689619131730757,1.20511363369586,,0.00003689619131730757,1.20511363369586,,0.00003689619131730757,1.20511363369586,,0.00003689619131730757,1.2051136351817904,,0.00003689619131730757,0.7913345327593766,,0.00003689619131730757,0.7913345327593766,,0.00003689619131730757,0.7962284120464954,,0.00003689619131730757,1.62,,0.00003689619131730757,1.62,,0.00003689619131730757,1.2056667207806875
0.00005252119131730757,2.1718057037185288,,0.00005252119131730757,1.6189993793306994,,0.00005252119131730757,1.6189993793306994,,0.00005252119131730757,1.6189993793306994,,0.00005252119131730757,1.0561351810355453,,0.00005252119131730757,1.0561351810355453,,0.00005252119131730757,1.0561351810355453,,0.00005252119131730757,1.0561351755180146,,0.00005252119131730757,0.49285559508449683,,0.00005252119131730757,0.49285559508449683,,0.00005252119131730757,0.49713827954089995,,0.00005252119131730757,1.62,,0.00005252119131730757,1.62,,0.00005252119131730757,1.056427383874208
0.00006814619131730757,2.2999106855006164,,0.00006814619131730757,1.6191046295806721,,0.00006814619131730757,1.6191046295806721,,0.00006814619131730757,1.6191046295806721,,0.00006814619131730757,0.9283379430959422,,0.00006814619131730757,0.9283379430959422,,0.00006814619131730757,0.9283379430959422,,0.00006814619131730757,0.9283379320228279,,0.00006814619131730757,0.23684681783646416,,0.00006814619131730757,0.23684681783646416,,0.00006814619131730757,0.2404400458686821,,0.00006814619131730757,1.62,,0.00006814619131730757,1.62,,0.00006814619131730757,0.9284231000504131
0.00008377119131730757,2.401887080937221,,0.00008377119131730757,1.6191757259801876,,0.00008377119131730757,1.6191757259801876,,0.00008377119131730757,1.6191757259801876,,0.00008377119131730757,0.8266190662967621,,0.00008377119131730757,0.8266190662967621,,0.00008377119131730757,0.8266190662967621,,0.00008377119131730757,0.8266190513098103,,0.00008377119131730757,0.033116960133070125,,0.00008377119131730757,0.033116960133070125,,0.00008377119131730757,0.03580234419445191,,0.00008377119131730757,1.62,,0.00008377119131730757,1.62,,0.00008377119131730757,0.826558245204431
0.00008572431631730757,2.412589729669708,,0.00008572431631730757,1.6191837038458923,,0.00008572431631730757,1.6191837038458923,,0.00008572431631730757,1.6191837038458923,,0.00008572431631730757,0.8159478950789142,,0.00008572431631730757,0.8159478950789142,,0.00008572431631730757,0.8159478950789142,,0.00008572431631730757,0.8159478797645453,,0.00008572431631730757,0.011750138070831528,,0.00008572431631730757,0.011750138070831528,,0.00008572431631730757,0.01433417600087675,,0.00008572431631730757,1.62,,0.00008572431631730757,1.62,,0.00008572431631730757,0.8158748403967785
0.00008963056631730758,2.432556588594162,,0.00008963056631730758,1.6191946400684198,,0.00008963056631730758,1.6191946400684198,,0.00008963056631730758,1.6191946400684198,,0.00008963056631730758,0.7960345535833343,,0.00008963056631730758,0.7960345535833343,,0.00008963056631730758,0.7960345535833343,,0.00008963056631730758,0.7960345375585248,,0.00008963056631730758,-0.02812959675783959,,0.00008963056631730758,-0.02812959675783959,,0.00008963056631730758,-0.025789411266847022,,0.00008963056631730758,1.62,,0.00008963056631730758,1.62,,0.00008963056631730758,0.7959349864377108
0.00009060712881730758,2.437244217032054,,0.00009060712881730758,1.6191983319419305,,0.00009060712881730758,1.6191983319419305,,0.00009060712881730758,1.6191983319419305,,0.00009060712881730758,0.7913623409707762,,0.00009060712881730758,0.7913623409707762,,0.00009060712881730758,0.7913623409707762,,0.00009060712881730758,0.791362323917832,,0.00009060712881730758,-0.037550313831735994,,0.00009060712881730758,-0.037550313831735994,,0.00009060712881730758,-0.0352474802772315,,0.00009060712881730758,1.62,,0.00009060712881730758,1.62,,0.00009060712881730758,0.7912246470107696
0.00009085126944230758,2.4383969210025613,,0.00009085126944230758,1.6191981489025833,,0.00009085126944230758,1.6191981489025833,,0.00009085126944230758,1.6191981489025833,,0.00009085126944230758,0.7902112860967476,,0.00009085126944230758,0.7902112860967476,,0.00009085126944230758,0.7902112860967476,,0.00009085126944230758,0.790211267083012,,0.00009085126944230758,-0.03999776697939302,,0.00009085126944230758,-0.03999776697939302,,0.00009085126944230758,-0.037627378692410646,,0.00009085126944230758,1.62,,0.00009085126944230758,1.62,,0.00009085126944230758,0.7900009567658821
0.00009091230459855757,2.438683893813739,,0.00009091230459855757,1.6191987406498984,,0.00009091230459855757,1.6191987406498984,,0.00009091230459855757,1.6191987406498984,,0.00009091230459855757,0.7899260010137007,,0.00009091230459855757,0.7899260010137007,,0.00009091230459855757,0.7899260010137007,,0.00009091230459855757,0.789925980162571,,0.00009091230459855757,-0.04070451785186827,,0.00009091230459855757,-0.04070451785186827,,0.00009091230459855757,-0.03824260641175548,,0.00009091230459855757,1.62,,0.00009091230459855757,1.62,,0.00009091230459855757,0.7896476153604208
0.00009103437491105757,2.4392563944356342,,0.00009103437491105757,1.6191989128814048,,0.00009103437491105757,1.6191989128814048,,0.00009103437491105757,1.6191989128814048,,0.00009103437491105757,0.7893548538496751,,0.00009103437491105757,0.7893548538496751,,0.00009103437491105757,0.7893548538496751,,0.00009103437491105757,0.7893548395233739,,0.00009103437491105757,-0.04136324828011343,,0.00009103437491105757,-0.04136324828011343,,0.00009103437491105757,-0.03937560335652107,,0.00009103437491105757,1.62,,0.00009103437491105757,1.62,,0.00009103437491105757,0.7893181293222922
0.00009106489248918257,2.4393992184265323,,0.00009106489248918257,1.619199073888221,,0.00009106489248918257,1.619199073888221,,0.00009106489248918257,1.619199073888221,,0.00009106489248918257,0.7892126042305389,,0.00009106489248918257,0.7892126042305389,,0.00009106489248918257,0.7892126042305389,,0.00009106489248918257,0.789212597355882,,0.00009106489248918257,-0.041095485820206314,,0.00009106489248918257,-0.041095485820206314,,0.00009106489248918257,-0.03959749168009083,,0.00009106489248918257,1.62,,0.00009106489248918257,1.62,,0.00009106489248918257,0.789451872558207
0.00009112592764543256,2.4396845048637417,,0.00009112592764543256,1.6191991992639945,,0.00009112592764543256,1.6191991992639945,,0.00009112592764543256,1.6191991992639945,,0.00009112592764543256,0.7889280733923403,,0.00009112592764543256,0.7889280733923403,,0.00009112592764543256,0.7889280733923403,,0.00009112592764543256,0.7889281652851621,,0.00009112592764543256,-0.03434458799493183,,0.00009112592764543256,-0.03434458799493183,,0.00009112592764543256,-0.039173423244902784,,0.00009112592764543256,1.62,,0.00009112592764543256,1.62,,0.00009112592764543256,0.7928254924111462
0.00009113868361611679,2.4397440670535,,0.00009113868361611679,1.6191992475033625,,0.00009113868361611679,1.6191992475033625,,0.00009113868361611679,1.6191992475033625,,0.00009113868361611679,0.7888687132133733,,0.00009113868361611679,0.7888687132133733,,0.00009113868361611679,0.7888687132133733,,0.00009113868361611679,0.788868849671863,,0.00009113868361611679,-0.031160409218362498,,0.00009113868361611679,-0.031160409218362498,,0.00009113868361611679,-0.038840581091783025,,0.00009113868361611679,1.62,,0.00009113868361611679,1.62,,0.00009113868361611679,0.7944167564936702
0.00009116419555748525,2.439863128241788,,0.00009116419555748525,1.6191993146436665,,0.00009116419555748525,1.6191993146436665,,0.00009116419555748525,1.6191993146436665,,0.00009116419555748525,0.7887499973926811,,0.00009116419555748525,0.7887499973926811,,0.00009116419555748525,0.7887499973926811,,0.00009116419555748525,0.7887502922399698,,0.00009116419555748525,-0.019659156453489965,,0.00009116419555748525,-0.019659156453489965,,0.00009116419555748525,-0.03748333160088714,,0.00009116419555748525,1.62,,0.00009116419555748525,1.62,,0.00009116419555748525,0.8001644496933138
0.00009120573419172137,2.4400568037932837,,0.00009120573419172137,1.619199428579009,,0.00009120573419172137,1.619199428579009,,0.00009120573419172137,1.619199428579009,,0.00009120573419172137,0.788556893469641,,0.00009120573419172137,0.788556893469641,,0.00009120573419172137,0.788556893469641,,0.00009120573419172137,0.7885579674760782,,0.00009120573419172137,0.03770054098247897,,0.00009120573419172137,0.03770054098247897,,0.00009120573419172137,-0.030067050638138346,,0.00009120573419172137,1.62,,0.00009120573419172137,1.62,,0.00009120573419172137,0.8288298692524826
0.00009124668956870039,2.440247541125076,,0.00009124668956870039,1.6191995556430403,,0.00009124668956870039,1.6191995556430403,,0.00009124668956870039,1.6191995556430403,,0.00009124668956870039,0.7883667492758912,,0.00009124668956870039,0.7883667492758912,,0.00009124668956870039,0.7883667492758912,,0.00009124668956870039,0.7883704690968433,,0.00009124668956870039,0.2334097959066397,,0.00009124668956870039,0.2334097959066397,,0.00009124668956870039,-0.003995943395819001,,0.00009124668956870039,1.62,,0.00009124668956870039,1.62,,0.00009124668956870039,0.9266354991723571
0.00009129608347792317,2.440477289351093,,0.00009129608347792317,1.619199800190543,,0.00009129608347792317,1.619199800190543,,0.00009129608347792317,1.619199800190543,,0.00009129608347792317,0.7881378991096794,,0.00009129608347792317,0.7881378991096794,,0.00009129608347792317,0.7881378991096794,,0.00009129608347792317,0.7881561989536041,,0.00009129608347792317,1.3135229646709632,,0.00009129608347792317,1.3135229646709632,,0.00009129608347792317,0.14124742181800415,,0.00009129608347792317,1.62,,0.00009129608347792317,1.62,,0.00009129608347792317,1.4664220777323016
0.00009134819972733154,2.4407193574054045,,0.00009134819972733154,1.619200031647817,,0.00009134819972733154,1.619200031647817,,0.00009134819972733154,1.619200031647817,,0.00009134819972733154,0.7878967255986123,,0.00009134819972733154,0.7878967255986123,,0.00009134819972733154,0.7878967255986123,,0.00009134819972733154,0.7879364334631231,,0.00009134819972733154,2.899655637454414,,0.00009134819972733154,2.899655637454414,,0.00009134819972733154,0.5266589597137954,,0.00009134819972733154,1.62,,0.00009134819972733154,1.62,,0.00009134819972733154,2.2590919613727625
0.00009139068545887006,2.440916433460382,,0.00009139068545887006,1.6191999774564982,,0.00009139068545887006,1.6191999774564982,,0.00009139068545887006,1.6191999774564982,,0.00009139068545887006,0.7876998931228502,,0.00009139068545887006,0.7876998931228502,,0.00009139068545887006,0.7876998931228502,,0.00009139068545887006,0.7877404907195404,,0.00009139068545887006,2.965202789124025,,0.00009139068545887006,2.965202789124025,,0.00009139068545887006,0.9183573831747993,,0.00009139068545887006,1.62,,0.00009139068545887006,1.62,,0.00009139068545887006,2.2918490603591324
0.0000914362570894845,2.4411275637866066,,0.0000914362570894845,1.6192000037103649,,0.0000914362570894845,1.6192000037103649,,0.0000914362570894845,1.6192000037103649,,0.0000914362570894845,0.7874891929233195,,0.0000914362570894845,0.7874891929233195,,0.0000914362570894845,0.7874891929233195,,0.0000914362570894845,0.7875305764224463,,0.0000914362570894845,3.0230270596879882,,0.0000914362570894845,3.0230270596879882,,0.0000914362570894845,1.2787412606840425,,0.0000914362570894845,1.62,,0.0000914362570894845,1.62,,0.0000914362570894845,2.3207466416043667
0.00009148485202961755,2.441352404222649,,0.00009148485202961755,1.6192001606217823,,0.00009148485202961755,1.6192001606217823,,0.00009148485202961755,1.6192001606217823,,0.00009148485202961755,0.7872650690871807,,0.00009148485202961755,0.7872650690871807,,0.00009148485202961755,0.7872650690871807,,0.00009148485202961755,0.7873071970931578,,0.00009148485202961755,3.077756527013106,,0.00009148485202961755,3.077756527013106,,0.00009148485202961755,1.6048551872544023,,0.00009148485202961755,1.62,,0.00009148485202961755,1.62,,0.00009148485202961755,2.3480975878306385
0.00009157718241587034,2.441778757155825,,0.00009157718241587034,1.6192003831151967,,0.00009157718241587034,1.6192003831151967,,0.00009157718241587034,1.6192003831151967,,0.00009157718241587034,0.7868399267187792,,0.00009157718241587034,0.7868399267187792,,0.00009157718241587034,0.7868399267187792,,0.00009157718241587034,0.7868831479794353,,0.00009157718241587034,3.1579307400810954,,0.00009157718241587034,3.1579307400810954,,0.00009157718241587034,2.0970159409740794,,0.00009157718241587034,1.62,,0.00009157718241587034,1.62,,0.00009157718241587034,2.3881644485090683
0.00009176184318837591,2.4426281436186237,,0.00009176184318837591,1.6192008408347984,,0.00009176184318837591,1.6192008408347984,,0.00009176184318837591,1.6192008408347984,,0.00009176184318837591,0.7859929880323234,,0.00009176184318837591,0.7859929880323234,,0.00009176184318837591,0.7859929880323234,,0.00009176184318837591,0.7860376288644696,,0.00009176184318837591,3.2614457064092575,,0.00009176184318837591,3.2614457064092575,,0.00009176184318837591,2.7283004032489813,,0.00009176184318837591,1.62,,0.00009176184318837591,1.62,,0.00009176184318837591,2.4398956427991347
0.00009201572463780554,2.443788692747066,,0.00009201572463780554,1.6192014736980882,,0.00009201572463780554,1.6192014736980882,,0.00009201572463780554,1.6192014736980882,,0.00009201572463780554,0.7848358139289514,,0.00009201572463780554,0.7848358139289514,,0.00009201572463780554,0.7848358139289514,,0.00009201572463780554,0.7848813519775495,,0.00009201572463780554,3.325626838305382,,0.00009201572463780554,3.325626838305382,,0.00009201572463780554,3.1196996450887995,,0.00009201572463780554,1.62,,0.00009201572463780554,1.62,,0.00009201572463780554,2.4719695933127577
