X--Trace 1::[transient: TIME],Y--Trace 1::[PR1: V(1)],,X--Trace 2::[transient: TIME],Y--Trace 2::[PR2: V(2)],,X--Trace 3::[transient: TIME],Y--Trace 3::[PR3: V(2)],,X--Trace 4::[transient: TIME],Y--Trace 4::[PR4: V(2)],,X--Trace 5::[transient: TIME],Y--Trace 5::[PR5: V(3)],,X--Trace 6::[transient: TIME],Y--Trace 6::[PR6: V(3)],,X--Trace 7::[transient: TIME],Y--Trace 7::[PR7: V(3)],,X--Trace 8::[transient: TIME],Y--Trace 8::[PR8: V(5)],,X--Trace 9::[transient: TIME],Y--Trace 9::[PR9: V(7)],,X--Trace 10::[transient: TIME],Y--Trace 10::[PR14: V(7)],,X--Trace 11::[transient: TIME],Y--Trace 11::[PR10: V(8)],,X--Trace 12::[transient: TIME],Y--Trace 12::[PR11: V(4)],,X--Trace 13::[transient: TIME],Y--Trace 13::[PR12: V(4)],,X--Trace 14::[transient: TIME],Y--Trace 14::[PR13: V(6)]
0,1.62,,0,1.6183075931279718,,0,1.6183075931279718,,0,1.6183075931279718,,0,1.6064053551665793,,0,1.6064053551665793,,0,1.6064053551665793,,0,1.6064053870293569,,0,1.596177336215334,,0,1.596177336215334,,0,1.5961773361339289,,0,1.62,,0,1.62,,0,1.6080875539438828
1e-7,1.6215079640768428,,1e-7,1.6185063905440487,,1e-7,1.6185063905440487,,1e-7,1.6185063905440487,,1e-7,1.60529498921905,,1e-7,1.60529498921905,,1e-7,1.60529498921905,,1e-7,1.6052950038601927,,1e-7,1.5926802331753052,,1e-7,1.5926802331753052,,1e-7,1.5951478680621076,,1e-7,1.62,,1e-7,1.62,,1e-7,1.6063393213659367
1.7661251661976314e-7,1.6226632518204032,,1.7661251661976314e-7,1.6185394402159203,,1.7661251661976314e-7,1.6185394402159203,,1.7661251661976314e-7,1.6185394402159203,,1.7661251661976314e-7,1.6042058044582448,,1.7661251661976314e-7,1.6042058044582448,,1.7661251661976314e-7,1.6042058044582448,,1.7661251661976314e-7,1.6042058261517358,,1.7661251661976314e-7,1.5910245132673866,,1.7661251661976314e-7,1.5910245132673866,,1.7661251661976314e-7,1.5941491703268924,,1.7661251661976314e-7,1.62,,1.7661251661976314e-7,1.62,,1.7661251661976314e-7,1.605511330826673
3.2983754985928946e-7,1.6249738188312535,,3.2983754985928946e-7,1.6185568169762203,,3.2983754985928946e-7,1.6185568169762203,,3.2983754985928946e-7,1.6185568169762203,,3.2983754985928946e-7,1.601930000136011,,3.2983754985928946e-7,1.601930000136011,,3.2983754985928946e-7,1.601930000136011,,3.2983754985928946e-7,1.6019300068763926,,3.2983754985928946e-7,1.585364637565943,,3.2983754985928946e-7,1.585364637565943,,3.2983754985928946e-7,1.5912647033281033,,3.2983754985928946e-7,1.62,,3.2983754985928946e-7,1.62,,3.2983754985928946e-7,1.602681669925061
6.36287616338342e-7,1.6295948889656064,,6.36287616338342e-7,1.6185526975166378,,6.36287616338342e-7,1.6185526975166378,,6.36287616338342e-7,1.6185526975166378,,6.36287616338342e-7,1.5973007202222935,,6.36287616338342e-7,1.5973007202222935,,6.36287616338342e-7,1.5973007202222935,,6.36287616338342e-7,1.597300756758167,,6.36287616338342e-7,1.5783142216672579,,6.36287616338342e-7,1.5783142216672579,,6.36287616338342e-7,1.5839137444022442,,6.36287616338342e-7,1.62,,6.36287616338342e-7,1.62,,6.36287616338342e-7,1.5991559102657473
0.0000012491877492964473,1.6388365338322173,,0.0000012491877492964473,1.6185686666516703,,0.0000012491877492964473,1.6185686666516703,,0.0000012491877492964473,1.6185686666516703,,0.0000012491877492964473,1.5880911147140746,,0.0000012491877492964473,1.5880911147140746,,0.0000012491877492964473,1.5880911147140746,,0.0000012491877492964473,1.588091109204014,,0.0000012491877492964473,1.55677867112675,,0.0000012491877492964473,1.55677867112675,,0.0000012491877492964473,1.5655460469716258,,0.0000012491877492964473,1.62,,0.0000012491877492964473,1.62,,0.0000012491877492964473,1.5883889137776308
0.0000024749880152126576,1.6573159233048778,,0.0000024749880152126576,1.6185810434477141,,0.0000024749880152126576,1.6185810434477141,,0.0000024749880152126576,1.6185810434477141,,0.0000024749880152126576,1.5696368524731246,,0.0000024749880152126576,1.5696368524731246,,0.0000024749880152126576,1.5696368524731246,,0.0000024749880152126576,1.5696368957095406,,0.0000024749880152126576,1.5234825301030526,,0.0000024749880152126576,1.5234825301030526,,0.0000024749880152126576,1.5290057512399193,,0.0000024749880152126576,1.62,,0.0000024749880152126576,1.62,,0.0000024749880152126576,1.5717399408120076
0.000004926588547045079,1.6942437573479214,,0.000004926588547045079,1.6186232025799514,,0.000004926588547045079,1.6186232025799514,,0.000004926588547045079,1.6186232025799514,,0.000004926588547045079,1.5327947691501322,,0.000004926588547045079,1.5327947691501322,,0.000004926588547045079,1.5327947691501322,,0.000004926588547045079,1.5327947560115136,,0.000004926588547045079,1.4456194962632534,,0.000004926588547045079,1.4456194962632534,,0.000004926588547045079,1.4546384773583085,,0.000004926588547045079,1.62,,0.000004926588547045079,1.62,,0.000004926588547045079,1.532809468447758
0.000009584629557526677,1.7641836116134433,,0.000009584629557526677,1.6186891939793118,,0.000009584629557526677,1.6186891939793118,,0.000009584629557526677,1.6186891939793118,,0.000009584629557526677,1.4629921291234018,,0.000009584629557526677,1.4629921291234018,,0.000009584629557526677,1.4629921291234018,,0.000009584629557526677,1.4629921412389268,,0.000009584629557526677,1.307884481241612,,0.000009584629557526677,1.307884481241612,,0.000009584629557526677,1.315013130780833,,0.000009584629557526677,1.62,,0.000009584629557526677,1.62,,0.000009584629557526677,1.4639414943053
0.000016259278873077755,1.8634817676946562,,0.000016259278873077755,1.6187850879265775,,0.000016259278873077755,1.6187850879265775,,0.000016259278873077755,1.6187850879265775,,0.000016259278873077755,1.3638989499910676,,0.000016259278873077755,1.3638989499910676,,0.000016259278873077755,1.3638989499910676,,0.000016259278873077755,1.3638989556309309,,0.000016259278873077755,1.109216206676938,,0.000016259278873077755,1.109216206676938,,0.000016259278873077755,1.1163325136118423,,0.000016259278873077755,1.62,,0.000016259278873077755,1.62,,0.000016259278873077755,1.364607478431395
0.00002960857750417991,2.0562561244424957,,0.00002960857750417991,1.6189670503563283,,0.00002960857750417991,1.6189670503563283,,0.00002960857750417991,1.6189670503563283,,0.00002960857750417991,1.1715345101319963,,0.00002960857750417991,1.1715345101319963,,0.00002960857750417991,1.1715345101319963,,0.00002960857750417991,1.1715345064849139,,0.00002960857750417991,0.7237951894554117,,0.00002960857750417991,0.7237951894554117,,0.00002960857750417991,0.7305679482835866,,0.00002960857750417991,1.62,,0.00002960857750417991,1.62,,0.00002960857750417991,1.1718971446900892
0.00004523357750417991,2.2659633272093727,,0.00004523357750417991,1.619153645849416,,0.00004523357750417991,1.619153645849416,,0.00004523357750417991,1.619153645849416,,0.00004523357750417991,0.962286088263091,,0.00004523357750417991,0.962286088263091,,0.00004523357750417991,0.962286088263091,,0.00004523357750417991,0.9622860743352056,,0.00004523357750417991,0.3045322121823715,,0.00004523357750417991,0.3045322121823715,,0.00004523357750417991,0.31064341001445317,,0.00004523357750417991,1.62,,0.00004523357750417991,1.62,,0.00004523357750417991,0.9622658495813218
0.000047186702504179915,2.29058736430889,,0.000047186702504179915,1.6191749723348172,,0.000047186702504179915,1.6191749723348172,,0.000047186702504179915,1.6191749723348172,,0.000047186702504179915,0.9377177085761441,,0.000047186702504179915,0.9377177085761441,,0.000047186702504179915,0.9377177085761441,,0.000047186702504179915,0.9377176937550363,,0.000047186702504179915,0.25532876123329434,,0.000047186702504179915,0.25532876123329434,,0.000047186702504179915,0.2613233180427536,,0.000047186702504179915,1.62,,0.000047186702504179915,1.62,,0.000047186702504179915,0.9376641410168006
0.00005109295250417992,2.338609038964975,,0.00005109295250417992,1.6192161377516074,,0.00005109295250417992,1.6192161377516074,,0.00005109295250417992,1.6192161377516074,,0.00005109295250417992,0.8898058026938945,,0.00005109295250417992,0.8898058026938945,,0.00005109295250417992,0.8898058026938945,,0.00005109295250417992,0.8898057853902228,,0.00005109295250417992,0.1593199992486003,,0.00005109295250417992,0.1593199992486003,,0.00005109295250417992,0.1651308034413675,,0.00005109295250417992,1.62,,0.00005109295250417992,1.62,,0.00005109295250417992,0.8896598067174588
0.00005890545250417992,2.4293472940973886,,0.00005890545250417992,1.619291811281528,,0.00005890545250417992,1.619291811281528,,0.00005890545250417992,1.619291811281528,,0.00005890545250417992,0.7992792284596573,,0.00005890545250417992,0.7992792284596573,,0.00005890545250417992,0.7992792284596573,,0.00005890545250417992,0.799279207362264,,0.00005890545250417992,-0.022016126989392582,,0.00005890545250417992,-0.022016126989392582,,0.00005890545250417992,-0.016670991298735314,,0.00005890545250417992,1.62,,0.00005890545250417992,1.62,,0.00005890545250417992,0.7989918152118849
0.00005914959312917991,2.4320616272497824,,0.00005914959312917991,1.6192936450512392,,0.00005914959312917991,1.6192936450512392,,0.00005914959312917991,1.6192936450512392,,0.00005914959312917991,0.7965705631324378,,0.00005914959312917991,0.7965705631324378,,0.00005914959312917991,0.7965705631324378,,0.00005914959312917991,0.7965705415145752,,0.00005914959312917991,-0.027472085498764023,,0.00005914959312917991,-0.027472085498764023,,0.00005914959312917991,-0.022119131348124765,,0.00005914959312917991,1.62,,0.00005914959312917991,1.62,,0.00005914959312917991,0.796263845636348
0.00005963787437917991,2.437467337778253,,0.00005963787437917991,1.6192983267219279,,0.00005963787437917991,1.6192983267219279,,0.00005963787437917991,1.6192983267219279,,0.00005963787437917991,0.7911782364696346,,0.00005963787437917991,0.7911782364696346,,0.00005963787437917991,0.7911782364696346,,0.00005963787437917991,0.7911782134420182,,0.00005963787437917991,-0.03836132807141707,,0.00005963787437917991,-0.03836132807141707,,0.00005963787437917991,-0.03301580549706473,,0.00005963787437917991,1.62,,0.00005963787437917991,1.62,,0.00005963787437917991,0.7908192505379812
0.00005975994469167991,2.4388139644001647,,0.00005975994469167991,1.619299217624532,,0.00005975994469167991,1.619299217624532,,0.00005975994469167991,1.619299217624532,,0.00005975994469167991,0.7898344009328455,,0.00005975994469167991,0.7898344009328455,,0.00005975994469167991,0.7898344009328455,,0.00005975994469167991,0.7898343635618704,,0.00005975994469167991,-0.04211205700412337,,0.00005975994469167991,-0.04211205700412337,,0.00005975994469167991,-0.03594680946867456,,0.00005975994469167991,1.62,,0.00005975994469167991,1.62,,0.00005975994469167991,0.7889441517148503
0.00005979046226980491,2.439150320124892,,0.00005979046226980491,1.619299562515544,,0.00005979046226980491,1.619299562515544,,0.00005979046226980491,1.619299562515544,,0.00005979046226980491,0.7894989875684275,,0.00005979046226980491,0.7894989875684275,,0.00005979046226980491,0.7894989875684275,,0.00005979046226980491,0.7894989414567954,,0.00005979046226980491,-0.04343068774610381,,0.00005979046226980491,-0.04343068774610381,,0.00005979046226980491,-0.03676368317746282,,0.00005979046226980491,1.62,,0.00005979046226980491,1.62,,0.00005979046226980491,0.7882849982161484
0.00005985149742605491,2.4398226701111123,,0.00005985149742605491,1.6193000971815796,,0.00005985149742605491,1.6193000971815796,,0.00005985149742605491,1.6193000971815796,,0.00005985149742605491,0.7888282123808662,,0.00005985149742605491,0.7888282123808662,,0.00005985149742605491,0.7888282123808662,,0.00005985149742605491,0.7888281503567209,,0.00005985149742605491,-0.04595157742407843,,0.00005985149742605491,-0.04595157742407843,,0.00005985149742605491,-0.038554288794235524,,0.00005985149742605491,1.62,,0.00005985149742605491,1.62,,0.00005985149742605491,0.787024848069286
0.00005997356773855491,2.441165922846647,,0.00005997356773855491,1.6193012002204232,,0.00005997356773855491,1.6193012002204232,,0.00005997356773855491,1.6193012002204232,,0.00005997356773855491,0.7874881778944941,,0.00005997356773855491,0.7874881778944941,,0.00005997356773855491,0.7874881778944941,,0.00005997356773855491,0.7874881422991334,,0.00005997356773855491,-0.046672953755673374,,0.00005997356773855491,-0.046672953755673374,,0.00005997356773855491,-0.04170330091297328,,0.00005997356773855491,1.62,,0.00005997356773855491,1.62,,0.00005997356773855491,0.7866636704918603
0.00005999733827576158,2.44142726741719,,0.00005999733827576158,1.6193014031892607,,0.00005999733827576158,1.6193014031892607,,0.00005999733827576158,1.6193014031892607,,0.00005999733827576158,0.7872274365519611,,0.00005999733827576158,0.7872274365519611,,0.00005999733827576158,0.7872274365519611,,0.00005999733827576158,0.7872274174236077,,0.00005999733827576158,-0.04597402052924453,,0.00005999733827576158,-0.04597402052924453,,0.00005999733827576158,-0.04213983008349504,,0.00005999733827576158,1.62,,0.00005999733827576158,1.62,,0.00005999733827576158,0.7870128321583123
0.000060044879350174914,2.4419497366537692,,0.000060044879350174914,1.6193018302365818,,0.000060044879350174914,1.6193018302365818,,0.000060044879350174914,1.6193018302365818,,0.000060044879350174914,0.7867062161782172,,0.000060044879350174914,0.7867062161782172,,0.000060044879350174914,0.7867062161782172,,0.000060044879350174914,0.7867062605142741,,0.000060044879350174914,-0.04231292677709774,,0.000060044879350174914,-0.04231292677709774,,0.000060044879350174914,-0.042501370956152265,,0.000060044879350174914,1.62,,0.000060044879350174914,1.62,,0.000060044879350174914,0.7888422037518403
0.00006005676461877825,2.442080308132478,,0.00006005676461877825,1.6193019348975333,,0.00006005676461877825,1.6193019348975333,,0.00006005676461877825,1.6193019348975333,,0.00006005676461877825,0.7865759527525222,,0.00006005676461877825,0.7865759527525222,,0.00006005676461877825,0.7865759527525222,,0.00006005676461877825,0.7865760235146396,,0.00006005676461877825,-0.04061493864329881,,0.00006005676461877825,-0.04061493864329881,,0.00006005676461877825,-0.04245117514110845,,0.00006005676461877825,1.62,,0.00006005676461877825,1.62,,0.00006005676461877825,0.7896907084394114
0.000060080535155984916,2.4423413960729823,,0.000060080535155984916,1.6193021468894062,,0.000060080535155984916,1.6193021468894062,,0.000060080535155984916,1.6193021468894062,,0.000060080535155984916,0.7863154863048388,,0.000060080535155984916,0.7863154863048388,,0.000060080535155984916,0.7863154863048388,,0.000060080535155984916,0.7863156448251339,,0.000060080535155984916,-0.03463184511538222,,0.000060080535155984916,-0.03463184511538222,,0.000060080535155984916,-0.04199503157460373,,0.000060080535155984916,1.62,,0.000060080535155984916,1.62,,0.000060080535155984916,0.7926806300233336
0.00006012060191190524,2.442781310356394,,0.00006012060191190524,1.6193025063220665,,0.00006012060191190524,1.6193025063220665,,0.00006012060191190524,1.6193025063220665,,0.00006012060191190524,0.7858766239422437,,0.00006012060191190524,0.7858766239422437,,0.00006012060191190524,0.7858766239422437,,0.00006012060191190524,0.7858772004854556,,0.00006012060191190524,-0.004528599439342333,,0.00006012060191190524,-0.004528599439342333,,0.00006012060191190524,-0.038537298493670276,,0.00006012060191190524,1.62,,0.00006012060191190524,1.62,,0.00006012060191190524,0.8077245115479824
0.00006016004979986527,2.44321422598671,,0.00006016004979986527,1.6193028674295966,,0.00006016004979986527,1.6193028674295966,,0.00006016004979986527,1.6193028674295966,,0.00006016004979986527,0.7854447586114411,,0.00006016004979986527,0.7854447586114411,,0.00006016004979986527,0.7854447586114411,,0.00006016004979986527,0.7854466746207098,,0.00006016004979986527,0.09387965896696736,,0.00006016004979986527,0.09387965896696736,,0.00006016004979986527,-0.025883993345184188,,0.00006016004979986527,1.62,,0.00006016004979986527,1.62,,0.00006016004979986527,0.8569038353345183
0.00006020857340847034,2.4437464644437368,,0.00006020857340847034,1.6193033557844885,,0.00006020857340847034,1.6193033557844885,,0.00006020857340847034,1.6193033557844885,,0.00006020857340847034,0.7849139006664261,,0.00006020857340847034,0.7849139006664261,,0.00006020857340847034,0.7849139006664261,,0.00006020857340847034,0.7849229998048165,,0.00006020857340847034,0.625181984627766,,0.00006020857340847034,0.625181984627766,,0.00006020857340847034,0.04496609684102647,,0.00006020857340847034,1.62,,0.00006020857340847034,1.62,,0.00006020857340847034,1.1224219746026944
0.00006025958984652005,2.444305715582813,,0.00006025958984652005,1.6193040405319856,,0.00006025958984652005,1.6193040405319856,,0.00006025958984652005,1.6193040405319856,,0.00006025958984652005,0.7843564438502215,,0.00006025958984652005,0.7843564438502215,,0.00006025958984652005,0.7843564438502215,,0.00006025958984652005,0.7843958515791517,,0.00006025958984652005,2.870331021186925,,0.00006025958984652005,2.870331021186925,,0.00006025958984652005,0.3725211838650898,,0.00006025958984652005,1.62,,0.00006025958984652005,1.62,,0.00006025958984652005,2.2444352114695953
0.00006029496306787427,2.4446932841607265,,0.00006029496306787427,1.619304217354739,,0.00006029496306787427,1.619304217354739,,0.00006029496306787427,1.619304217354739,,0.00006029496306787427,0.7839695236490387,,0.00006029496306787427,0.7839695236490387,,0.00006029496306787427,0.7839695236490387,,0.00006029496306787427,0.7840097942232194,,0.00006029496306787427,2.9335053196118803,,0.00006029496306787427,2.9335053196118803,,0.00006029496306787427,0.7201419060969716,,0.00006029496306787427,1.62,,0.00006029496306787427,1.62,,0.00006029496306787427,2.2760063817525413
0.000060328142697911744,2.445056670432099,,0.000060328142697911744,1.6193043394833564,,0.000060328142697911744,1.6193043394833564,,0.000060328142697911744,1.6193043394833564,,0.000060328142697911744,0.78360665821396,,0.000060328142697911744,0.78360665821396,,0.000060328142697911744,0.78360665821396,,0.000060328142697911744,0.783647504592035,,0.000060328142697911744,2.975454199923683,,0.000060328142697911744,2.975454199923683,,0.000060328142697911744,1.0094023410332287,,0.000060328142697911744,1.62,,0.000060328142697911744,1.62,,0.000060328142697911744,2.2969701586655336
0.00006036774814825421,2.445490245066697,,0.00006036774814825421,1.6193046847977375,,0.00006036774814825421,1.6193046847977375,,0.00006036774814825421,1.6193046847977375,,0.00006036774814825421,0.783174104510221,,0.00006036774814825421,0.783174104510221,,0.00006036774814825421,0.783174104510221,,0.00006036774814825421,0.7832156935394456,,0.00006036774814825421,3.0296292715784046,,0.00006036774814825421,3.0296292715784046,,0.00006036774814825421,1.3145919750103519,,0.00006036774814825421,1.62,,0.00006036774814825421,1.62,,0.00006036774814825421,2.3240439414252503
0.00006044695904893915,2.446356780801626,,0.00006044695904893915,1.6193054007042516,,0.00006044695904893915,1.6193054007042516,,0.00006044695904893915,1.6193054007042516,,0.00006044695904893915,0.7823096617106602,,0.00006044695904893915,0.7823096617106602,,0.00006044695904893915,0.7823096617106602,,0.00006044695904893915,0.7823523806425496,,0.00006044695904893915,3.1116409712633852,,0.00006044695904893915,3.1116409712633852,,0.00006044695904893915,1.814666254381049,,0.00006044695904893915,1.62,,0.00006044695904893915,1.62,,0.00006044695904893915,2.3650288667387858
0.00006060538085030903,2.4480873951304836,,0.00006060538085030903,1.6193067963585885,,0.00006060538085030903,1.6193067963585885,,0.00006060538085030903,1.6193067963585885,,0.00006060538085030903,0.7805831630055322,,0.00006060538085030903,0.7805831630055322,,0.00006060538085030903,0.7805831630055322,,0.00006060538085030903,0.7806274368522829,,0.00006060538085030903,3.223427518327965,,0.00006060538085030903,3.223427518327965,,0.00006060538085030903,2.496400960473893,,0.00006060538085030903,1.62,,0.00006060538085030903,1.62,,0.00006060538085030903,2.4208933450014047
